Time Stamp,ID,Extended,Dir,Bus,LEN,D1,D2,D3,D4,D5,D6,D7,D8
-1709726744457876,0000039F,false,Rx,0,8,33,00,00,00,00,00,00,33,
-1709726744457663,000003A2,false,Rx,0,8,20,00,00,40,03,FF,00,9C,
-1709726744457407,000003A4,false,Rx,0,8,00,00,00,00,00,00,00,00,
-1709726744357355,0000039F,false,Rx,0,8,33,00,00,00,00,00,21,12,
-1709726744357099,000003A2,false,Rx,0,8,20,00,00,84,03,FF,00,58,
-1709726744356843,000003A4,false,Rx,0,8,00,00,00,00,00,00,00,00,
-1709726744257260,0000039F,false,Rx,0,8,33,00,00,00,00,00,22,11,
-1709726744257004,000003A2,false,Rx,0,8,20,00,00,88,03,FF,00,54,
-1709726744256749,000003A4,false,Rx,0,8,00,00,00,00,00,00,00,00,
-1709726744156867,0000039F,false,Rx,0,8,33,00,00,00,00,00,23,10,
-1709726744156611,000003A2,false,Rx,0,8,20,00,00,8C,03,FF,00,50,
-1709726744156355,000003A4,false,Rx,0,8,00,00,00,00,00,00,00,00,
-1709726744056604,0000039F,false,Rx,0,8,33,00,00,00,00,00,24,17,
-1709726744056348,000003A2,false,Rx,0,8,20,00,00,90,03,FF,00,4C,
-1709726744056092,000003A4,false,Rx,0,8,00,00,00,00,00,00,00,00,
-1709726743956296,0000039F,false,Rx,0,8,33,00,00,00,00,00,25,16,
-1709726743956040,000003A2,false,Rx,0,8,20,00,00,94,03,FF,00,48,
-1709726743955784,000003A4,false,Rx,0,8,00,00,00,00,00,00,00,00,
-1709726743856287,0000039F,false,Rx,0,8,33,00,00,00,00,00,26,15,
-1709726743856031,000003A2,false,Rx,0,8,20,00,00,98,03,FF,00,44,
-1709726743855818,000003A4,false,Rx,0,8,00,00,00,00,00,00,00,00,
-1709726743755851,0000039F,false,Rx,0,8,33,00,00,00,00,00,27,14,
-1709726743755638,000003A2,false,Rx,0,8,20,00,00,9C,03,FF,00,40,
-1709726743755382,000003A4,false,Rx,0,8,00,00,00,00,00,00,00,00,
-1709726743655714,0000039F,false,Rx,0,8,33,00,00,00,00,00,28,1B,
-1709726743655458,000003A2,false,Rx,0,8,20,00,00,A0,03,FF,00,7C,
-1709726743655202,000003A4,false,Rx,0,8,00,00,00,00,00,00,00,00,
-1709726743555022,0000039F,false,Rx,0,8,33,00,00,00,00,00,29,1A,
-1709726743554766,000003A2,false,Rx,0,8,20,00,00,A4,03,FF,00,78,
-1709726743554510,000003A4,false,Rx,0,8,00,00,00,00,00,00,00,00,
-1709726743454800,0000039F,false,Rx,0,8,33,00,00,00,00,00,2A,19,
-1709726743454544,000003A2,false,Rx,0,8,20,00,00,A8,03,FF,00,74,
-1709726743454288,000003A4,false,Rx,0,8,00,00,00,00,00,00,00,00,
-1709726743354364,0000039F,false,Rx,0,8,33,00,00,00,00,00,2B,18,
-1709726743354108,000003A2,false,Rx,0,8,20,00,00,AC,03,FF,00,70,
-1709726743353895,000003A4,false,Rx,0,8,00,00,00,00,00,00,00,00,
-1709726743254057,0000039F,false,Rx,0,8,33,00,00,00,00,00,2C,1F,
-1709726743253843,000003A2,false,Rx,0,8,20,00,00,B0,03,FF,00,6C,
-1709726743253587,000003A4,false,Rx,0,8,00,00,00,00,00,00,00,00,
-1709726743153919,0000039F,false,Rx,0,8,33,00,00,00,00,00,2D,1E,
-1709726743153663,000003A2,false,Rx,0,8,20,00,00,B4,03,FF,00,68,
-1709726743153407,000003A4,false,Rx,0,8,00,00,00,00,00,00,00,00,
-1709726743053754,0000039F,false,Rx,0,8,33,00,00,00,00,00,2E,1D,
-1709726743053498,000003A2,false,Rx,0,8,20,00,00,B8,03,FF,00,64,
-1709726743053242,000003A4,false,Rx,0,8,00,00,00,00,00,00,00,00,
-1709726742953617,0000039F,false,Rx,0,8,33,00,00,00,00,00,2F,1C,
-1709726742953404,000003A2,false,Rx,0,8,20,00,00,BC,03,FF,00,60,
-1709726742953148,000003A4,false,Rx,0,8,00,00,00,00,00,00,00,00,
-1709726742853267,0000039F,false,Rx,0,8,33,00,00,00,00,00,20,13,
-1709726742853011,000003A2,false,Rx,0,8,20,00,00,80,03,FF,00,5C,
-1709726742852755,000003A4,false,Rx,0,8,00,00,00,00,00,00,00,00,
-1709726742753002,0000039F,false,Rx,0,8,33,00,00,00,00,00,21,12,
-1709726742752746,000003A2,false,Rx,0,8,20,00,00,84,03,FF,00,58,
-1709726742752490,000003A4,false,Rx,0,8,00,00,00,00,00,00,00,00,
-1709726742652651,0000039F,false,Rx,0,8,33,00,00,00,00,00,22,11,
-1709726742652395,000003A2,false,Rx,0,8,20,00,00,88,03,FF,00,54,
-1709726742652139,000003A4,false,Rx,0,8,00,00,00,00,00,00,00,00,
-1709726742552429,0000039F,false,Rx,0,8,33,00,00,00,00,00,23,10,
-1709726742552173,000003A2,false,Rx,0,8,20,00,00,8C,03,FF,00,50,
-1709726742551917,000003A4,false,Rx,0,8,00,00,00,00,00,00,00,00,
-1709726742452036,0000039F,false,Rx,0,8,33,00,00,00,00,00,24,17,
-1709726742451822,000003A2,false,Rx,0,8,20,00,00,90,03,FF,00,4C,
-1709726742451566,000003A4,false,Rx,0,8,00,00,00,00,00,00,00,00,
-1709726742431940,0000070E,false,Rx,0,7,2F,FF,1F,AD,00,AF,03,00,
-1709726742351600,0000039F,false,Rx,0,8,33,00,00,00,00,00,25,16,
-1709726742351344,000003A2,false,Rx,0,8,20,00,28,94,03,FF,00,60,
-1709726742351088,000003A4,false,Rx,0,8,00,00,00,00,00,00,00,00,
-1709726742251378,0000039F,false,Rx,0,8,33,00,00,00,00,00,26,15,
-1709726742251122,000003A2,false,Rx,0,8,20,00,28,98,03,FF,00,6C,
-1709726742250866,000003A4,false,Rx,0,8,00,00,00,00,00,00,00,00,
-1709726742151155,0000039F,false,Rx,0,8,33,00,00,00,00,00,27,14,
-1709726742150899,000003A2,false,Rx,0,8,20,00,28,9C,03,FF,00,68,
-1709726742150643,000003A4,false,Rx,0,8,00,00,00,00,00,00,00,00,
-1709726742050732,0000039F,false,Rx,0,8,33,00,00,00,00,00,28,1B,
-1709726742050476,000003A2,false,Rx,0,8,20,00,28,A0,03,FF,00,54,
-1709726742050220,000003A4,false,Rx,0,8,00,00,00,00,00,00,00,00,
-1709726741950467,0000039F,false,Rx,0,8,33,00,00,00,00,00,29,1A,
-1709726741950211,000003A2,false,Rx,0,8,20,00,28,A4,03,FF,00,50,
-1709726741949955,000003A4,false,Rx,0,8,00,00,00,00,00,00,00,00,
-1709726741850031,0000039F,false,Rx,0,8,33,00,00,00,00,00,2A,19,
-1709726741849818,000003A2,false,Rx,0,8,20,00,28,A8,03,FF,00,5C,
-1709726741849562,000003A4,false,Rx,0,8,00,00,00,00,00,00,00,00,
-1709726741749894,0000039F,false,Rx,0,8,33,00,00,00,00,00,2B,18,
-1709726741749638,000003A2,false,Rx,0,8,20,00,28,AC,03,FF,00,58,
-1709726741749382,000003A4,false,Rx,0,8,00,00,00,00,00,00,00,00,
-1709726741649501,0000039F,false,Rx,0,8,33,00,00,00,00,00,2C,1F,
-1709726741649245,000003A2,false,Rx,0,8,20,00,28,B0,03,FF,00,44,
-1709726741648989,000003A4,false,Rx,0,8,00,00,00,00,00,00,00,00,
-1709726741549236,0000039F,false,Rx,0,8,33,00,00,00,00,00,2D,1E,
-1709726741548980,000003A2,false,Rx,0,8,20,00,28,B4,03,FF,00,40,
-1709726741548766,000003A4,false,Rx,0,8,00,00,00,00,00,00,00,00,
-1709726741449056,0000039F,false,Rx,0,8,33,00,00,00,00,00,2E,1D,
-1709726741448843,000003A2,false,Rx,0,8,20,00,28,B8,03,FF,00,4C,
-1709726741448587,000003A4,false,Rx,0,8,00,00,00,00,00,00,00,00,
-1709726741418849,0000070E,false,Rx,0,7,2F,FF,1F,C5,96,2F,05,00,
-1709726741348620,0000039F,false,Rx,0,8,33,00,00,00,00,00,2F,1C,
-1709726741348364,000003A2,false,Rx,0,8,20,00,28,BC,03,FF,00,48,
-1709726741348151,000003A4,false,Rx,0,8,00,00,00,00,00,00,00,00,
-1709726741248313,0000039F,false,Rx,0,8,33,00,00,00,00,00,20,13,
-1709726741248057,000003A2,false,Rx,0,8,20,00,28,80,03,FF,00,74,
-1709726741247801,000003A4,false,Rx,0,8,00,00,00,00,00,00,00,00,
-1709726741148005,0000039F,false,Rx,0,8,33,00,00,00,00,00,21,12,
-1709726741147791,000003A2,false,Rx,0,8,20,00,28,84,03,FF,00,70,
-1709726741147535,000003A4,false,Rx,0,8,00,00,00,00,00,00,00,00,
-1709726741047779,0000039F,false,Rx,0,8,33,00,00,00,00,00,22,11,
-1709726741047566,000003A2,false,Rx,0,8,20,00,28,88,03,FF,00,7C,
-1709726741047310,000003A4,false,Rx,0,8,00,00,00,00,00,00,00,00,
-1709726740947386,0000039F,false,Rx,0,8,33,00,00,00,00,00,23,10,
-1709726740947130,000003A2,false,Rx,0,8,20,00,28,8C,03,FF,00,78,
-1709726740946874,000003A4,false,Rx,0,8,00,00,00,00,00,00,00,00,
-1709726740847249,0000039F,false,Rx,0,8,33,00,00,00,00,00,24,17,
-1709726740846993,000003A2,false,Rx,0,8,20,00,28,90,03,FF,00,64,
-1709726740846737,000003A4,false,Rx,0,8,00,00,00,00,00,00,00,00,
-1709726740746941,0000039F,false,Rx,0,8,33,00,00,00,00,00,25,16,
-1709726740746685,000003A2,false,Rx,0,8,20,00,28,94,03,FF,00,60,
-1709726740746429,000003A4,false,Rx,0,8,00,00,00,00,00,00,00,00,
-1709726740646548,0000039F,false,Rx,0,8,33,00,00,00,00,00,26,15,
-1709726740646292,000003A2,false,Rx,0,8,20,00,28,98,03,FF,00,6C,
-1709726740646036,000003A4,false,Rx,0,8,00,00,00,00,00,00,00,00,
-1709726740546368,0000039F,false,Rx,0,8,33,00,00,00,00,00,27,14,
-1709726740546112,000003A2,false,Rx,0,8,20,00,28,9C,03,FF,00,68,
-1709726740545856,000003A4,false,Rx,0,8,00,00,00,00,00,00,00,00,
-1709726740445804,0000039F,false,Rx,0,8,33,00,00,00,00,00,28,1B,
-1709726740445548,000003A2,false,Rx,0,8,20,00,28,A0,03,FF,00,54,
-1709726740445292,000003A4,false,Rx,0,8,00,00,00,00,00,00,00,00,
-1709726740405997,0000070E,false,Rx,0,7,2F,FF,1D,65,01,AF,02,00,
-1709726740345582,0000039F,false,Rx,0,8,33,00,00,00,00,00,29,1A,
-1709726740345326,000003A2,false,Rx,0,8,20,00,28,A4,03,FF,00,50,
-1709726740345070,000003A4,false,Rx,0,8,00,00,00,00,00,00,00,00,
-1709726740245445,0000039F,false,Rx,0,8,33,00,00,00,00,00,2A,19,
-1709726740245189,000003A2,false,Rx,0,8,20,00,28,A8,03,FF,00,5C,
-1709726740244933,000003A4,false,Rx,0,8,00,00,00,00,00,00,00,00,
-1709726740145222,0000039F,false,Rx,0,8,33,00,00,00,00,00,2B,18,
-1709726740144966,000003A2,false,Rx,0,8,20,00,28,AC,03,FF,00,58,
-1709726740144753,000003A4,false,Rx,0,8,00,00,00,00,00,00,00,00,
-1709726740044714,0000039F,false,Rx,0,8,33,00,00,00,00,00,2C,1F,
-1709726740044458,000003A2,false,Rx,0,8,20,00,28,B0,03,FF,00,44,
-1709726740044202,000003A4,false,Rx,0,8,00,00,00,00,00,00,00,00,
-1709726739944449,0000039F,false,Rx,0,8,33,00,00,00,00,00,2D,1E,
-1709726739944193,000003A2,false,Rx,0,8,20,00,28,B4,03,FF,00,40,
-1709726739943937,000003A4,false,Rx,0,8,00,00,00,00,00,00,00,00,
-1709726739843885,0000039F,false,Rx,0,8,33,00,00,00,00,00,2E,1D,
-1709726739843672,000003A2,false,Rx,0,8,20,00,28,B8,03,FF,00,4C,
-1709726739843416,000003A4,false,Rx,0,8,00,00,00,00,00,00,00,00,
-1709726739743833,0000039F,false,Rx,0,8,33,00,00,00,00,00,2F,1C,
-1709726739743577,000003A2,false,Rx,0,8,20,00,28,BC,03,FF,00,48,
-1709726739743364,000003A4,false,Rx,0,8,00,00,00,00,00,00,00,00,
-1709726739643440,0000039F,false,Rx,0,8,33,00,00,00,00,00,20,13,
-1709726739643184,000003A2,false,Rx,0,8,20,00,28,80,03,FF,00,74,
-1709726739642928,000003A4,false,Rx,0,8,00,00,00,00,00,00,00,00,
-1709726739543346,0000039F,false,Rx,0,8,33,00,00,00,00,00,21,12,
-1709726739543090,000003A2,false,Rx,0,8,20,00,28,84,03,FF,00,70,
-1709726739542834,000003A4,false,Rx,0,8,00,00,00,00,00,00,00,00,
-1709726739442825,0000039F,false,Rx,0,8,33,00,00,00,00,00,22,11,
-1709726739442569,000003A2,false,Rx,0,8,20,00,28,88,03,FF,00,7C,
-1709726739442313,000003A4,false,Rx,0,8,00,00,00,00,00,00,00,00,
-1709726739342645,0000039F,false,Rx,0,8,33,00,00,00,00,00,23,10,
-1709726739342389,000003A2,false,Rx,0,8,20,00,28,8C,03,FF,00,78,
-1709726739342133,000003A4,false,Rx,0,8,00,00,00,00,00,00,00,00,
-1709726739242209,0000039F,false,Rx,0,8,33,00,00,00,00,00,24,17,
-1709726739241953,000003A2,false,Rx,0,8,20,00,28,90,03,FF,00,64,
-1709726739241697,000003A4,false,Rx,0,8,00,00,00,00,00,00,00,00,
-1709726739142072,0000039F,false,Rx,0,8,33,00,00,00,00,00,25,16,
-1709726739141816,000003A2,false,Rx,0,8,20,00,28,94,03,FF,00,60,
-1709726739141560,000003A4,false,Rx,0,8,00,00,00,00,00,00,00,00,
-1709726739041864,0000039F,false,Rx,0,8,33,00,00,00,00,00,26,15,
-1709726739041651,000003A2,false,Rx,0,8,20,00,28,98,03,FF,00,6C,
-1709726739041395,000003A4,false,Rx,0,8,00,00,00,00,00,00,00,00,
-1709726738941557,0000039F,false,Rx,0,8,33,00,00,00,00,00,27,14,
-1709726738941301,000003A2,false,Rx,0,8,20,00,28,9C,03,FF,00,68,
-1709726738941045,000003A4,false,Rx,0,8,00,00,00,00,00,00,00,00,
-1709726738841249,0000039F,false,Rx,0,8,33,00,00,00,00,00,28,1B,
-1709726738840993,000003A2,false,Rx,0,8,20,00,28,A0,03,FF,00,54,
-1709726738840737,000003A4,false,Rx,0,8,00,00,00,00,00,00,00,00,
-1709726738740941,0000039F,false,Rx,0,8,33,00,00,00,00,00,29,1A,
-1709726738740685,000003A2,false,Rx,0,8,20,00,28,A4,03,FF,00,50,
-1709726738740429,000003A4,false,Rx,0,8,00,00,00,00,00,00,00,00,
-1709726738640505,0000039F,false,Rx,0,8,33,00,00,00,00,00,2A,19,
-1709726738640249,000003A2,false,Rx,0,8,20,00,28,A8,03,FF,00,5C,
-1709726738639993,000003A4,false,Rx,0,8,00,00,00,00,00,00,00,00,
-1709726738540325,0000039F,false,Rx,0,8,33,00,00,00,00,00,2B,18,
-1709726738540112,000003A2,false,Rx,0,8,20,00,28,AC,03,FF,00,58,
-1709726738539856,000003A4,false,Rx,0,8,00,00,00,00,00,00,00,00,
-1709726738439932,0000039F,false,Rx,0,8,33,00,00,00,00,00,2C,1F,
-1709726738439676,000003A2,false,Rx,0,8,20,00,28,B0,03,FF,00,44,
-1709726738439463,000003A4,false,Rx,0,8,00,00,00,00,00,00,00,00,
-1709726738339667,0000039F,false,Rx,0,8,33,00,00,00,00,00,2D,1E,
-1709726738339411,000003A2,false,Rx,0,8,20,00,28,B4,03,FF,00,40,
-1709726738339155,000003A4,false,Rx,0,8,00,00,00,00,00,00,00,00,
-1709726738239402,0000039F,false,Rx,0,8,33,00,00,00,00,00,2E,1D,
-1709726738239146,000003A2,false,Rx,0,8,20,00,28,B8,03,FF,00,4C,
-1709726738238890,000003A4,false,Rx,0,8,00,00,00,00,00,00,00,00,
-1709726738138966,0000039F,false,Rx,0,8,33,00,00,00,00,00,2F,1C,
-1709726738138710,000003A2,false,Rx,0,8,20,00,28,BC,03,FF,00,48,
-1709726738138454,000003A4,false,Rx,0,8,00,00,00,00,00,00,00,00,
-1709726738038757,0000039F,false,Rx,0,8,33,00,00,00,00,00,20,13,
-1709726738038501,000003A2,false,Rx,0,8,20,00,28,80,03,FF,00,74,
-1709726738038245,000003A4,false,Rx,0,8,00,00,00,00,00,00,00,00,
-1709726737938534,0000039F,false,Rx,0,8,33,00,00,00,00,00,21,12,
-1709726737938321,000003A2,false,Rx,0,8,20,00,28,84,03,FF,00,70,
-1709726737938065,000003A4,false,Rx,0,8,00,00,00,00,00,00,00,00,
-1709726737838226,0000039F,false,Rx,0,8,33,00,00,00,00,00,22,11,
-1709726737837970,000003A2,false,Rx,0,8,20,00,28,88,03,FF,00,7C,
-1709726737837714,000003A4,false,Rx,0,8,00,00,00,00,00,00,00,00,
-1709726737737876,0000039F,false,Rx,0,8,33,00,00,00,00,00,23,10,
-1709726737737620,000003A2,false,Rx,0,8,20,00,28,8C,03,FF,00,78,
-1709726737737364,000003A4,false,Rx,0,8,00,00,00,00,00,00,00,00,
-1709726737637483,0000039F,false,Rx,0,8,33,00,00,00,00,00,24,17,
-1709726737637227,000003A2,false,Rx,0,8,20,00,28,90,03,FF,00,64,
-1709726737636971,000003A4,false,Rx,0,8,00,00,00,00,00,00,00,00,
-1709726737537346,0000039F,false,Rx,0,8,33,00,00,00,00,00,25,16,
-1709726737537090,000003A2,false,Rx,0,8,20,00,28,94,03,FF,00,60,
-1709726737536834,000003A4,false,Rx,0,8,00,00,00,00,00,00,00,00,
-1709726737436910,0000039F,false,Rx,0,8,33,00,00,00,00,00,26,15,
-1709726737436654,000003A2,false,Rx,0,8,20,00,28,98,03,FF,00,6C,
-1709726737436398,000003A4,false,Rx,0,8,00,00,00,00,00,00,00,00,
-1709726737336730,0000039F,false,Rx,0,8,33,00,00,00,00,00,27,14,
-1709726737336474,000003A2,false,Rx,0,8,20,00,28,9C,03,FF,00,68,
-1709726737336218,000003A4,false,Rx,0,8,00,00,00,00,00,00,00,00,
-1709726737236380,0000039F,false,Rx,0,8,33,00,00,00,00,00,28,1B,
-1709726737236167,000003A2,false,Rx,0,8,20,00,28,A0,03,FF,00,54,
-1709726737235911,000003A4,false,Rx,0,8,00,00,00,00,00,00,00,00,
-1709726737136072,0000039F,false,Rx,0,8,33,00,00,00,00,00,29,1A,
-1709726737135859,000003A2,false,Rx,0,8,20,00,28,A4,03,FF,00,50,
-1709726737135603,000003A4,false,Rx,0,8,00,00,00,00,00,00,00,00,
-1709726737035736,0000039F,false,Rx,0,8,33,00,00,00,00,00,2A,19,
-1709726737035523,000003A2,false,Rx,0,8,20,00,28,A8,03,FF,00,5C,
-1709726737035267,000003A4,false,Rx,0,8,00,00,00,00,00,00,00,00,
-1709726736935685,0000039F,false,Rx,0,8,33,00,00,00,00,00,2B,18,
-1709726736935429,000003A2,false,Rx,0,8,20,00,28,AC,03,FF,00,58,
-1709726736935173,000003A4,false,Rx,0,8,00,00,00,00,00,00,00,00,
-1709726736835163,0000039F,false,Rx,0,8,33,00,00,00,00,00,2C,1F,
-1709726736834950,000003A2,false,Rx,0,8,20,00,28,B0,03,FF,00,44,
-1709726736834694,000003A4,false,Rx,0,8,00,00,00,00,00,00,00,00,
-1709726736734984,0000039F,false,Rx,0,8,33,00,00,00,00,00,2D,1E,
-1709726736734770,000003A2,false,Rx,0,8,20,00,28,B4,03,FF,00,40,
-1709726736734514,000003A4,false,Rx,0,8,00,00,00,00,00,00,00,00,
-1709726736634505,0000039F,false,Rx,0,8,33,00,00,00,00,00,2E,1D,
-1709726736634292,000003A2,false,Rx,0,8,20,00,28,B8,03,FF,00,4C,
-1709726736634036,000003A4,false,Rx,0,8,00,00,00,00,00,00,00,00,
-1709726736534368,0000039F,false,Rx,0,8,33,00,00,00,00,00,2F,1C,
-1709726736534155,000003A2,false,Rx,0,8,20,00,28,BC,03,FF,00,48,
-1709726736533899,000003A4,false,Rx,0,8,00,00,00,00,00,00,00,00,
-1709726736434188,0000039F,false,Rx,0,8,33,00,00,00,00,00,20,13,
-1709726736433975,000003A2,false,Rx,0,8,20,00,28,80,03,FF,00,74,
-1709726736433719,000003A4,false,Rx,0,8,00,00,00,00,00,00,00,00,
-1709726736333539,0000039F,false,Rx,0,8,33,00,00,00,00,00,21,12,
-1709726736333283,000003A2,false,Rx,0,8,20,00,28,84,03,FF,00,70,
-1709726736333027,000003A4,false,Rx,0,8,00,00,00,00,00,00,00,00,
-1709726736233317,0000039F,false,Rx,0,8,33,00,00,00,00,00,22,11,
-1709726736233061,000003A2,false,Rx,0,8,20,00,28,88,03,FF,00,7C,
-1709726736232805,000003A4,false,Rx,0,8,00,00,00,00,00,00,00,00,
-1709726736133180,0000039F,false,Rx,0,8,33,00,00,00,00,00,23,10,
-1709726736132924,000003A2,false,Rx,0,8,20,00,28,8C,03,FF,00,78,
-1709726736132668,000003A4,false,Rx,0,8,00,00,00,00,00,00,00,00,
-1709726736032922,0000039F,false,Rx,0,8,33,00,00,00,00,00,24,17,
-1709726736032666,000003A2,false,Rx,0,8,20,00,28,90,03,FF,00,64,
-1709726736032410,000003A4,false,Rx,0,8,00,00,00,00,00,00,00,00,
-1709726735932401,0000039F,false,Rx,0,8,33,00,00,00,00,00,25,16,
-1709726735932188,000003A2,false,Rx,0,8,20,00,28,94,03,FF,00,60,
-1709726735931932,000003A4,false,Rx,0,8,00,00,00,00,00,00,00,00,
-1709726735832221,0000039F,false,Rx,0,8,33,00,00,00,00,00,26,15,
-1709726735831965,000003A2,false,Rx,0,8,20,00,28,98,03,FF,00,6C,
-1709726735831709,000003A4,false,Rx,0,8,00,00,00,00,00,00,00,00,
-1709726735732041,0000039F,false,Rx,0,8,33,00,00,00,00,00,27,14,
-1709726735731785,000003A2,false,Rx,0,8,20,00,28,9C,03,FF,00,68,
-1709726735731529,000003A4,false,Rx,0,8,00,00,00,00,00,00,00,00,
-1709726735631563,0000039F,false,Rx,0,8,33,00,00,00,00,00,28,1B,
-1709726735631350,000003A2,false,Rx,0,8,20,00,28,A0,03,FF,00,54,
-1709726735631094,000003A4,false,Rx,0,8,00,00,00,00,00,00,00,00,
-1709726735531341,0000039F,false,Rx,0,8,33,00,00,00,00,00,29,1A,
-1709726735531085,000003A2,false,Rx,0,8,20,00,28,A4,03,FF,00,50,
-1709726735530829,000003A4,false,Rx,0,8,00,00,00,00,00,00,00,00,
-1709726735430905,0000039F,false,Rx,0,8,33,00,00,00,00,00,2A,19,
-1709726735430691,000003A2,false,Rx,0,8,20,00,28,A8,03,FF,00,5C,
-1709726735430435,000003A4,false,Rx,0,8,00,00,00,00,00,00,00,00,
-1709726735330640,0000039F,false,Rx,0,8,33,00,00,00,00,00,2B,18,
-1709726735330384,000003A2,false,Rx,0,8,20,00,28,AC,03,FF,00,58,
-1709726735330128,000003A4,false,Rx,0,8,00,00,00,00,00,00,00,00,
-1709726735230375,0000039F,false,Rx,0,8,33,00,00,00,00,00,2C,1F,
-1709726735230119,000003A2,false,Rx,0,8,20,00,28,B0,03,FF,00,44,
-1709726735229863,000003A4,false,Rx,0,8,00,00,00,00,00,00,00,00,
-1709726735130195,0000039F,false,Rx,0,8,33,00,00,00,00,00,2D,1E,
-1709726735129939,000003A2,false,Rx,0,8,20,00,28,B4,03,FF,00,40,
-1709726735129683,000003A4,false,Rx,0,8,00,00,00,00,00,00,00,00,
-1709726735029732,0000039F,false,Rx,0,8,33,00,00,00,00,00,2E,1D,
-1709726735029518,000003A2,false,Rx,0,8,20,00,28,B8,03,FF,00,4C,
-1709726735029262,000003A4,false,Rx,0,8,00,00,00,00,00,00,00,00,
-1709726734929467,0000039F,false,Rx,0,8,33,00,00,00,00,00,2F,1C,
-1709726734929211,000003A2,false,Rx,0,8,20,00,28,BC,03,FF,00,48,
-1709726734928955,000003A4,false,Rx,0,8,00,00,00,00,00,00,00,00,
-1709726734829159,0000039F,false,Rx,0,8,33,00,00,00,00,00,20,13,
-1709726734828945,000003A2,false,Rx,0,8,20,00,28,80,03,FF,00,74,
-1709726734828689,000003A4,false,Rx,0,8,00,00,00,00,00,00,00,00,
-1709726734729022,0000039F,false,Rx,0,8,33,00,00,00,00,00,21,12,
-1709726734728766,000003A2,false,Rx,0,8,20,00,28,84,03,FF,00,70,
-1709726734728510,000003A4,false,Rx,0,8,00,00,00,00,00,00,00,00,
-1709726734628586,0000039F,false,Rx,0,8,33,00,00,00,00,00,22,11,
-1709726734628330,000003A2,false,Rx,0,8,20,00,28,88,03,FF,00,7C,
-1709726734628074,000003A4,false,Rx,0,8,00,00,00,00,00,00,00,00,
-1709726734528406,0000039F,false,Rx,0,8,33,00,00,00,00,00,23,10,
-1709726734528150,000003A2,false,Rx,0,8,20,00,28,8C,03,FF,00,78,
-1709726734527894,000003A4,false,Rx,0,8,00,00,00,00,00,00,00,00,
-1709726734427970,0000039F,false,Rx,0,8,33,00,00,00,00,00,24,17,
-1709726734427714,000003A2,false,Rx,0,8,20,00,28,90,03,FF,00,64,
-1709726734427458,000003A4,false,Rx,0,8,00,00,00,00,00,00,00,00,
-1709726734327663,0000039F,false,Rx,0,8,33,00,00,00,00,00,25,16,
-1709726734327407,000003A2,false,Rx,0,8,20,00,28,94,03,FF,00,60,
-1709726734327151,000003A4,false,Rx,0,8,00,00,00,00,00,00,00,00,
-1709726734227483,0000039F,false,Rx,0,8,33,00,00,00,00,00,26,15,
-1709726734227227,000003A2,false,Rx,0,8,20,00,28,98,03,FF,00,6C,
-1709726734227014,000003A4,false,Rx,0,8,00,00,00,00,00,00,00,00,
-1709726734127090,0000039F,false,Rx,0,8,33,00,00,00,00,00,27,14,
-1709726734126834,000003A2,false,Rx,0,8,20,00,28,9C,03,FF,00,68,
-1709726734126578,000003A4,false,Rx,0,8,00,00,00,00,00,00,00,00,
-1709726734026752,0000039F,false,Rx,0,8,33,00,00,00,00,00,28,1B,
-1709726734026496,000003A2,false,Rx,0,8,20,00,28,A0,03,FF,00,54,
-1709726734026240,000003A4,false,Rx,0,8,00,00,00,00,00,00,00,00,
-1709726733926615,0000039F,false,Rx,0,8,33,00,00,00,00,00,29,1A,
-1709726733926402,000003A2,false,Rx,0,8,20,00,28,A4,03,FF,00,50,
-1709726733926146,000003A4,false,Rx,0,8,00,00,00,00,00,00,00,00,
-1709726733826136,0000039F,false,Rx,0,8,33,00,00,00,00,00,2A,19,
-1709726733825923,000003A2,false,Rx,0,8,20,00,28,A8,03,FF,00,5C,
-1709726733825667,000003A4,false,Rx,0,8,00,00,00,00,00,00,00,00,
-1709726733725957,0000039F,false,Rx,0,8,33,00,00,00,00,00,2B,18,
-1709726733725743,000003A2,false,Rx,0,8,20,00,28,AC,03,FF,00,58,
-1709726733725487,000003A4,false,Rx,0,8,00,00,00,00,00,00,00,00,
-1709726733625564,0000039F,false,Rx,0,8,33,00,00,00,00,00,2C,1F,
-1709726733625350,000003A2,false,Rx,0,8,20,00,28,B0,03,FF,00,44,
-1709726733625094,000003A4,false,Rx,0,8,00,00,00,00,00,00,00,00,
-1709726733525384,0000039F,false,Rx,0,8,33,00,00,00,00,00,2D,1E,
-1709726733525128,000003A2,false,Rx,0,8,20,00,28,B4,03,FF,00,40,
-1709726733524872,000003A4,false,Rx,0,8,00,00,00,00,00,00,00,00,
-1709726733425204,0000039F,false,Rx,0,8,33,00,00,00,00,00,2E,1D,
-1709726733424948,000003A2,false,Rx,0,8,20,00,28,B8,03,FF,00,4C,
-1709726733424735,000003A4,false,Rx,0,8,00,00,00,00,00,00,00,00,
-1709726733324811,0000039F,false,Rx,0,8,33,00,00,00,00,00,2F,1C,
-1709726733324555,000003A2,false,Rx,0,8,20,00,28,BC,03,FF,00,48,
-1709726733324299,000003A4,false,Rx,0,8,00,00,00,00,00,00,00,00,
-1709726733224418,0000039F,false,Rx,0,8,33,00,00,00,00,00,20,13,
-1709726733224162,000003A2,false,Rx,0,8,20,00,28,80,03,FF,00,74,
-1709726733223906,000003A4,false,Rx,0,8,00,00,00,00,00,00,00,00,
-1709726733124153,0000039F,false,Rx,0,8,33,00,00,00,00,00,21,12,
-1709726733123897,000003A2,false,Rx,0,8,20,00,28,84,03,FF,00,70,
-1709726733123683,000003A4,false,Rx,0,8,00,00,00,00,00,00,00,00,
-1709726733023689,0000039F,false,Rx,0,8,33,00,00,00,00,00,22,11,
-1709726733023476,000003A2,false,Rx,0,8,20,00,28,88,03,FF,00,7C,
-1709726733023220,000003A4,false,Rx,0,8,00,00,00,00,00,00,00,00,
-1709726732923808,0000039F,false,Rx,0,8,33,00,00,00,00,00,23,10,
-1709726732923552,000003A2,false,Rx,0,8,20,00,28,8C,03,FF,00,78,
-1709726732923296,000003A4,false,Rx,0,8,00,00,00,00,00,00,00,00,
-1709726732823415,0000039F,false,Rx,0,8,33,00,00,00,00,00,24,17,
-1709726732823159,000003A2,false,Rx,0,8,20,00,28,90,03,FF,00,64,
-1709726732822903,000003A4,false,Rx,0,8,00,00,00,00,00,00,00,00,
-1709726732723064,0000039F,false,Rx,0,8,33,00,00,00,00,00,25,16,
-1709726732722808,000003A2,false,Rx,0,8,20,00,28,94,03,FF,00,60,
-1709726732722552,000003A4,false,Rx,0,8,00,00,00,00,00,00,00,00,
-1709726732622671,0000039F,false,Rx,0,8,33,00,00,00,00,00,26,15,
-1709726732622415,000003A2,false,Rx,0,8,20,00,28,98,03,FF,00,6C,
-1709726732622159,000003A4,false,Rx,0,8,00,00,00,00,00,00,00,00,
-1709726732522406,0000039F,false,Rx,0,8,33,00,00,00,00,00,27,14,
-1709726732522150,000003A2,false,Rx,0,8,20,00,28,9C,03,FF,00,68,
-1709726732521894,000003A4,false,Rx,0,8,00,00,00,00,00,00,00,00,
-1709726732422141,0000039F,false,Rx,0,8,33,00,00,00,00,00,28,1B,
-1709726732421885,000003A2,false,Rx,0,8,20,00,28,A0,03,FF,00,54,
-1709726732421629,000003A4,false,Rx,0,8,00,00,00,00,00,00,00,00,
-1709726732321663,0000039F,false,Rx,0,8,33,00,00,00,00,00,29,1A,
-1709726732321449,000003A2,false,Rx,0,8,20,00,28,A4,03,FF,00,50,
-1709726732321193,000003A4,false,Rx,0,8,00,00,00,00,00,00,00,00,
-1709726732221398,0000039F,false,Rx,0,8,33,00,00,00,00,00,2A,19,
-1709726732221142,000003A2,false,Rx,0,8,20,00,28,A8,03,FF,00,5C,
-1709726732220886,000003A4,false,Rx,0,8,00,00,00,00,00,00,00,00,
-1709726732121218,0000039F,false,Rx,0,8,33,00,00,00,00,00,2B,18,
-1709726732120962,000003A2,false,Rx,0,8,20,00,28,AC,03,FF,00,58,
-1709726732120706,000003A4,false,Rx,0,8,00,00,00,00,00,00,00,00,
-1709726732020812,0000039F,false,Rx,0,8,33,00,00,00,00,00,2C,1F,
-1709726732020599,000003A2,false,Rx,0,8,20,00,28,B0,03,FF,00,44,
