Time Stamp,ID,Extended,Dir,Bus,LEN,D1,D2,D3,D4,D5,D6,D7,D8
218358693,0000039F,false,Rx,0,8,3E,00,00,00,00,00,21,1F,
218358937,000003A2,false,Rx,0,8,20,00,28,84,03,FF,00,70,
218359180,000003A4,false,Rx,0,8,00,00,00,00,00,00,00,00,
130352,0000039F,false,Rx,0,8,3E,00,00,00,00,00,22,1C,
130606,000003A2,false,Rx,0,8,20,00,28,88,03,FF,00,7C,
130850,000003A4,false,Rx,0,8,00,00,00,00,00,00,00,00,
230592,0000039F,false,Rx,0,8,3E,00,00,00,00,00,23,1D,
230838,000003A2,false,Rx,0,8,20,00,28,8C,03,FF,00,78,
231083,000003A4,false,Rx,0,8,00,00,00,00,00,00,00,00,
330762,0000039F,false,Rx,0,8,3E,00,00,00,00,00,24,1A,
331009,000003A2,false,Rx,0,8,20,00,28,90,03,FF,00,64,
331252,000003A4,false,Rx,0,8,00,00,00,00,00,00,00,00,
431337,0000039F,false,Rx,0,8,3E,00,00,00,00,00,25,1B,
431595,000003A2,false,Rx,0,8,20,00,28,94,03,FF,00,60,
431838,000003A4,false,Rx,0,8,00,00,00,00,00,00,00,00,
531683,0000039F,false,Rx,0,8,3E,00,00,00,00,00,26,18,
531927,000003A2,false,Rx,0,8,20,00,28,98,03,FF,00,6C,
532172,000003A4,false,Rx,0,8,00,00,00,00,00,00,00,00,
631682,0000039F,false,Rx,0,8,3E,00,00,00,00,00,27,19,
631928,000003A2,false,Rx,0,8,20,00,28,9C,03,FF,00,68,
632172,000003A4,false,Rx,0,8,00,00,00,00,00,00,00,00,
731929,0000039F,false,Rx,0,8,3E,00,00,00,00,00,28,16,
732176,000003A2,false,Rx,0,8,20,00,28,A0,03,FF,00,54,
732422,000003A4,false,Rx,0,8,00,00,00,00,00,00,00,00,
832487,0000039F,false,Rx,0,8,3E,00,00,00,00,00,29,17,
832745,000003A2,false,Rx,0,8,20,00,28,A4,03,FF,00,50,
832988,000003A4,false,Rx,0,8,00,00,00,00,00,00,00,00,
932626,0000039F,false,Rx,0,8,3E,00,00,00,00,00,2A,14,
932873,000003A2,false,Rx,0,8,20,00,28,A8,03,FF,00,5C,
933118,000003A4,false,Rx,0,8,00,00,00,00,00,00,00,00,
1032775,0000039F,false,Rx,0,8,3E,00,00,00,00,00,2B,15,
1033019,000003A2,false,Rx,0,8,20,00,28,AC,03,FF,00,58,
1033263,000003A4,false,Rx,0,8,00,00,00,00,00,00,00,00,
1133472,0000039F,false,Rx,0,8,3E,00,00,00,00,00,2C,12,
1133727,000003A2,false,Rx,0,8,20,00,28,B0,03,FF,00,44,
1133970,000003A4,false,Rx,0,8,00,00,00,00,00,00,00,00,
1233655,0000039F,false,Rx,0,8,3E,00,00,00,00,00,2D,13,
1233902,000003A2,false,Rx,0,8,20,00,28,B4,03,FF,00,40,
1234146,000003A4,false,Rx,0,8,00,00,00,00,00,00,00,00,
1333926,0000039F,false,Rx,0,8,3E,00,00,00,00,00,2E,10,
1334171,000003A2,false,Rx,0,8,20,00,28,B8,03,FF,00,4C,
1334416,000003A4,false,Rx,0,8,00,00,00,00,00,00,00,00,
1433990,0000039F,false,Rx,0,8,3E,00,00,00,00,00,2F,11,
1434238,000003A2,false,Rx,0,8,20,00,28,BC,03,FF,00,48,
1434484,000003A4,false,Rx,0,8,00,00,00,00,00,00,00,00,
1534617,0000039F,false,Rx,0,8,3E,00,00,00,00,00,20,1E,
1534863,000003A2,false,Rx,0,8,20,00,28,80,03,FF,00,74,
1535106,000003A4,false,Rx,0,8,00,00,00,00,00,00,00,00,
1634750,0000039F,false,Rx,0,8,3E,00,00,00,00,00,21,1F,
1634996,000003A2,false,Rx,0,8,20,00,28,84,03,FF,00,70,
1635240,000003A4,false,Rx,0,8,00,00,00,00,00,00,00,00,
1735420,0000039F,false,Rx,0,8,3E,00,00,00,00,00,22,1C,
1735674,000003A2,false,Rx,0,8,20,00,28,88,03,FF,00,7C,
1735918,000003A4,false,Rx,0,8,00,00,00,00,00,00,00,00,
1835352,0000039F,false,Rx,0,8,3E,00,00,00,00,00,23,1D,
1835605,000003A2,false,Rx,0,8,20,00,28,8C,03,FF,00,78,
1835850,000003A4,false,Rx,0,8,00,00,00,00,00,00,00,00,
1935617,0000039F,false,Rx,0,8,3E,00,00,00,00,00,24,1A,
1935864,000003A2,false,Rx,0,8,20,00,28,90,03,FF,00,64,
1936108,000003A4,false,Rx,0,8,00,00,00,00,00,00,00,00,
2036132,0000039F,false,Rx,0,8,3E,00,00,00,00,00,25,1B,
2036375,000003A2,false,Rx,0,8,20,00,28,94,03,FF,00,60,
2036624,000003A4,false,Rx,0,8,00,00,00,00,00,00,00,00,
2136430,0000039F,false,Rx,0,8,3E,00,00,00,00,00,26,18,
2136681,000003A2,false,Rx,0,8,20,00,28,98,03,FF,00,6C,
2136925,000003A4,false,Rx,0,8,00,00,00,00,00,00,00,00,
2236669,0000039F,false,Rx,0,8,3E,00,00,00,00,00,27,19,
2236923,000003A2,false,Rx,0,8,20,00,28,9C,03,FF,00,68,
2237166,000003A4,false,Rx,0,8,00,00,00,00,00,00,00,00,
2337521,0000039F,false,Rx,0,8,3E,00,00,00,00,00,28,16,
2337545,000003A2,false,Rx,0,8,20,00,28,A0,03,FF,00,54,
2337551,000003A4,false,Rx,0,8,00,00,00,00,00,00,00,00,
2437495,0000039F,false,Rx,0,8,3E,00,00,00,00,00,29,17,
2437741,000003A2,false,Rx,0,8,20,00,28,A4,03,FF,00,50,
2437993,000003A4,false,Rx,0,8,00,00,00,00,00,00,00,00,
2537588,0000039F,false,Rx,0,8,3E,00,00,00,00,00,2A,14,
2537833,000003A2,false,Rx,0,8,20,00,28,A8,03,FF,00,5C,
2538077,000003A4,false,Rx,0,8,00,00,00,00,00,00,00,00,
2637626,0000039F,false,Rx,0,8,3E,00,00,00,00,00,2B,15,
2637872,000003A2,false,Rx,0,8,20,00,28,AC,03,FF,00,58,
2638117,000003A4,false,Rx,0,8,00,00,00,00,00,00,00,00,
2738265,0000039F,false,Rx,0,8,3E,00,00,00,00,00,2C,12,
2738515,000003A2,false,Rx,0,8,20,00,28,B0,03,FF,00,44,
2738767,000003A4,false,Rx,0,8,00,00,00,00,00,00,00,00,
2838279,0000039F,false,Rx,0,8,3E,00,00,00,00,00,2D,13,
2838527,000003A2,false,Rx,0,8,20,00,28,B4,03,FF,00,40,
2838777,000003A4,false,Rx,0,8,00,00,00,00,00,00,00,00,
2938626,0000039F,false,Rx,0,8,3E,00,00,00,00,00,2E,10,
2938873,000003A2,false,Rx,0,8,20,00,28,B8,03,FF,00,4C,
2939117,000003A4,false,Rx,0,8,00,00,00,00,00,00,00,00,
3039117,0000039F,false,Rx,0,8,3E,00,00,00,00,00,2F,11,
3039362,000003A2,false,Rx,0,8,20,00,28,BC,03,FF,00,48,
3039615,000003A4,false,Rx,0,8,00,00,00,00,00,00,00,00,
3139362,0000039F,false,Rx,0,8,3E,00,00,00,00,00,20,1E,
3139620,000003A2,false,Rx,0,8,20,00,28,80,03,FF,00,74,
3139864,000003A4,false,Rx,0,8,00,00,00,00,00,00,00,00,
3239665,0000039F,false,Rx,0,8,3E,00,00,00,00,00,21,1F,
3239911,000003A2,false,Rx,0,8,20,00,28,84,03,FF,00,70,
3240155,000003A4,false,Rx,0,8,00,00,00,00,00,00,00,00,
3340116,0000039F,false,Rx,0,8,3E,00,00,00,00,00,22,1C,
3340361,000003A2,false,Rx,0,8,20,00,28,88,03,FF,00,7C,
3340612,000003A4,false,Rx,0,8,00,00,00,00,00,00,00,00,
3440329,0000039F,false,Rx,0,8,3E,00,00,00,00,00,23,1D,
3440587,000003A2,false,Rx,0,8,20,00,28,8C,03,FF,00,78,
3440830,000003A4,false,Rx,0,8,00,00,00,00,00,00,00,00,
3540450,0000039F,false,Rx,0,8,3E,00,00,00,00,00,24,1A,
3540700,000003A2,false,Rx,0,8,20,00,28,90,03,FF,00,64,
3540945,000003A4,false,Rx,0,8,00,00,00,00,00,00,00,00,
3640949,0000039F,false,Rx,0,8,3E,00,00,00,00,00,25,1B,
3641217,000003A2,false,Rx,0,8,20,00,28,94,03,FF,00,60,
3641479,000003A4,false,Rx,0,8,00,00,00,00,00,00,00,00,
3741219,0000039F,false,Rx,0,8,3E,00,00,00,00,00,26,18,
3741466,000003A2,false,Rx,0,8,20,00,28,98,03,FF,00,6C,
3741714,000003A4,false,Rx,0,8,00,00,00,00,00,00,00,00,
3841588,0000039F,false,Rx,0,8,3E,00,00,00,00,00,27,19,
3841835,000003A2,false,Rx,0,8,20,00,28,9C,03,FF,00,68,
3842078,000003A4,false,Rx,0,8,00,00,00,00,00,00,00,00,
3941862,0000039F,false,Rx,0,8,3E,00,00,00,00,00,28,16,
3942110,000003A2,false,Rx,0,8,20,00,28,A0,03,FF,00,54,
3942354,000003A4,false,Rx,0,8,00,00,00,00,00,00,00,00,
4042153,0000039F,false,Rx,0,8,3E,00,00,00,00,00,29,17,
4042399,000003A2,false,Rx,0,8,20,00,28,A4,03,FF,00,50,
4042660,000003A4,false,Rx,0,8,00,00,00,00,00,00,00,00,
4142382,0000039F,false,Rx,0,8,3E,00,00,00,00,00,2A,14,
4142636,000003A2,false,Rx,0,8,20,00,28,A8,03,FF,00,5C,
4142880,000003A4,false,Rx,0,8,00,00,00,00,00,00,00,00,
4242669,0000039F,false,Rx,0,8,3E,00,00,00,00,00,2B,15,
4242915,000003A2,false,Rx,0,8,20,00,28,AC,03,FF,00,58,
4243158,000003A4,false,Rx,0,8,00,00,00,00,00,00,00,00,
4343045,0000039F,false,Rx,0,8,3E,00,00,00,00,00,2C,12,
4343292,000003A2,false,Rx,0,8,20,00,28,B0,03,FF,00,44,
4343544,000003A4,false,Rx,0,8,00,00,00,00,00,00,00,00,
4443551,0000039F,false,Rx,0,8,3E,00,00,00,00,00,2D,13,
4443799,000003A2,false,Rx,0,8,20,00,28,B4,03,FF,00,40,
4444042,000003A4,false,Rx,0,8,00,00,00,00,00,00,00,00,
4543755,0000039F,false,Rx,0,8,3E,00,00,00,00,00,2E,10,
4543997,000003A2,false,Rx,0,8,20,00,28,B8,03,FF,00,4C,
4544242,000003A4,false,Rx,0,8,00,00,00,00,00,00,00,00,
4644144,0000039F,false,Rx,0,8,3E,00,00,00,00,00,2F,11,
4644392,000003A2,false,Rx,0,8,20,00,28,BC,03,FF,00,48,
4644642,000003A4,false,Rx,0,8,00,00,00,00,00,00,00,00,
4744327,0000039F,false,Rx,0,8,3E,00,00,00,00,00,20,1E,
4744585,000003A2,false,Rx,0,8,20,00,28,80,03,FF,00,74,
4744828,000003A4,false,Rx,0,8,00,00,00,00,00,00,00,00,
4844518,0000039F,false,Rx,0,8,3E,00,00,00,00,00,21,1F,
4844771,000003A2,false,Rx,0,8,20,00,28,84,03,FF,00,70,
4845015,000003A4,false,Rx,0,8,00,00,00,00,00,00,00,00,
4944729,0000039F,false,Rx,0,8,3E,00,00,00,00,00,22,1C,
4944975,000003A2,false,Rx,0,8,20,00,28,88,03,FF,00,7C,
4945219,000003A4,false,Rx,0,8,00,00,00,00,00,00,00,00,
5045274,0000039F,false,Rx,0,8,3E,00,00,00,00,00,23,1D,
5045521,000003A2,false,Rx,0,8,20,00,28,8C,03,FF,00,78,
5045771,000003A4,false,Rx,0,8,00,00,00,00,00,00,00,00,
5145352,0000039F,false,Rx,0,8,3E,00,00,00,00,00,24,1A,
5145610,000003A2,false,Rx,0,8,20,00,28,90,03,FF,00,64,
5145853,000003A4,false,Rx,0,8,00,00,00,00,00,00,00,00,
5245755,0000039F,false,Rx,0,8,3E,00,00,00,00,00,25,1B,
5245999,000003A2,false,Rx,0,8,20,00,28,94,03,FF,00,60,
5246243,000003A4,false,Rx,0,8,00,00,00,00,00,00,00,00,
5346082,0000039F,false,Rx,0,8,3E,00,00,00,00,00,26,18,
5346326,000003A2,false,Rx,0,8,20,00,28,98,03,FF,00,6C,
5346581,000003A4,false,Rx,0,8,00,00,00,00,00,00,00,00,
5446545,0000039F,false,Rx,0,8,3E,00,00,00,00,00,27,19,
5446793,000003A2,false,Rx,0,8,20,00,28,9C,03,FF,00,68,
5447036,000003A4,false,Rx,0,8,00,00,00,00,00,00,00,00,
5546844,0000039F,false,Rx,0,8,3E,00,00,00,00,00,28,16,
5547112,000003A2,false,Rx,0,8,20,00,28,A0,03,FF,00,54,
5547382,000003A4,false,Rx,0,8,00,00,00,00,00,00,00,00,
5646854,0000039F,false,Rx,0,8,3E,00,00,00,00,00,29,17,
5647101,000003A2,false,Rx,0,8,20,00,28,A4,03,FF,00,50,
5647345,000003A4,false,Rx,0,8,00,00,00,00,00,00,00,00,
5747420,0000039F,false,Rx,0,8,3E,00,00,00,00,00,2A,14,
5747672,000003A2,false,Rx,0,8,20,00,28,A8,03,FF,00,5C,
5747915,000003A4,false,Rx,0,8,00,00,00,00,00,00,00,00,
5847508,0000039F,false,Rx,0,8,3E,00,00,00,00,00,2B,15,
5847762,000003A2,false,Rx,0,8,20,00,28,AC,03,FF,00,58,
5848005,000003A4,false,Rx,0,8,00,00,00,00,00,00,00,00,
5947824,0000039F,false,Rx,0,8,3E,00,00,00,00,00,2C,12,
5948071,000003A2,false,Rx,0,8,20,00,28,B0,03,FF,00,44,
5948315,000003A4,false,Rx,0,8,00,00,00,00,00,00,00,00,
6048322,0000039F,false,Rx,0,8,3E,00,00,00,00,00,2D,13,
6048575,000003A2,false,Rx,0,8,20,00,28,B4,03,FF,00,40,
6048820,000003A4,false,Rx,0,8,00,00,00,00,00,00,00,00,
6148371,0000039F,false,Rx,0,8,3E,00,00,00,00,00,2E,10,
6148627,000003A2,false,Rx,0,8,20,00,28,B8,03,FF,00,4C,
6148871,000003A4,false,Rx,0,8,00,00,00,00,00,00,00,00,
6248567,0000039F,false,Rx,0,8,3E,00,00,00,00,00,2F,11,
6248813,000003A2,false,Rx,0,8,20,00,28,BC,03,FF,00,48,
6249057,000003A4,false,Rx,0,8,00,00,00,00,00,00,00,00,
6349230,0000039F,false,Rx,0,8,3E,00,00,00,00,00,20,1E,
6349479,000003A2,false,Rx,0,8,20,00,28,80,03,FF,00,74,
6349730,000003A4,false,Rx,0,8,00,00,00,00,00,00,00,00,
6449323,0000039F,false,Rx,0,8,3E,00,00,00,00,00,21,1F,
6449581,000003A2,false,Rx,0,8,20,00,28,84,03,FF,00,70,
6449824,000003A4,false,Rx,0,8,00,00,00,00,00,00,00,00,
6549603,0000039F,false,Rx,0,8,3E,00,00,00,00,00,22,1C,
6549848,000003A2,false,Rx,0,8,20,00,28,88,03,FF,00,7C,
6550091,000003A4,false,Rx,0,8,00,00,00,00,00,00,00,00,
6650241,0000039F,false,Rx,0,8,3E,00,00,00,00,00,23,1D,
6650492,000003A2,false,Rx,0,8,20,00,28,8C,03,FF,00,78,
6650742,000003A4,false,Rx,0,8,00,00,00,00,00,00,00,00,
6750088,0000039F,false,Rx,0,8,3E,00,00,00,00,00,24,1A,
6750335,000003A2,false,Rx,0,8,20,00,28,90,03,FF,00,64,
6750589,000003A4,false,Rx,0,8,00,00,00,00,00,00,00,00,
6850823,0000039F,false,Rx,0,8,3E,00,00,00,00,00,25,1B,
6851070,000003A2,false,Rx,0,8,20,00,28,94,03,FF,00,60,
6851334,000003A4,false,Rx,0,8,00,00,00,00,00,00,00,00,
6951237,0000039F,false,Rx,0,8,3E,00,00,00,00,00,26,18,
6951289,000003A2,false,Rx,0,8,20,00,28,98,03,FF,00,6C,
6951544,000003A4,false,Rx,0,8,00,00,00,00,00,00,00,00,
7051265,0000039F,false,Rx,0,8,3E,00,00,00,00,00,27,19,
7051510,000003A2,false,Rx,0,8,20,00,28,9C,03,FF,00,68,
7051755,000003A4,false,Rx,0,8,00,00,00,00,00,00,00,00,
7151485,0000039F,false,Rx,0,8,3E,00,00,00,00,00,28,16,
7151740,000003A2,false,Rx,0,8,20,00,28,A0,03,FF,00,54,
7151982,000003A4,false,Rx,0,8,00,00,00,00,00,00,00,00,
7251681,0000039F,false,Rx,0,8,3E,00,00,00,00,00,29,17,
7251928,000003A2,false,Rx,0,8,20,00,28,A4,03,FF,00,50,
7252170,000003A4,false,Rx,0,8,00,00,00,00,00,00,00,00,
7352009,0000039F,false,Rx,0,8,3E,00,00,00,00,00,2A,14,
7352254,000003A2,false,Rx,0,8,20,00,28,A8,03,FF,00,5C,
7352501,000003A4,false,Rx,0,8,00,00,00,00,00,00,00,00,
7452604,0000039F,false,Rx,0,8,3E,00,00,00,00,00,2B,15,
7452868,000003A2,false,Rx,0,8,20,00,28,AC,03,FF,00,58,
7453112,000003A4,false,Rx,0,8,00,00,00,00,00,00,00,00,
7552999,0000039F,false,Rx,0,8,3E,00,00,00,00,00,2C,12,
7553244,000003A2,false,Rx,0,8,20,00,28,B0,03,FF,00,44,
7553490,000003A4,false,Rx,0,8,00,00,00,00,00,00,00,00,
7653182,0000039F,false,Rx,0,8,3E,00,00,00,00,00,2D,13,
7653429,000003A2,false,Rx,0,8,20,00,28,B4,03,FF,00,40,
7653672,000003A4,false,Rx,0,8,00,00,00,00,00,00,00,00,
7753481,0000039F,false,Rx,0,8,3E,00,00,00,00,00,2E,10,
7753725,000003A2,false,Rx,0,8,20,00,28,B8,03,FF,00,4C,
7753978,000003A4,false,Rx,0,8,00,00,00,00,00,00,00,00,
7853883,0000039F,false,Rx,0,8,3E,00,00,00,00,00,2F,11,
7854128,000003A2,false,Rx,0,8,20,00,28,BC,03,FF,00,48,
7854372,000003A4,false,Rx,0,8,00,00,00,00,00,00,00,00,
7954159,0000039F,false,Rx,0,8,3E,00,00,00,00,00,20,1E,
7954408,000003A2,false,Rx,0,8,20,00,28,80,03,FF,00,74,
7954660,000003A4,false,Rx,0,8,00,00,00,00,00,00,00,00,
8054386,0000039F,false,Rx,0,8,3E,00,00,00,00,00,21,1F,
8054639,000003A2,false,Rx,0,8,20,00,28,84,03,FF,00,70,
8054882,000003A4,false,Rx,0,8,00,00,00,00,00,00,00,00,
8154716,0000039F,false,Rx,0,8,3E,00,00,00,00,00,22,1C,
8154964,000003A2,false,Rx,0,8,20,00,28,88,03,FF,00,7C,
8155207,000003A4,false,Rx,0,8,00,00,00,00,00,00,00,00,
8254669,0000039F,false,Rx,0,8,3E,00,00,00,00,00,23,1D,
8254915,000003A2,false,Rx,0,8,20,00,28,8C,03,FF,00,78,
8255158,000003A4,false,Rx,0,8,00,00,00,00,00,00,00,00,
8355213,0000039F,false,Rx,0,8,3E,00,00,00,00,00,24,1A,
8355460,000003A2,false,Rx,0,8,20,00,28,90,03,FF,00,64,
8355711,000003A4,false,Rx,0,8,00,00,00,00,00,00,00,00,
8455632,0000039F,false,Rx,0,8,3E,00,00,00,00,00,25,1B,
8455880,000003A2,false,Rx,0,8,20,00,28,94,03,FF,00,60,
8456124,000003A4,false,Rx,0,8,00,00,00,00,00,00,00,00,
8555971,0000039F,false,Rx,0,8,3E,00,00,00,00,00,26,18,
8556216,000003A2,false,Rx,0,8,20,00,28,98,03,FF,00,6C,
8556461,000003A4,false,Rx,0,8,00,00,00,00,00,00,00,00,
8656089,0000039F,false,Rx,0,8,3E,00,00,00,00,00,27,19,
8656336,000003A2,false,Rx,0,8,20,00,28,9C,03,FF,00,68,
8656592,000003A4,false,Rx,0,8,00,00,00,00,00,00,00,00,
8756445,0000039F,false,Rx,0,8,3E,00,00,00,00,00,28,16,
8756696,000003A2,false,Rx,0,8,20,00,28,A0,03,FF,00,54,
8756940,000003A4,false,Rx,0,8,00,00,00,00,00,00,00,00,
8856661,0000039F,false,Rx,0,8,3E,00,00,00,00,00,29,17,
8856907,000003A2,false,Rx,0,8,20,00,28,A4,03,FF,00,50,
8857150,000003A4,false,Rx,0,8,00,00,00,00,00,00,00,00,
8956981,0000039F,false,Rx,0,8,3E,00,00,00,00,00,2A,14,
8957233,000003A2,false,Rx,0,8,20,00,28,A8,03,FF,00,5C,
8957479,000003A4,false,Rx,0,8,00,00,00,00,00,00,00,00,
9057382,0000039F,false,Rx,0,8,3E,00,00,00,00,00,2B,15,
9057635,000003A2,false,Rx,0,8,20,00,28,AC,03,FF,00,58,
9057878,000003A4,false,Rx,0,8,00,00,00,00,00,00,00,00,
9157716,0000039F,false,Rx,0,8,3E,00,00,00,00,00,2C,12,
9157964,000003A2,false,Rx,0,8,20,00,28,B0,03,FF,00,44,
9158207,000003A4,false,Rx,0,8,00,00,00,00,00,00,00,00,
9257861,0000039F,false,Rx,0,8,3E,00,00,00,00,00,2D,13,
9258106,000003A2,false,Rx,0,8,20,00,28,B4,03,FF,00,40,
9258350,000003A4,false,Rx,0,8,00,00,00,00,00,00,00,00,
9358523,0000039F,false,Rx,0,8,3E,00,00,00,00,00,2E,10,
9358541,000003A2,false,Rx,0,8,20,00,28,B8,03,FF,00,4C,
9358791,000003A4,false,Rx,0,8,00,00,00,00,00,00,00,00,
9458327,0000039F,false,Rx,0,8,3E,00,00,00,00,00,2F,11,
9458585,000003A2,false,Rx,0,8,20,00,28,BC,03,FF,00,48,
9458828,000003A4,false,Rx,0,8,00,00,00,00,00,00,00,00,
9558645,0000039F,false,Rx,0,8,3E,00,00,00,00,00,20,1E,
9558890,000003A2,false,Rx,0,8,20,00,28,80,03,FF,00,74,
9559134,000003A4,false,Rx,0,8,00,00,00,00,00,00,00,00,
9659087,0000039F,false,Rx,0,8,3E,00,00,00,00,00,21,1F,
9659334,000003A2,false,Rx,0,8,20,00,28,84,03,FF,00,70,
9659589,000003A4,false,Rx,0,8,00,00,00,00,00,00,00,00,
9759398,0000039F,false,Rx,0,8,3E,00,00,00,00,00,22,1C,
9759652,000003A2,false,Rx,0,8,20,00,28,88,03,FF,00,7C,
9759895,000003A4,false,Rx,0,8,00,00,00,00,00,00,00,00,
9860893,0000039F,false,Rx,0,8,3E,00,00,00,00,00,23,1D,
9860911,000003A2,false,Rx,0,8,20,00,28,8C,03,FF,00,78,
9860917,000003A4,false,Rx,0,8,00,00,00,00,00,00,00,00,
9960016,0000039F,false,Rx,0,8,3E,00,00,00,00,00,24,1A,
9960262,000003A2,false,Rx,0,8,20,00,28,90,03,FF,00,64,
9960508,000003A4,false,Rx,0,8,00,00,00,00,00,00,00,00,
10060536,0000039F,false,Rx,0,8,3E,00,00,00,00,00,25,1B,
10060781,000003A2,false,Rx,0,8,20,00,28,94,03,FF,00,60,
10061025,000003A4,false,Rx,0,8,00,00,00,00,00,00,00,00,
10160748,0000039F,false,Rx,0,8,3E,00,00,00,00,00,26,18,
10160996,000003A2,false,Rx,0,8,20,00,28,98,03,FF,00,6C,
10161239,000003A4,false,Rx,0,8,00,00,00,00,00,00,00,00,
10261025,0000039F,false,Rx,0,8,3E,00,00,00,00,00,27,19,
10261271,000003A2,false,Rx,0,8,20,00,28,9C,03,FF,00,68,
10261516,000003A4,false,Rx,0,8,00,00,00,00,00,00,00,00,
10361510,0000039F,false,Rx,0,8,3E,00,00,00,00,00,28,16,
10361763,000003A2,false,Rx,0,8,20,00,28,A0,03,FF,00,54,
10362007,000003A4,false,Rx,0,8,00,00,00,00,00,00,00,00,
10461469,0000039F,false,Rx,0,8,3E,00,00,00,00,00,29,17,
10461730,000003A2,false,Rx,0,8,20,00,28,A4,03,FF,00,50,
10463888,000003A4,false,Rx,0,8,00,00,00,00,00,00,00,00,
10561786,0000039F,false,Rx,0,8,3E,00,00,00,00,00,2A,14,
10562031,000003A2,false,Rx,0,8,20,00,28,A8,03,FF,00,5C,
10562275,000003A4,false,Rx,0,8,00,00,00,00,00,00,00,00,
10662301,0000039F,false,Rx,0,8,3E,00,00,00,00,00,2B,15,
10662559,000003A2,false,Rx,0,8,20,00,28,AC,03,FF,00,58,
10662801,000003A4,false,Rx,0,8,00,00,00,00,00,00,00,00,
10762662,0000039F,false,Rx,0,8,3E,00,00,00,00,00,2C,12,
10762908,000003A2,false,Rx,0,8,20,00,28,B0,03,FF,00,44,
10763152,000003A4,false,Rx,0,8,00,00,00,00,00,00,00,00,
10862789,0000039F,false,Rx,0,8,3E,00,00,00,00,00,2D,13,
10863035,000003A2,false,Rx,0,8,20,00,28,B4,03,FF,00,40,
10863278,000003A4,false,Rx,0,8,00,00,00,00,00,00,00,00,
10963151,0000039F,false,Rx,0,8,3E,00,00,00,00,00,2E,10,
10963399,000003A2,false,Rx,0,8,20,00,28,B8,03,FF,00,4C,
10963651,000003A4,false,Rx,0,8,00,00,00,00,00,00,00,00,
11063301,0000039F,false,Rx,0,8,3E,00,00,00,00,00,2F,11,
11063555,000003A2,false,Rx,0,8,20,00,28,BC,03,FF,00,48,
11063798,000003A4,false,Rx,0,8,00,00,00,00,00,00,00,00,
11163691,0000039F,false,Rx,0,8,3E,00,00,00,00,00,20,1E,
11163939,000003A2,false,Rx,0,8,20,00,28,80,03,FF,00,74,
11164182,000003A4,false,Rx,0,8,00,00,00,00,00,00,00,00,
11264166,0000039F,false,Rx,0,8,3E,00,00,00,00,00,21,1F,
11264414,000003A2,false,Rx,0,8,20,00,28,84,03,FF,00,70,
11264664,000003A4,false,Rx,0,8,00,00,00,00,00,00,00,00,
11364266,0000039F,false,Rx,0,8,3E,00,00,00,00,00,22,1C,
11364514,000003A2,false,Rx,0,8,20,00,28,88,03,FF,00,7C,
11364764,000003A4,false,Rx,0,8,00,00,00,00,00,00,00,00,
11464780,0000039F,false,Rx,0,8,3E,00,00,00,00,00,23,1D,
11465025,000003A2,false,Rx,0,8,20,00,28,8C,03,FF,00,78,
11465269,000003A4,false,Rx,0,8,00,00,00,00,00,00,00,00,
11565145,0000039F,false,Rx,0,8,3E,00,00,00,00,00,24,1A,
11565390,000003A2,false,Rx,0,8,20,00,28,90,03,FF,00,64,
11565641,000003A4,false,Rx,0,8,00,00,00,00,00,00,00,00,
11665252,0000039F,false,Rx,0,8,3E,00,00,00,00,00,25,1B,
11665502,000003A2,false,Rx,0,8,20,00,28,94,03,FF,00,60,
11665752,000003A4,false,Rx,0,8,00,00,00,00,00,00,00,00,
11765617,0000039F,false,Rx,0,8,3E,00,00,00,00,00,26,18,
11765864,000003A2,false,Rx,0,8,20,00,28,98,03,FF,00,6C,
11766107,000003A4,false,Rx,0,8,00,00,00,00,00,00,00,00,
11865780,0000039F,false,Rx,0,8,3E,00,00,00,00,00,27,19,
11866024,000003A2,false,Rx,0,8,20,00,28,9C,03,FF,00,68,
11866268,000003A4,false,Rx,0,8,00,00,00,00,00,00,00,00,
11965975,0000039F,false,Rx,0,8,3E,00,00,00,00,00,28,16,
11966221,000003A2,false,Rx,0,8,20,00,28,A0,03,FF,00,54,
11966467,000003A4,false,Rx,0,8,00,00,00,00,00,00,00,00,
12066292,0000039F,false,Rx,0,8,3E,00,00,00,00,00,29,17,
12066547,000003A2,false,Rx,0,8,20,00,28,A4,03,FF,00,50,
12066791,000003A4,false,Rx,0,8,00,00,00,00,00,00,00,00,
12166566,0000039F,false,Rx,0,8,3E,00,00,00,00,00,2A,14,
12166812,000003A2,false,Rx,0,8,20,00,28,A8,03,FF,00,5C,
12167056,000003A4,false,Rx,0,8,00,00,00,00,00,00,00,00,
12267085,0000039F,false,Rx,0,8,3E,00,00,00,00,00,2B,15,
12267332,000003A2,false,Rx,0,8,20,00,28,AC,03,FF,00,58,
12267585,000003A4,false,Rx,0,8,00,00,00,00,00,00,00,00,
12367270,0000039F,false,Rx,0,8,3E,00,00,00,00,00,2C,12,
12367520,000003A2,false,Rx,0,8,20,00,28,B0,03,FF,00,44,
12367771,000003A4,false,Rx,0,8,00,00,00,00,00,00,00,00,
12467558,0000039F,false,Rx,0,8,3E,00,00,00,00,00,2D,13,
12467823,000003A2,false,Rx,0,8,20,00,28,B4,03,FF,00,40,
12468067,000003A4,false,Rx,0,8,00,00,00,00,00,00,00,00,
12567776,0000039F,false,Rx,0,8,3E,00,00,00,00,00,2E,10,
12568021,000003A2,false,Rx,0,8,20,00,28,B8,03,FF,00,4C,
12568263,000003A4,false,Rx,0,8,00,00,00,00,00,00,00,00,
12668206,0000039F,false,Rx,0,8,3E,00,00,00,00,00,2F,11,
12668455,000003A2,false,Rx,0,8,20,00,28,BC,03,FF,00,48,
12668706,000003A4,false,Rx,0,8,00,00,00,00,00,00,00,00,
12768486,0000039F,false,Rx,0,8,3E,00,00,00,00,00,20,1E,
12768733,000003A2,false,Rx,0,8,20,00,28,80,03,FF,00,74,
12768977,000003A4,false,Rx,0,8,00,00,00,00,00,00,00,00,
12868755,0000039F,false,Rx,0,8,3E,00,00,00,00,00,21,1F,
12868999,000003A2,false,Rx,0,8,20,00,28,84,03,FF,00,70,
12869242,000003A4,false,Rx,0,8,00,00,00,00,00,00,00,00,
12969047,0000039F,false,Rx,0,8,3E,00,00,00,00,00,22,1C,
12969294,000003A2,false,Rx,0,8,20,00,28,88,03,FF,00,7C,
12969550,000003A4,false,Rx,0,8,00,00,00,00,00,00,00,00,
13069629,0000039F,false,Rx,0,8,3E,00,00,00,00,00,23,1D,
13069875,000003A2,false,Rx,0,8,20,00,28,8C,03,FF,00,78,
13070116,000003A4,false,Rx,0,8,00,00,00,00,00,00,00,00,
13170053,0000039F,false,Rx,0,8,3E,00,00,00,00,00,24,1A,
13170300,000003A2,false,Rx,0,8,20,00,28,90,03,FF,00,64,
13170554,000003A4,false,Rx,0,8,00,00,00,00,00,00,00,00,
13270066,0000039F,false,Rx,0,8,3E,00,00,00,00,00,25,1B,
13270312,000003A2,false,Rx,0,8,20,00,28,94,03,FF,00,60,
13270565,000003A4,false,Rx,0,8,00,00,00,00,00,00,00,00,
13370544,0000039F,false,Rx,0,8,3E,01,00,00,00,00,26,19,
13370790,000003A2,false,Rx,0,8,20,00,28,98,03,FF,00,6C,
13371033,000003A4,false,Rx,0,8,00,00,00,00,00,00,00,00,
13470627,0000039F,false,Rx,0,8,3E,00,00,00,00,00,27,19,
13470882,000003A2,false,Rx,0,8,20,00,28,9C,03,FF,00,68,
13471146,000003A4,false,Rx,0,8,00,00,00,00,00,00,00,00,
13571073,0000039F,false,Rx,0,8,3E,00,00,00,00,00,28,16,
13571318,000003A2,false,Rx,0,8,20,00,28,A0,03,FF,00,54,
13571573,000003A4,false,Rx,0,8,00,00,00,00,00,00,00,00,
13671124,0000039F,false,Rx,0,8,3E,00,00,00,00,00,29,17,
13671370,000003A2,false,Rx,0,8,20,00,28,A4,03,FF,00,50,
13671622,000003A4,false,Rx,0,8,00,00,00,00,00,00,00,00,
13771686,0000039F,false,Rx,0,8,3E,00,00,00,00,00,2A,14,
13771932,000003A2,false,Rx,0,8,20,00,28,A8,03,FF,00,5C,
13772176,000003A4,false,Rx,0,8,00,00,00,00,00,00,00,00,
13871834,0000039F,false,Rx,0,8,3E,00,00,00,00,00,2B,15,
13872079,000003A2,false,Rx,0,8,20,00,28,AC,03,FF,00,58,
13872323,000003A4,false,Rx,0,8,00,00,00,00,00,00,00,00,
13972382,0000039F,false,Rx,0,8,3E,00,00,00,00,00,2C,12,
13972635,000003A2,false,Rx,0,8,20,00,28,B0,03,FF,00,44,
13972880,000003A4,false,Rx,0,8,00,00,00,00,00,00,00,00,
14072445,0000039F,false,Rx,0,8,3E,00,00,00,00,00,2D,13,
14072696,000003A2,false,Rx,0,8,20,00,28,B4,03,FF,00,40,
14072941,000003A4,false,Rx,0,8,00,00,00,00,00,00,00,00,
14172625,0000039F,false,Rx,0,8,3E,00,00,00,00,00,2E,10,
14172873,000003A2,false,Rx,0,8,20,00,28,B8,03,FF,00,4C,
14173116,000003A4,false,Rx,0,8,00,00,00,00,00,00,00,00,
14273201,0000039F,false,Rx,0,8,3E,00,00,00,00,00,2F,11,
14273449,000003A2,false,Rx,0,8,20,00,28,BC,03,FF,00,48,
14273699,000003A4,false,Rx,0,8,00,00,00,00,00,00,00,00,
14373497,0000039F,false,Rx,0,8,3E,00,00,00,00,00,20,1E,
14373752,000003A2,false,Rx,0,8,20,00,28,80,03,FF,00,74,
14373995,000003A4,false,Rx,0,8,00,00,00,00,00,00,00,00,
14473660,0000039F,false,Rx,0,8,3E,00,00,00,00,00,21,1F,
14473710,000003A2,false,Rx,0,8,20,00,28,84,03,FF,00,70,
14473967,000003A4,false,Rx,0,8,00,00,00,00,00,00,00,00,
14574216,0000039F,false,Rx,0,8,3E,00,00,00,00,00,22,1C,
14574463,000003A2,false,Rx,0,8,20,00,28,88,03,FF,00,7C,
14574712,000003A4,false,Rx,0,8,00,00,00,00,00,00,00,00,
14674252,0000039F,false,Rx,0,8,3E,01,00,00,00,00,23,1C,
14674502,000003A2,false,Rx,0,8,20,00,28,8C,03,FF,00,78,
14674753,000003A4,false,Rx,0,8,00,00,00,00,00,00,00,00,
14774824,0000039F,false,Rx,0,8,3E,01,00,00,00,00,24,1B,
14775070,000003A2,false,Rx,0,8,20,00,28,90,03,FF,00,64,
14775313,000003A4,false,Rx,0,8,00,00,00,00,00,00,00,00,
14874975,0000039F,false,Rx,0,8,3E,01,00,00,00,00,25,1A,
14875220,000003A2,false,Rx,0,8,20,00,28,94,03,FF,00,60,
14875465,000003A4,false,Rx,0,8,00,00,00,00,00,00,00,00,
14975151,0000039F,false,Rx,0,8,3E,01,00,00,00,00,26,19,
14975399,000003A2,false,Rx,0,8,20,00,28,98,03,FF,00,6C,
14975650,000003A4,false,Rx,0,8,00,00,00,00,00,00,00,00,
15075277,0000039F,false,Rx,0,8,3E,00,00,00,00,00,27,19,
15075526,000003A2,false,Rx,0,8,20,00,28,9C,03,FF,00,68,
15075775,000003A4,false,Rx,0,8,00,00,00,00,00,00,00,00,
15175968,0000039F,false,Rx,0,8,3E,00,00,00,00,00,28,16,
15176215,000003A2,false,Rx,0,8,20,00,28,A0,03,FF,00,54,
15176462,000003A4,false,Rx,0,8,00,00,00,00,00,00,00,00,
15276198,0000039F,false,Rx,0,8,3E,00,00,00,00,00,29,17,
15276447,000003A2,false,Rx,0,8,20,00,28,A4,03,FF,00,50,
15276697,000003A4,false,Rx,0,8,00,00,00,00,00,00,00,00,
15376356,0000039F,false,Rx,0,8,3E,00,00,00,00,00,2A,14,
15376635,000003A2,false,Rx,0,8,20,00,28,A8,03,FF,00,5C,
15376889,000003A4,false,Rx,0,8,00,00,00,00,00,00,00,00,
15476968,0000039F,false,Rx,0,8,3E,00,00,00,00,00,2B,15,
15477214,000003A2,false,Rx,0,8,20,00,28,AC,03,FF,00,58,
15477459,000003A4,false,Rx,0,8,00,00,00,00,00,00,00,00,
15577083,0000039F,false,Rx,0,8,3E,00,00,00,00,00,2C,12,
15577327,000003A2,false,Rx,0,8,20,00,28,B0,03,FF,00,44,
15577581,000003A4,false,Rx,0,8,00,00,00,00,00,00,00,00,
15677559,0000039F,false,Rx,0,8,3E,00,00,00,00,00,2D,13,
15677805,000003A2,false,Rx,0,8,20,00,28,B4,03,FF,00,40,
15678048,000003A4,false,Rx,0,8,00,00,00,00,00,00,00,00,
15777743,0000039F,false,Rx,0,8,3E,00,00,00,00,00,2E,10,
15777988,000003A2,false,Rx,0,8,20,00,28,B8,03,FF,00,4C,
15778232,000003A4,false,Rx,0,8,00,00,00,00,00,00,00,00,
15877906,0000039F,false,Rx,0,8,3E,00,00,00,00,00,2F,11,
15878152,000003A2,false,Rx,0,8,20,00,28,BC,03,FF,00,48,
15878394,000003A4,false,Rx,0,8,00,00,00,00,00,00,00,00,
15978437,0000039F,false,Rx,0,8,3E,00,00,00,00,00,20,1E,
15978689,000003A2,false,Rx,0,8,20,00,28,80,03,FF,00,74,
15978933,000003A4,false,Rx,0,8,00,00,00,00,00,00,00,00,
16078397,0000039F,false,Rx,0,8,3E,00,00,00,00,00,21,1F,
16078649,000003A2,false,Rx,0,8,20,00,28,84,03,FF,00,70,
16078893,000003A4,false,Rx,0,8,00,00,00,00,00,00,00,00,
16178751,0000039F,false,Rx,0,8,3E,01,00,00,00,00,22,1D,
16178998,000003A2,false,Rx,0,8,20,00,28,88,03,FF,00,7C,
16179241,000003A4,false,Rx,0,8,00,00,00,00,00,00,00,00,
16279274,0000039F,false,Rx,0,8,3E,00,00,00,00,00,23,1D,
16279526,000003A2,false,Rx,0,8,20,00,28,8C,03,FF,00,78,
16279781,000003A4,false,Rx,0,8,00,00,00,00,00,00,00,00,
16379318,0000039F,false,Rx,0,8,3E,00,00,00,00,00,24,1A,
16379581,000003A2,false,Rx,0,8,20,00,28,90,03,FF,00,64,
16379825,000003A4,false,Rx,0,8,00,00,00,00,00,00,00,00,
16479795,0000039F,false,Rx,0,8,3E,00,00,00,00,00,25,1B,
16480041,000003A2,false,Rx,0,8,20,00,28,94,03,FF,00,60,
16480285,000003A4,false,Rx,0,8,00,00,00,00,00,00,00,00,
16580107,0000039F,false,Rx,0,8,3E,00,00,00,00,00,26,18,
16580351,000003A2,false,Rx,0,8,20,00,28,98,03,FF,00,6C,
16580606,000003A4,false,Rx,0,8,00,00,00,00,00,00,00,00,
16680158,0000039F,false,Rx,0,8,3E,00,00,00,00,00,27,19,
16680408,000003A2,false,Rx,0,8,20,00,28,9C,03,FF,00,68,
16680659,000003A4,false,Rx,0,8,00,00,00,00,00,00,00,00,
16780791,0000039F,false,Rx,0,8,3E,00,00,00,00,00,28,16,
16781037,000003A2,false,Rx,0,8,20,00,28,A0,03,FF,00,54,
16781281,000003A4,false,Rx,0,8,00,00,00,00,00,00,00,00,
16881101,0000039F,false,Rx,0,8,3E,00,00,00,00,00,29,17,
16881345,000003A2,false,Rx,0,8,20,00,28,A4,03,FF,00,50,
16881600,000003A4,false,Rx,0,8,00,00,00,00,00,00,00,00,
17664825,0000039F,false,Rx,0,8,3E,00,00,00,00,00,00,3E,
17665072,000003A2,false,Rx,0,8,20,00,00,40,03,FF,00,9C,
17665316,000003A4,false,Rx,0,8,00,00,00,00,00,00,00,00,
17765067,0000039F,false,Rx,0,8,3E,00,00,00,00,00,21,1F,
17765314,000003A2,false,Rx,0,8,20,00,00,84,03,FF,00,58,
17765567,000003A4,false,Rx,0,8,00,00,00,00,00,00,00,00,
17865933,0000039F,false,Rx,0,8,3E,00,00,00,00,00,22,1C,
17866179,000003A2,false,Rx,0,8,20,00,00,88,03,FF,00,54,
17866425,000003A4,false,Rx,0,8,00,00,00,00,00,00,00,00,
17966031,0000039F,false,Rx,0,8,3E,00,00,00,00,00,23,1D,
17966278,000003A2,false,Rx,0,8,20,00,00,8C,03,FF,00,50,
17966526,000003A4,false,Rx,0,8,00,00,00,00,00,00,00,00,
18066353,0000039F,false,Rx,0,8,3E,00,00,00,00,00,24,1A,
18066604,000003A2,false,Rx,0,8,20,00,00,90,03,FF,00,4C,
18066849,000003A4,false,Rx,0,8,00,00,00,00,00,00,00,00,
18166669,0000039F,false,Rx,0,8,3E,00,00,00,00,00,25,1B,
18166916,000003A2,false,Rx,0,8,20,00,00,94,03,FF,00,48,
18167161,000003A4,false,Rx,0,8,00,00,00,00,00,00,00,00,
18266837,0000039F,false,Rx,0,8,3E,00,00,00,00,00,26,18,
18267082,000003A2,false,Rx,0,8,20,00,00,98,03,FF,00,44,
18267326,000003A4,false,Rx,0,8,00,00,00,00,00,00,00,00,
18367303,0000039F,false,Rx,0,8,3E,00,00,00,00,00,27,19,
18367559,000003A2,false,Rx,0,8,20,00,00,9C,03,FF,00,40,
18367803,000003A4,false,Rx,0,8,00,00,00,00,00,00,00,00,
18467668,0000039F,false,Rx,0,8,3E,00,00,00,00,00,28,16,
18467914,000003A2,false,Rx,0,8,20,00,00,A0,03,FF,00,7C,
18468349,000003A4,false,Rx,0,8,00,00,00,00,00,00,00,00,
18567642,0000039F,false,Rx,0,8,3E,00,00,00,00,00,29,17,
18567888,000003A2,false,Rx,0,8,20,00,00,A4,03,FF,00,78,
18568131,000003A4,false,Rx,0,8,00,00,00,00,00,00,00,00,
18667970,0000039F,false,Rx,0,8,3E,00,00,00,00,00,2A,14,
18668218,000003A2,false,Rx,0,8,20,00,00,A8,03,FF,00,74,
18668463,000003A4,false,Rx,0,8,00,00,00,00,00,00,00,00,
18768585,0000039F,false,Rx,0,8,3E,00,00,00,00,00,2B,15,
18768832,000003A2,false,Rx,0,8,20,00,00,AC,03,FF,00,70,
18769075,000003A4,false,Rx,0,8,00,00,00,00,00,00,00,00,
18868965,0000039F,false,Rx,0,8,3E,00,00,00,00,00,2C,12,
18869211,000003A2,false,Rx,0,8,20,00,00,B0,03,FF,00,6C,
18869455,000003A4,false,Rx,0,8,00,00,00,00,00,00,00,00,
18969081,0000039F,false,Rx,0,8,3E,00,00,00,00,00,2D,13,
18969327,000003A2,false,Rx,0,8,20,00,00,B4,03,FF,00,68,
18969581,000003A4,false,Rx,0,8,00,00,00,00,00,00,00,00,
19069430,0000039F,false,Rx,0,8,3E,00,00,00,00,00,2E,10,
19069681,000003A2,false,Rx,0,8,20,00,00,B8,03,FF,00,64,
19069926,000003A4,false,Rx,0,8,00,00,00,00,00,00,00,00,
19169903,0000039F,false,Rx,0,8,3E,00,00,00,00,00,2F,11,
19170151,000003A2,false,Rx,0,8,20,00,00,BC,03,FF,00,60,
19170394,000003A4,false,Rx,0,8,00,00,00,00,00,00,00,00,
19270251,0000039F,false,Rx,0,8,3E,01,00,00,00,00,20,1F,
19270499,000003A2,false,Rx,0,8,20,00,00,80,03,FF,00,5C,
19270750,000003A4,false,Rx,0,8,00,00,00,00,00,00,00,00,
19370112,0000039F,false,Rx,0,8,3E,00,00,00,00,00,21,1F,
19370358,000003A2,false,Rx,0,8,20,00,00,84,03,FF,00,58,
19370612,000003A4,false,Rx,0,8,00,00,00,00,00,00,00,00,
19470764,0000039F,false,Rx,0,8,3E,01,00,00,00,00,22,1D,
19471008,000003A2,false,Rx,0,8,20,00,00,88,03,FF,00,54,
19471252,000003A4,false,Rx,0,8,00,00,00,00,00,00,00,00,
19570810,0000039F,false,Rx,0,8,3E,00,00,00,00,00,23,1D,
19571054,000003A2,false,Rx,0,8,20,00,00,8C,03,FF,00,50,
19571298,000003A4,false,Rx,0,8,00,00,00,00,00,00,00,00,
19671352,0000039F,false,Rx,0,8,3E,01,00,00,00,00,24,1B,
19671602,000003A2,false,Rx,0,8,20,00,00,90,03,FF,00,4C,
19671853,000003A4,false,Rx,0,8,00,00,00,00,00,00,00,00,
19686100,0000070E,false,Rx,0,7,2F,FF,1F,AD,00,AF,03,00,
19771786,0000039F,false,Rx,0,8,3E,00,00,00,00,00,25,1B,
19772032,000003A2,false,Rx,0,8,20,00,28,94,03,FF,00,60,
19772275,000003A4,false,Rx,0,8,00,00,00,00,00,00,00,00,
19872007,0000039F,false,Rx,0,8,3E,00,00,00,00,00,26,18,
19872253,000003A2,false,Rx,0,8,20,00,28,98,03,FF,00,6C,
19872497,000003A4,false,Rx,0,8,00,00,00,00,00,00,00,00,
19972100,0000039F,false,Rx,0,8,3E,00,00,00,00,00,27,19,
19972348,000003A2,false,Rx,0,8,20,00,28,9C,03,FF,00,68,
19972599,000003A4,false,Rx,0,8,00,00,00,00,00,00,00,00,
20072495,0000039F,false,Rx,0,8,3E,00,00,00,00,00,28,16,
20072747,000003A2,false,Rx,0,8,20,00,28,A0,03,FF,00,54,
20072990,000003A4,false,Rx,0,8,00,00,00,00,00,00,00,00,
20172706,0000039F,false,Rx,0,8,3E,00,00,00,00,00,29,17,
20172954,000003A2,false,Rx,0,8,20,00,28,A4,03,FF,00,50,
20173197,000003A4,false,Rx,0,8,00,00,00,00,00,00,00,00,
20272975,0000039F,false,Rx,0,8,3E,01,00,00,00,00,2A,15,
20273221,000003A2,false,Rx,0,8,20,00,28,A8,03,FF,00,5C,
20273467,000003A4,false,Rx,0,8,00,00,00,00,00,00,00,00,
20373445,0000039F,false,Rx,0,8,3E,00,00,00,00,00,2B,15,
20373700,000003A2,false,Rx,0,8,20,00,28,AC,03,FF,00,58,
20373944,000003A4,false,Rx,0,8,00,00,00,00,00,00,00,00,
20473719,0000039F,false,Rx,0,8,3E,00,00,00,00,00,2C,12,
20473966,000003A2,false,Rx,0,8,20,00,28,B0,03,FF,00,44,
20474209,000003A4,false,Rx,0,8,00,00,00,00,00,00,00,00,
20573669,0000039F,false,Rx,0,8,3E,00,00,00,00,00,2D,13,
20573915,000003A2,false,Rx,0,8,20,00,28,B4,03,FF,00,40,
20574349,000003A4,false,Rx,0,8,00,00,00,00,00,00,00,00,
20674096,0000039F,false,Rx,0,8,3E,01,00,00,00,00,2E,11,
20674343,000003A2,false,Rx,0,8,20,00,28,B8,03,FF,00,4C,
20674597,000003A4,false,Rx,0,8,00,00,00,00,00,00,00,00,
20699291,0000070E,false,Rx,0,7,2F,FF,1F,C5,96,2F,05,00,
20774740,0000039F,false,Rx,0,8,3E,01,00,00,00,00,2F,10,
20774987,000003A2,false,Rx,0,8,20,00,28,BC,03,FF,00,48,
20775230,000003A4,false,Rx,0,8,00,00,00,00,00,00,00,00,
20875000,0000039F,false,Rx,0,8,3E,01,00,00,00,00,20,1F,
20875266,000003A2,false,Rx,0,8,20,00,28,80,03,FF,00,74,
20875512,000003A4,false,Rx,0,8,00,00,00,00,00,00,00,00,
20975328,0000039F,false,Rx,0,8,3E,00,00,00,00,00,21,1F,
20975585,000003A2,false,Rx,0,8,20,00,28,84,03,FF,00,70,
20975829,000003A4,false,Rx,0,8,00,00,00,00,00,00,00,00,
21075573,0000039F,false,Rx,0,8,3E,01,00,00,00,00,22,1D,
21075818,000003A2,false,Rx,0,8,20,00,28,88,03,FF,00,7C,
21076062,000003A4,false,Rx,0,8,00,00,00,00,00,00,00,00,
21176038,0000039F,false,Rx,0,8,3E,00,00,00,00,00,23,1D,
21176284,000003A2,false,Rx,0,8,20,00,28,8C,03,FF,00,78,
21176535,000003A4,false,Rx,0,8,00,00,00,00,00,00,00,00,
21276336,0000039F,false,Rx,0,8,3E,00,00,00,00,00,24,1A,
21276592,000003A2,false,Rx,0,8,20,00,28,90,03,FF,00,64,
21276836,000003A4,false,Rx,0,8,00,00,00,00,00,00,00,00,
21376269,0000039F,false,Rx,0,8,3E,00,00,00,00,00,25,1B,
21376517,000003A2,false,Rx,0,8,20,00,28,94,03,FF,00,60,
21376766,000003A4,false,Rx,0,8,00,00,00,00,00,00,00,00,
21476932,0000039F,false,Rx,0,8,3E,00,00,00,00,00,26,18,
21477179,000003A2,false,Rx,0,8,20,00,28,98,03,FF,00,6C,
21477425,000003A4,false,Rx,0,8,00,00,00,00,00,00,00,00,
21576861,0000039F,false,Rx,0,8,3E,00,00,00,00,00,27,19,
21577106,000003A2,false,Rx,0,8,20,00,28,9C,03,FF,00,68,
21577349,000003A4,false,Rx,0,8,00,00,00,00,00,00,00,00,
21677228,0000039F,false,Rx,0,8,3E,00,00,00,00,00,28,16,
21677479,000003A2,false,Rx,0,8,20,00,28,A0,03,FF,00,54,
21677730,000003A4,false,Rx,0,8,00,00,00,00,00,00,00,00,
21712391,0000070E,false,Rx,0,7,2F,FF,1D,65,01,AF,02,00,
21777435,0000039F,false,Rx,0,8,3E,00,00,00,00,00,29,17,
21777689,000003A2,false,Rx,0,8,20,00,28,A4,03,FF,00,50,
21777932,000003A4,false,Rx,0,8,00,00,00,00,00,00,00,00,
21877729,0000039F,false,Rx,0,8,3E,00,00,00,00,00,2A,14,
21877975,000003A2,false,Rx,0,8,20,00,28,A8,03,FF,00,5C,
21878220,000003A4,false,Rx,0,8,00,00,00,00,00,00,00,00,
21978110,0000039F,false,Rx,0,8,3E,00,00,00,00,00,2B,15,
21978357,000003A2,false,Rx,0,8,20,00,28,AC,03,FF,00,58,
21978602,000003A4,false,Rx,0,8,00,00,00,00,00,00,00,00,
22078285,0000039F,false,Rx,0,8,3E,00,00,00,00,00,2C,12,
22078537,000003A2,false,Rx,0,8,20,00,28,B0,03,FF,00,44,
22078781,000003A4,false,Rx,0,8,00,00,00,00,00,00,00,00,
22178597,0000039F,false,Rx,0,8,3E,00,00,00,00,00,2D,13,
22178844,000003A2,false,Rx,0,8,20,00,28,B4,03,FF,00,40,
22179086,000003A4,false,Rx,0,8,00,00,00,00,00,00,00,00,
22278857,0000039F,false,Rx,0,8,3E,00,00,00,00,00,2E,10,
22279103,000003A2,false,Rx,0,8,20,00,28,B8,03,FF,00,4C,
22279346,000003A4,false,Rx,0,8,00,00,00,00,00,00,00,00,
22379262,0000039F,false,Rx,0,8,3E,00,00,00,00,00,2F,11,
22379518,000003A2,false,Rx,0,8,20,00,28,BC,03,FF,00,48,
22379773,000003A4,false,Rx,0,8,00,00,00,00,00,00,00,00,
22479656,0000039F,false,Rx,0,8,3E,00,00,00,00,00,20,1E,
22479903,000003A2,false,Rx,0,8,20,00,28,80,03,FF,00,74,
22480145,000003A4,false,Rx,0,8,00,00,00,00,00,00,00,00,
22580120,0000039F,false,Rx,0,8,3E,00,00,00,00,00,21,1F,
22580365,000003A2,false,Rx,0,8,20,00,28,84,03,FF,00,70,
22580617,000003A4,false,Rx,0,8,00,00,00,00,00,00,00,00,
22680477,0000039F,false,Rx,0,8,3E,01,00,00,00,00,22,1D,
22680731,000003A2,false,Rx,0,8,20,00,28,88,03,FF,00,7C,
22680974,000003A4,false,Rx,0,8,00,00,00,00,00,00,00,00,
22780666,0000039F,false,Rx,0,8,3E,01,00,00,00,00,23,1C,
22780912,000003A2,false,Rx,0,8,20,00,28,8C,03,FF,00,78,
22781156,000003A4,false,Rx,0,8,00,00,00,00,00,00,00,00,
22880683,0000039F,false,Rx,0,8,3E,00,00,00,00,00,24,1A,
22880930,000003A2,false,Rx,0,8,20,00,28,90,03,FF,00,64,
22881364,000003A4,false,Rx,0,8,00,00,00,00,00,00,00,00,
22981262,0000039F,false,Rx,0,8,3E,00,00,00,00,00,25,1B,
22981510,000003A2,false,Rx,0,8,20,00,28,94,03,FF,00,60,
22981759,000003A4,false,Rx,0,8,00,00,00,00,00,00,00,00,
23081588,0000039F,false,Rx,0,8,3E,00,00,00,00,00,26,18,
23081833,000003A2,false,Rx,0,8,20,00,28,98,03,FF,00,6C,
23082077,000003A4,false,Rx,0,8,00,00,00,00,00,00,00,00,
23181828,0000039F,false,Rx,0,8,3E,00,00,00,00,00,27,19,
23182077,000003A2,false,Rx,0,8,20,00,28,9C,03,FF,00,68,
23182320,000003A4,false,Rx,0,8,00,00,00,00,00,00,00,00,
23282239,0000039F,false,Rx,0,8,3E,01,00,00,00,00,28,17,
23282485,000003A2,false,Rx,0,8,20,00,28,A0,03,FF,00,54,
23282736,000003A4,false,Rx,0,8,00,00,00,00,00,00,00,00,
23382718,0000039F,false,Rx,0,8,3E,01,00,00,00,00,29,16,
23382973,000003A2,false,Rx,0,8,20,00,28,A4,03,FF,00,50,
23383217,000003A4,false,Rx,0,8,00,00,00,00,00,00,00,00,
23482890,0000039F,false,Rx,0,8,3E,00,00,00,00,00,2A,14,
23483135,000003A2,false,Rx,0,8,20,00,28,A8,03,FF,00,5C,
23483379,000003A4,false,Rx,0,8,00,00,00,00,00,00,00,00,
23583272,0000039F,false,Rx,0,8,3E,00,00,00,00,00,2B,15,
23583519,000003A2,false,Rx,0,8,20,00,28,AC,03,FF,00,58,
23583767,000003A4,false,Rx,0,8,00,00,00,00,00,00,00,00,
23683602,0000039F,false,Rx,0,8,3E,01,00,00,00,00,2C,13,
23683850,000003A2,false,Rx,0,8,20,00,28,B0,03,FF,00,44,
23684093,000003A4,false,Rx,0,8,00,00,00,00,00,00,00,00,
23783725,0000039F,false,Rx,0,8,3E,01,00,00,00,00,2D,12,
23783971,000003A2,false,Rx,0,8,20,00,28,B4,03,FF,00,40,
23784214,000003A4,false,Rx,0,8,00,00,00,00,00,00,00,00,
23883937,0000039F,false,Rx,0,8,3E,00,00,00,00,00,2E,10,
23884183,000003A2,false,Rx,0,8,20,00,28,B8,03,FF,00,4C,
23884430,000003A4,false,Rx,0,8,00,00,00,00,00,00,00,00,
23984390,0000039F,false,Rx,0,8,3E,01,00,00,00,00,2F,10,
23984645,000003A2,false,Rx,0,8,20,00,28,BC,03,FF,00,48,
23984903,000003A4,false,Rx,0,8,00,00,00,00,00,00,00,00,
24084662,0000039F,false,Rx,0,8,3E,00,00,00,00,00,20,1E,
24084908,000003A2,false,Rx,0,8,20,00,28,80,03,FF,00,74,
24085151,000003A4,false,Rx,0,8,00,00,00,00,00,00,00,00,
24185081,0000039F,false,Rx,0,8,3E,00,00,00,00,00,21,1F,
24185327,000003A2,false,Rx,0,8,20,00,28,84,03,FF,00,70,
24185582,000003A4,false,Rx,0,8,00,00,00,00,00,00,00,00,
24285457,0000039F,false,Rx,0,8,3E,01,00,00,00,00,22,1D,
24285709,000003A2,false,Rx,0,8,20,00,28,88,03,FF,00,7C,
24285953,000003A4,false,Rx,0,8,00,00,00,00,00,00,00,00,
24385273,0000039F,false,Rx,0,8,3E,01,00,00,00,00,23,1C,
24385521,000003A2,false,Rx,0,8,20,00,28,8C,03,FF,00,78,
24385772,000003A4,false,Rx,0,8,00,00,00,00,00,00,00,00,
24485823,0000039F,false,Rx,0,8,3E,01,00,00,00,00,24,1B,
24486069,000003A2,false,Rx,0,8,20,00,28,90,03,FF,00,64,
24486313,000003A4,false,Rx,0,8,00,00,00,00,00,00,00,00,
24586145,0000039F,false,Rx,0,8,3E,00,00,00,00,00,25,1B,
24586388,000003A2,false,Rx,0,8,20,00,28,94,03,FF,00,60,
24586631,000003A4,false,Rx,0,8,00,00,00,00,00,00,00,00,
24686475,0000039F,false,Rx,0,8,3E,01,00,00,00,00,26,19,
24686730,000003A2,false,Rx,0,8,20,00,28,98,03,FF,00,6C,
24686974,000003A4,false,Rx,0,8,00,00,00,00,00,00,00,00,
24786723,0000039F,false,Rx,0,8,3E,00,00,00,00,00,27,19,
24786968,000003A2,false,Rx,0,8,20,00,28,9C,03,FF,00,68,
24787212,000003A4,false,Rx,0,8,00,00,00,00,00,00,00,00,
24886830,0000039F,false,Rx,0,8,3E,00,00,00,00,00,28,16,
24887111,000003A2,false,Rx,0,8,20,00,28,A0,03,FF,00,54,
24887372,000003A4,false,Rx,0,8,00,00,00,00,00,00,00,00,
24987216,0000039F,false,Rx,0,8,3E,00,00,00,00,00,29,17,
24987464,000003A2,false,Rx,0,8,20,00,28,A4,03,FF,00,50,
24987714,000003A4,false,Rx,0,8,00,00,00,00,00,00,00,00,
25087741,0000039F,false,Rx,0,8,3E,00,00,00,00,00,2A,14,
25087984,000003A2,false,Rx,0,8,20,00,28,A8,03,FF,00,5C,
25088231,000003A4,false,Rx,0,8,00,00,00,00,00,00,00,00,
25187883,0000039F,false,Rx,0,8,3E,01,00,00,00,00,2B,14,
25188128,000003A2,false,Rx,0,8,20,00,28,AC,03,FF,00,58,
25188372,000003A4,false,Rx,0,8,00,00,00,00,00,00,00,00,
25288337,0000039F,false,Rx,0,8,3E,01,00,00,00,00,2C,13,
25288592,000003A2,false,Rx,0,8,20,00,28,B0,03,FF,00,44,
25288837,000003A4,false,Rx,0,8,00,00,00,00,00,00,00,00,
25388825,0000039F,false,Rx,0,8,3E,00,00,00,00,00,2D,13,
25389072,000003A2,false,Rx,0,8,20,00,28,B4,03,FF,00,40,
25389316,000003A4,false,Rx,0,8,00,00,00,00,00,00,00,00,
25489060,0000039F,false,Rx,0,8,3E,01,00,00,00,00,2E,11,
25489306,000003A2,false,Rx,0,8,20,00,28,B8,03,FF,00,4C,
25489560,000003A4,false,Rx,0,8,00,00,00,00,00,00,00,00,
25589016,0000039F,false,Rx,0,8,3E,01,00,00,00,00,2F,10,
25589260,000003A2,false,Rx,0,8,20,00,28,BC,03,FF,00,48,
25589507,000003A4,false,Rx,0,8,00,00,00,00,00,00,00,00,
25689627,0000039F,false,Rx,0,8,3E,00,00,00,00,00,20,1E,
25689874,000003A2,false,Rx,0,8,20,00,28,80,03,FF,00,74,
25690119,000003A4,false,Rx,0,8,00,00,00,00,00,00,00,00,
25789885,0000039F,false,Rx,0,8,3E,01,00,00,00,00,21,1E,
25790129,000003A2,false,Rx,0,8,20,00,28,84,03,FF,00,70,
25790374,000003A4,false,Rx,0,8,00,00,00,00,00,00,00,00,
25890184,0000039F,false,Rx,0,8,3E,00,00,00,00,00,22,1C,
25890432,000003A2,false,Rx,0,8,20,00,28,88,03,FF,00,7C,
25890684,000003A4,false,Rx,0,8,00,00,00,00,00,00,00,00,
25990517,0000039F,false,Rx,0,8,3E,01,00,00,00,00,23,1C,
25990804,000003A2,false,Rx,0,8,20,00,28,8C,03,FF,00,78,
25991061,000003A4,false,Rx,0,8,00,00,00,00,00,00,00,00,
26090764,0000039F,false,Rx,0,8,3E,00,00,00,00,00,24,1A,
26091009,000003A2,false,Rx,0,8,20,00,28,90,03,FF,00,64,
26091252,000003A4,false,Rx,0,8,00,00,00,00,00,00,00,00,
26191183,0000039F,false,Rx,0,8,3E,00,00,00,00,00,25,1B,
26191432,000003A2,false,Rx,0,8,20,00,28,94,03,FF,00,60,
26191683,000003A4,false,Rx,0,8,00,00,00,00,00,00,00,00,
26291031,0000039F,false,Rx,0,8,3E,00,00,00,00,00,26,18,
26291278,000003A2,false,Rx,0,8,20,00,28,98,03,FF,00,6C,
26291543,000003A4,false,Rx,0,8,00,00,00,00,00,00,00,00,
26391657,0000039F,false,Rx,0,8,3E,00,00,00,00,00,27,19,
26391904,000003A2,false,Rx,0,8,20,00,28,9C,03,FF,00,68,
26393595,000003A4,false,Rx,0,8,00,00,00,00,00,00,00,00,
26491966,0000039F,false,Rx,0,8,3E,00,00,00,00,00,28,16,
26492212,000003A2,false,Rx,0,8,20,00,28,A0,03,FF,00,54,
26492458,000003A4,false,Rx,0,8,00,00,00,00,00,00,00,00,
26592412,0000039F,false,Rx,0,8,3E,00,00,00,00,00,29,17,
26592663,000003A2,false,Rx,0,8,20,00,28,A4,03,FF,00,50,
26594865,000003A4,false,Rx,0,8,00,00,00,00,00,00,00,00,
26692754,0000039F,false,Rx,0,8,3E,00,00,00,00,00,2A,14,
26693000,000003A2,false,Rx,0,8,20,00,28,A8,03,FF,00,5C,
26693244,000003A4,false,Rx,0,8,00,00,00,00,00,00,00,00,
26792941,0000039F,false,Rx,0,8,3E,00,00,00,00,00,2B,15,
26793188,000003A2,false,Rx,0,8,20,00,28,AC,03,FF,00,58,
26793434,000003A4,false,Rx,0,8,00,00,00,00,00,00,00,00,
26893327,0000039F,false,Rx,0,8,3E,00,00,00,00,00,2C,12,
26893584,000003A2,false,Rx,0,8,20,00,28,B0,03,FF,00,44,
26893828,000003A4,false,Rx,0,8,00,00,00,00,00,00,00,00,
26993204,0000039F,false,Rx,0,8,3E,00,00,00,00,00,2D,13,
26993452,000003A2,false,Rx,0,8,20,00,28,B4,03,FF,00,40,
26993702,000003A4,false,Rx,0,8,00,00,00,00,00,00,00,00,
27093687,0000039F,false,Rx,0,8,3E,01,00,00,00,00,2E,11,
27093948,000003A2,false,Rx,0,8,20,00,28,B8,03,FF,00,4C,
27094212,000003A4,false,Rx,0,8,00,00,00,00,00,00,00,00,
27194024,0000039F,false,Rx,0,8,3E,01,00,00,00,00,2F,10,
27194272,000003A2,false,Rx,0,8,20,00,28,BC,03,FF,00,48,
27194515,000003A4,false,Rx,0,8,00,00,00,00,00,00,00,00,
27294198,0000039F,false,Rx,0,8,3E,01,00,00,00,00,20,1F,
27294445,000003A2,false,Rx,0,8,20,00,28,80,03,FF,00,74,
27294695,000003A4,false,Rx,0,8,00,00,00,00,00,00,00,00,
27394567,0000039F,false,Rx,0,8,3E,00,00,00,00,00,21,1F,
27394815,000003A2,false,Rx,0,8,20,00,28,84,03,FF,00,70,
27395058,000003A4,false,Rx,0,8,00,00,00,00,00,00,00,00,
27494946,0000039F,false,Rx,0,8,3E,00,00,00,00,00,22,1C,
27495192,000003A2,false,Rx,0,8,20,00,28,88,03,FF,00,7C,
27495437,000003A4,false,Rx,0,8,00,00,00,00,00,00,00,00,
27595322,0000039F,false,Rx,0,8,3E,00,00,00,00,00,23,1D,
27595591,000003A2,false,Rx,0,8,20,00,28,8C,03,FF,00,78,
27595835,000003A4,false,Rx,0,8,00,00,00,00,00,00,00,00,
27695690,0000039F,false,Rx,0,8,3E,00,00,00,00,00,24,1A,
27695944,000003A2,false,Rx,0,8,20,00,28,90,03,FF,00,64,
27696188,000003A4,false,Rx,0,8,00,00,00,00,00,00,00,00,
27795656,0000039F,false,Rx,0,8,3E,00,00,00,00,00,25,1B,
27795901,000003A2,false,Rx,0,8,20,00,28,94,03,FF,00,60,
27796144,000003A4,false,Rx,0,8,00,00,00,00,00,00,00,00,
27896026,0000039F,false,Rx,0,8,3E,00,00,00,00,00,26,18,
27896274,000003A2,false,Rx,0,8,20,00,28,98,03,FF,00,6C,
27896520,000003A4,false,Rx,0,8,00,00,00,00,00,00,00,00,
27996433,0000039F,false,Rx,0,8,3E,00,00,00,00,00,27,19,
27996685,000003A2,false,Rx,0,8,20,00,28,9C,03,FF,00,68,
27996929,000003A4,false,Rx,0,8,00,00,00,00,00,00,00,00,
28096894,0000039F,false,Rx,0,8,3E,01,00,00,00,00,28,17,
28097138,000003A2,false,Rx,0,8,20,00,28,A0,03,FF,00,54,
28097383,000003A4,false,Rx,0,8,00,00,00,00,00,00,00,00,
28197279,0000039F,false,Rx,0,8,3E,00,00,00,00,00,29,17,
28197536,000003A2,false,Rx,0,8,20,00,28,A4,03,FF,00,50,
28197781,000003A4,false,Rx,0,8,00,00,00,00,00,00,00,00,
28297493,0000039F,false,Rx,0,8,3E,01,00,00,00,00,2A,15,
28297747,000003A2,false,Rx,0,8,20,00,28,A8,03,FF,00,5C,
28297990,000003A4,false,Rx,0,8,00,00,00,00,00,00,00,00,
28397328,0000039F,false,Rx,0,8,3E,01,00,00,00,00,2B,14,
28397582,000003A2,false,Rx,0,8,20,00,28,AC,03,FF,00,58,
28397826,000003A4,false,Rx,0,8,00,00,00,00,00,00,00,00,
28497670,0000039F,false,Rx,0,8,3E,01,00,00,00,00,2C,13,
28497916,000003A2,false,Rx,0,8,20,00,28,B0,03,FF,00,44,
28498160,000003A4,false,Rx,0,8,00,00,00,00,00,00,00,00,
28598181,0000039F,false,Rx,0,8,3E,00,00,00,00,00,2D,13,
28598430,000003A2,false,Rx,0,8,20,00,28,B4,03,FF,00,40,
28598679,000003A4,false,Rx,0,8,00,00,00,00,00,00,00,00,
28698643,0000039F,false,Rx,0,8,3E,00,00,00,00,00,2E,10,
28698912,000003A2,false,Rx,0,8,20,00,28,B8,03,FF,00,4C,
28699172,000003A4,false,Rx,0,8,00,00,00,00,00,00,00,00,
28799144,0000039F,false,Rx,0,8,3E,00,00,00,00,00,2F,11,
28799391,000003A2,false,Rx,0,8,20,00,28,BC,03,FF,00,48,
28799642,000003A4,false,Rx,0,8,00,00,00,00,00,00,00,00,
28899251,0000039F,false,Rx,0,8,3E,00,00,00,00,00,20,1E,
28899502,000003A2,false,Rx,0,8,20,00,28,80,03,FF,00,74,
28899746,000003A4,false,Rx,0,8,00,00,00,00,00,00,00,00,
28999445,0000039F,false,Rx,0,8,3E,00,00,00,00,00,21,1F,
28999698,000003A2,false,Rx,0,8,20,00,28,84,03,FF,00,70,
28999942,000003A4,false,Rx,0,8,00,00,00,00,00,00,00,00,
29099792,0000039F,false,Rx,0,8,3E,01,00,00,00,00,22,1D,
29100036,000003A2,false,Rx,0,8,20,00,28,88,03,FF,00,7C,
29100280,000003A4,false,Rx,0,8,00,00,00,00,00,00,00,00,
29200153,0000039F,false,Rx,0,8,3E,01,00,00,00,00,23,1C,
29200404,000003A2,false,Rx,0,8,20,00,28,8C,03,FF,00,78,
29200654,000003A4,false,Rx,0,8,00,00,00,00,00,00,00,00,
29300502,0000039F,false,Rx,0,8,3E,00,00,00,00,00,24,1A,
29300754,000003A2,false,Rx,0,8,20,00,28,90,03,FF,00,64,
29300998,000003A4,false,Rx,0,8,00,00,00,00,00,00,00,00,
29401034,0000039F,false,Rx,0,8,3E,01,00,00,00,00,25,1A,
29401282,000003A2,false,Rx,0,8,20,00,28,94,03,FF,00,60,
29401553,000003A4,false,Rx,0,8,00,00,00,00,00,00,00,00,
29501111,0000039F,false,Rx,0,8,3E,01,00,00,00,00,26,19,
29501357,000003A2,false,Rx,0,8,20,00,28,98,03,FF,00,6C,
29501609,000003A4,false,Rx,0,8,00,00,00,00,00,00,00,00,
29601596,0000039F,false,Rx,0,8,3E,01,00,00,00,00,27,18,
29601842,000003A2,false,Rx,0,8,20,00,28,9C,03,FF,00,68,
29602085,000003A4,false,Rx,0,8,00,00,00,00,00,00,00,00,
29701366,0000039F,false,Rx,0,8,3E,01,00,00,00,00,28,17,
29701623,000003A2,false,Rx,0,8,20,00,28,A0,03,FF,00,54,
29701867,000003A4,false,Rx,0,8,00,00,00,00,00,00,00,00,
29801904,0000039F,false,Rx,0,8,3E,01,00,00,00,00,29,16,
29802150,000003A2,false,Rx,0,8,20,00,28,A4,03,FF,00,50,
29802394,000003A4,false,Rx,0,8,00,00,00,00,00,00,00,00,
29902380,0000039F,false,Rx,0,8,3E,00,00,00,00,00,2A,14,
29902630,000003A2,false,Rx,0,8,20,00,28,A8,03,FF,00,5C,
29902875,000003A4,false,Rx,0,8,00,00,00,00,00,00,00,00,
30002670,0000039F,false,Rx,0,8,3E,01,00,00,00,00,2B,14,
30002915,000003A2,false,Rx,0,8,20,00,28,AC,03,FF,00,58,
30003159,000003A4,false,Rx,0,8,00,00,00,00,00,00,00,00,
30102966,0000039F,false,Rx,0,8,3E,00,00,00,00,00,2C,12,
30103212,000003A2,false,Rx,0,8,20,00,28,B0,03,FF,00,44,
30103457,000003A4,false,Rx,0,8,00,00,00,00,00,00,00,00,
30203065,0000039F,false,Rx,0,8,3E,00,00,00,00,00,2D,13,
30203312,000003A2,false,Rx,0,8,20,00,28,B4,03,FF,00,40,
30203563,000003A4,false,Rx,0,8,00,00,00,00,00,00,00,00,
30303314,0000039F,false,Rx,0,8,3E,01,00,00,00,00,2E,11,
30303573,000003A2,false,Rx,0,8,20,00,28,B8,03,FF,00,4C,
30303817,000003A4,false,Rx,0,8,00,00,00,00,00,00,00,00,
30403719,0000039F,false,Rx,0,8,3E,01,00,00,00,00,2F,10,
30403967,000003A2,false,Rx,0,8,20,00,28,BC,03,FF,00,48,
30404209,000003A4,false,Rx,0,8,00,00,00,00,00,00,00,00,
30504132,0000039F,false,Rx,0,8,3E,01,00,00,00,00,20,1F,
30504377,000003A2,false,Rx,0,8,20,00,28,80,03,FF,00,74,
30504629,000003A4,false,Rx,0,8,00,00,00,00,00,00,00,00,
