Time Stamp,ID,Extended,Dir,Bus,LEN,D1,D2,D3,D4,D5,D6,D7,D8
22677869,000002F6,false,Tx,0,8,80,00,00,00,00,01,00,00,
22677885,000002FD,false,Tx,0,8,FA,00,00,00,00,00,00,00,
22677901,00000094,false,Tx,0,8,80,00,00,00,00,00,03,00,
22677917,0000014B,false,Tx,0,8,01,8B,00,00,00,00,00,00,
22682534,000000C5,false,Tx,0,8,30,00,00,00,30,00,00,00,
22682593,0000029B,false,Tx,0,8,3B,CA,86,02,FD,06,00,00,
22683778,000001E9,false,Tx,0,8,00,00,00,08,0F,F8,00,00,
22683836,0000008A,false,Tx,0,8,80,00,00,04,00,02,38,BE,
22685003,0000008F,false,Tx,0,8,00,00,00,00,00,00,00,00,
22685060,00000166,false,Tx,0,8,00,00,00,00,00,00,00,00,
22685077,00000167,false,Tx,0,8,0C,10,00,00,00,00,00,00,
22686238,0000019C,false,Tx,0,8,06,A0,26,9F,7F,FF,08,7F,
22686274,000001E5,false,Tx,0,8,46,80,00,78,00,7F,F9,38,
22686296,000002B5,false,Tx,0,8,00,82,34,00,00,00,00,B6,
22686313,000001F1,false,Tx,0,8,0E,00,00,00,08,74,00,00,
22687494,000001FC,false,Tx,0,8,00,00,00,B5,00,00,C0,00,
22687550,00000214,false,Tx,0,6,06,00,00,00,00,00,00,00,
22687567,00000172,false,Tx,0,8,85,62,9D,85,62,9D,00,00,
22687604,00000227,false,Tx,0,8,00,00,00,C0,FF,FA,00,00,
22687623,00000094,false,Tx,0,8,80,00,2B,FF,80,00,03,D7,
22687640,00000094,false,Tx,0,8,80,00,00,00,00,00,03,00,
22688804,0000022A,false,Tx,0,2,00,70,00,00,00,00,00,00,
22688853,00000232,false,Tx,0,8,00,00,00,00,00,00,00,00,
22688872,00000242,false,Tx,0,8,00,00,00,00,00,08,00,00,
22690034,0000029B,false,Tx,0,8,80,00,00,00,00,00,00,00,
22692336,000000C1,false,Tx,0,8,80,01,85,46,00,00,00,00,
22693493,000003C2,false,Tx,0,8,7F,FF,F9,CD,00,12,05,20,
22693513,0000044C,false,Tx,0,1,01,00,00,00,00,00,00,00,
22694665,000001E5,false,Tx,0,8,46,80,00,88,00,7F,F8,C9,
22694685,000000AF,false,Tx,0,8,00,00,00,00,00,00,00,00,
22694733,000000AC,false,Tx,0,8,04,70,98,A8,02,00,00,46,
22694748,00000088,false,Tx,0,8,00,00,98,00,00,00,00,98,
22694766,0000008A,false,Tx,0,8,80,00,00,04,00,02,39,BF,
22694783,000000C7,false,Tx,0,4,00,00,00,00,00,00,00,00,
22694799,000000FB,false,Tx,0,8,11,FF,00,30,AB,DB,05,F4,
22694817,0000008E,false,Tx,0,8,5D,05,04,00,13,88,09,CE,
22694835,0000019C,false,Tx,0,8,06,A0,26,9F,7F,FF,09,7F,
911,0000008F,false,Tx,0,8,00,00,00,00,00,00,00,00,
930,0000009D,false,Tx,0,8,D0,0D,80,70,00,03,00,00,
946,0000009B,false,Tx,0,8,00,00,00,00,24,00,00,24,
962,0000014F,false,Tx,0,8,02,D8,00,00,00,00,00,00,
978,000000DF,false,Tx,0,8,00,00,00,00,00,00,08,00,
994,000001AF,false,Tx,0,8,00,00,00,00,00,00,00,00,
1010,0000019F,false,Tx,0,8,00,00,00,00,00,00,00,00,
2157,00000173,false,Tx,0,8,00,00,C7,C8,0C,DA,0C,D8,
3308,00000099,false,Tx,0,8,A0,86,80,04,00,5D,00,FF,
7889,000000C5,false,Tx,0,8,10,00,00,00,10,00,00,00,
7965,00000185,false,Tx,0,4,00,00,00,0E,00,00,00,00,
7985,000001E9,false,Tx,0,8,00,00,00,08,0F,F8,00,00,
9159,000000C7,false,Tx,0,4,00,00,00,00,00,00,00,00,
9224,0000008A,false,Tx,0,8,80,00,00,04,00,02,3A,BC,
9254,0000008D,false,Tx,0,8,00,00,00,00,00,A0,00,A0,
10423,00000167,false,Tx,0,8,0C,10,00,00,00,00,00,00,
10475,0000009B,false,Tx,0,8,00,00,00,00,28,00,00,28,
10493,000000DF,false,Tx,0,8,00,00,00,00,00,00,08,00,
11654,000001F1,false,Tx,0,8,0E,00,00,00,00,00,00,00,
11684,000001F2,false,Tx,0,2,20,00,00,00,00,00,00,00,
11709,000001F2,false,Tx,0,2,20,00,00,00,00,00,00,00,
11724,000001FD,false,Tx,0,8,00,00,00,00,00,00,00,00,
11745,00000227,false,Tx,0,8,00,00,00,D0,FF,F9,80,00,
11761,0000022A,false,Tx,0,2,00,70,00,00,00,00,00,00,
11776,00000230,false,Tx,0,8,00,00,00,00,00,00,00,00,
12955,00000232,false,Tx,0,8,00,00,00,00,00,00,00,00,
13014,00000299,false,Tx,0,8,62,B7,D0,FF,FF,71,00,00,
13030,00000242,false,Tx,0,8,00,00,00,00,00,08,00,00,
13044,00000094,false,Tx,0,8,7F,FF,3B,FF,80,00,03,C7,
13061,00000094,false,Tx,0,8,80,00,00,00,00,00,03,00,
13077,00000099,false,Tx,0,8,A0,87,80,04,00,5D,00,FE,
14247,000002EF,false,Tx,0,8,F1,F0,00,00,00,00,00,00,
14304,00000334,false,Tx,0,8,00,00,00,00,00,00,08,00,
17745,00000293,false,Tx,0,8,8C,00,B3,26,21,40,00,00,
18897,000000F1,false,Tx,0,8,00,00,00,00,00,00,00,00,
18914,000000C7,false,Tx,0,4,00,00,00,00,00,00,00,00,
20062,0000008E,false,Tx,0,8,5D,05,04,00,13,88,0B,CC,
20084,0000008F,false,Tx,0,8,00,00,00,00,00,00,00,00,
20102,0000009D,false,Tx,0,8,F0,0F,80,70,00,01,00,00,
21253,000000DF,false,Tx,0,8,00,00,00,00,00,00,08,00,
21272,00000196,false,Tx,0,8,75,30,75,30,20,00,75,2B,
21288,000001E1,false,Tx,0,7,40,BD,03,00,00,00,00,00,
22437,000001E5,false,Tx,0,8,46,80,00,A8,00,7F,F6,E7,
22453,00000173,false,Tx,0,8,00,00,C7,C8,0C,DA,0C,D8,
22468,00000094,false,Tx,0,8,80,00,00,00,00,00,03,00,
22497,0000039B,false,Tx,0,8,00,00,00,00,00,00,00,00,
23645,0000029C,false,Tx,0,8,28,00,00,00,00,00,00,00,
24794,000002E7,false,Tx,0,8,08,00,00,00,00,00,0B,03,
25942,000003E2,false,Tx,0,8,1E,B6,17,A2,63,4D,63,5B,
25959,00000468,false,Tx,0,8,28,00,30,00,28,00,30,00,
27114,000000C1,false,Tx,0,8,B0,01,85,46,30,00,00,00,
28264,000001C7,false,Tx,0,8,00,00,FF,FD,00,16,00,00,
28279,00000322,false,Tx,0,8,00,00,00,00,00,00,00,00,
28295,000003C2,false,Tx,0,8,7F,FF,F9,D6,00,12,05,20,
29444,000000AF,false,Tx,0,8,00,00,08,00,00,E1,F2,00,
29459,0000008D,false,Tx,0,8,00,00,00,00,00,C0,00,C0,
29474,00000165,false,Tx,0,8,00,00,06,A0,E5,79,07,00,
30636,0000009D,false,Tx,0,8,00,00,80,70,00,00,00,00,
31785,000001E5,false,Tx,0,8,46,80,00,B8,00,7F,F5,F4,
31800,00000336,false,Tx,0,8,00,00,00,00,00,00,00,00,
31815,00000353,false,Tx,0,8,00,00,00,00,00,00,00,00,
31829,00000204,false,Tx,0,8,08,00,00,00,00,00,00,00,
32977,00000094,false,Tx,0,8,80,00,00,00,00,00,03,00,
32992,00000094,false,Tx,0,8,80,00,4B,FF,80,00,03,B7,
33007,0000022A,false,Tx,0,2,00,70,00,00,00,00,00,00,
33020,0000014B,false,Tx,0,8,01,8B,00,00,00,00,00,00,
33035,00000242,false,Tx,0,8,00,00,00,00,00,08,00,00,
33050,000003BE,false,Tx,0,8,00,43,08,F1,17,2F,00,00,
34196,000002F6,false,Tx,0,8,80,00,00,00,00,01,00,00,
34215,000002FD,false,Tx,0,8,FA,00,00,00,00,00,00,00,
35361,00000319,false,Tx,0,8,83,37,00,00,2B,AE,00,00,
35376,0000032E,false,Tx,0,8,00,00,00,00,00,00,00,00,
37654,00000171,false,Tx,0,8,00,30,3D,B0,87,42,AC,D4,
37677,000000C5,false,Tx,0,8,00,00,00,00,00,00,00,00,
37694,000003C2,false,Tx,0,8,7F,FF,F9,D8,00,12,05,20,
38874,000000AF,false,Tx,0,8,00,00,00,00,00,00,00,00,
38892,00000088,false,Tx,0,8,00,00,D8,00,00,00,00,D8,
40045,000000AF,false,Tx,0,8,00,00,04,00,00,F1,F1,00,
40060,000000C7,false,Tx,0,4,00,00,00,00,00,00,00,00,
40075,0000009D,false,Tx,0,8,10,01,80,70,00,0F,00,00,
40090,0000009B,false,Tx,0,8,00,00,00,00,34,00,00,34,
41238,000001AF,false,Tx,0,8,00,00,00,00,00,00,00,00,
41252,00000194,false,Tx,0,8,0F,0F,00,01,00,00,00,00,
41267,00000348,false,Tx,0,8,00,00,00,00,00,00,00,00,
41280,00000196,false,Tx,0,8,75,30,75,30,20,00,75,2B,
42430,0000034A,false,Tx,0,8,00,00,00,00,00,00,00,00,
42444,00000364,false,Tx,0,8,00,00,00,00,00,00,00,32,
42458,00000372,false,Tx,0,8,00,00,00,00,00,85,00,00,
42472,00000173,false,Tx,0,8,00,00,C7,C8,0C,DA,0C,D8,
42486,0000029B,false,Tx,0,8,80,00,00,00,00,00,00,00,
43631,00000373,false,Tx,0,8,00,00,00,00,00,00,00,00,
43645,00000099,false,Tx,0,8,A0,8A,80,04,00,5D,00,F3,
43721,00000379,false,Tx,0,8,84,00,00,85,00,00,00,00,
47133,000000C1,false,Tx,0,8,90,01,85,46,10,00,00,00,
48280,000001E9,false,Tx,0,8,00,00,00,08,0F,F7,00,00,
48293,00000227,false,Tx,0,8,00,00,00,F0,FF,F8,80,00,
49438,000000F1,false,Tx,0,8,00,00,00,00,00,00,00,00,
49451,0000008D,false,Tx,0,8,00,00,00,00,00,E0,00,E0,
49465,000000FB,false,Tx,0,8,11,FF,00,30,AB,F9,05,F2,
50612,00000165,false,Tx,0,8,00,00,06,A0,E5,78,08,00,
50626,00000166,false,Tx,0,8,00,00,00,00,00,00,00,00,
51784,000001F1,false,Tx,0,8,0E,00,00,00,00,00,00,00,
51799,000001F2,false,Tx,0,2,20,00,00,00,00,00,00,00,
51813,000001E1,false,Tx,0,7,40,C0,00,00,00,00,00,00,
51825,000001E5,false,Tx,0,8,46,80,00,D8,00,7F,F3,92,
51837,000001F1,false,Tx,0,8,0E,00,00,00,08,74,00,00,
51849,000001F2,false,Tx,0,2,20,00,00,00,00,00,00,00,
51859,000001FD,false,Tx,0,8,00,00,00,00,00,00,00,00,
53001,0000022A,false,Tx,0,2,00,70,00,00,00,00,00,00,
53011,00000172,false,Tx,0,8,85,62,9D,85,62,9D,00,00,
53021,00000230,false,Tx,0,8,00,00,00,00,00,00,00,00,
53032,00000094,false,Tx,0,8,7F,FF,5B,FF,7F,FF,03,A7,
53053,00000094,false,Tx,0,8,80,00,00,00,00,00,03,00,
53066,00000099,false,Tx,0,8,A0,8B,80,04,00,5D,00,F2,
53077,00000242,false,Tx,0,8,00,00,00,00,00,08,00,00,
53089,0000022B,false,Tx,0,8,0C,47,8A,3C,48,F1,08,F1,
57631,000000C1,false,Tx,0,8,A0,01,85,46,20,00,00,00,
58794,000003C2,false,Tx,0,8,7F,FF,F9,DA,00,12,05,20,
58812,00000166,false,Tx,0,8,00,00,00,00,00,00,00,00,
59959,000000AF,false,Tx,0,8,00,00,3C,00,00,11,FF,00,
59974,0000008E,false,Tx,0,8,5D,05,04,00,13,88,0F,C8,
61120,000000AF,false,Tx,0,8,00,00,00,00,00,00,00,00,
61135,0000014F,false,Tx,0,8,02,08,00,00,00,00,00,00,
61150,0000039A,false,Tx,0,8,00,43,00,00,00,00,00,00,
61165,00000194,false,Tx,0,8,0F,0F,00,01,00,00,00,00,
61180,000001E5,false,Tx,0,8,46,80,00,E8,00,7F,F2,A3,
61194,0000019F,false,Tx,0,8,00,00,00,00,00,00,00,00,
61205,00000196,false,Tx,0,8,75,30,75,30,20,00,75,2B,
61217,00000394,false,Tx,0,8,00,28,00,00,10,43,0F,74,
61229,0000049A,false,Tx,0,1,00,00,00,00,00,00,00,00,
62374,000002EF,false,Tx,0,8,00,00,00,00,00,00,00,00,
62391,0000030C,false,Tx,0,8,E9,30,00,00,00,00,00,01,
62409,00000389,false,Tx,0,8,00,00,00,00,00,00,00,00,
62422,00000299,false,Tx,0,8,62,B7,D0,FF,FF,71,00,00,
62433,00000094,false,Tx,0,8,80,00,00,00,00,00,03,00,
63579,0000038B,false,Tx,0,8,1B,00,01,00,00,44,03,E8,
63594,0000014B,false,Tx,0,8,01,8B,00,00,00,00,00,00,
67019,000000C5,false,Tx,0,8,30,00,00,00,30,00,00,00,
68229,000000AF,false,Tx,0,8,00,00,38,00,00,21,FE,00,
68287,000000C7,false,Tx,0,4,00,00,00,00,00,00,00,00,
69449,0000008D,false,Tx,0,8,00,00,00,00,00,00,00,00,
69502,0000008E,false,Tx,0,8,5D,05,04,00,13,88,00,C7,
70669,00000169,false,Tx,0,6,3B,19,60,F7,3C,00,00,00,
70699,000000AF,false,Tx,0,8,00,00,00,00,00,00,00,00,
70731,0000019C,false,Tx,0,8,06,A0,26,9F,7F,FF,00,7F,
70751,000001F1,false,Tx,0,8,0E,00,00,00,08,74,00,00,
70784,000001F2,false,Tx,0,2,20,00,00,00,00,00,00,00,
70799,000001F2,false,Tx,0,2,20,00,00,00,00,00,00,00,
71954,000001FD,false,Tx,0,8,00,00,00,00,00,00,00,00,
71984,00000227,false,Tx,0,8,00,00,00,00,00,00,00,00,
72012,0000022A,false,Tx,0,2,00,70,00,00,00,00,00,00,
72026,00000230,false,Tx,0,8,00,00,00,00,00,00,00,00,
72037,00000232,false,Tx,0,8,00,00,00,00,00,00,00,00,
72054,00000172,false,Tx,0,8,85,62,9D,85,62,9D,00,00,
73224,00000242,false,Tx,0,8,00,00,00,00,00,08,00,00,
73287,00000094,false,Tx,0,8,7F,FF,6B,FF,7F,FF,03,97,
73302,00000094,false,Tx,0,8,80,00,00,00,00,00,03,00,
73317,0000014B,false,Tx,0,8,01,8B,00,00,00,00,00,00,
73332,00000246,false,Tx,0,8,00,00,00,00,00,00,00,00,
75650,000002E7,false,Tx,0,8,08,00,00,00,00,00,0C,04,
78018,000001C7,false,Tx,0,8,00,00,00,00,00,00,00,00,
79218,00000088,false,Tx,0,8,00,00,18,00,00,00,00,18,
79237,000000AC,false,Tx,0,8,04,70,18,A8,02,00,00,C6,
79250,000000AF,false,Tx,0,8,00,00,34,00,00,31,FD,00,
79264,000000FB,false,Tx,0,8,11,FF,00,30,AB,17,06,00,
80429,0000019C,false,Tx,0,8,06,A0,26,9F,7F,FE,01,7F,
80495,000000AF,false,Tx,0,8,00,00,00,00,00,00,00,00,
80508,000000DF,false,Tx,0,8,00,00,00,00,00,00,08,00,
80522,000001AF,false,Tx,0,8,00,00,00,00,00,00,00,00,
81684,0000019F,false,Tx,0,8,00,00,00,00,00,00,00,00,
81741,00000196,false,Tx,0,8,75,30,75,30,20,00,75,2B,
81759,000001E1,false,Tx,0,7,40,BF,01,00,00,00,00,00,
81769,000001E5,false,Tx,0,8,46,80,00,08,00,80,00,4E,
81782,00000204,false,Tx,0,8,08,00,00,00,00,00,00,00,
81794,0000021C,false,Tx,0,8,00,00,00,00,00,00,00,00,
82960,000002F6,false,Tx,0,8,80,00,00,00,00,01,00,00,
83012,00000173,false,Tx,0,8,00,00,C7,C8,0C,DA,0C,D8,
83033,00000094,false,Tx,0,8,80,00,73,FF,80,00,03,8F,
83047,000002FD,false,Tx,0,8,FA,00,00,00,00,00,00,00,
87648,00000295,false,Tx,0,8,16,2B,00,02,34,4E,3F,7A,
87709,000000C5,false,Tx,0,8,10,00,00,00,10,00,00,00,
87723,000001C7,false,Tx,0,8,00,00,7F,FF,00,02,00,00,
88881,00000165,false,Tx,0,8,00,00,06,A0,E5,76,0A,00,
90091,000000FB,false,Tx,0,8,11,FF,00,30,AB,17,06,00,
90148,0000008F,false,Tx,0,8,00,00,00,00,00,00,00,00,
90162,00000167,false,Tx,0,8,0C,10,00,00,00,00,00,00,
91319,0000019C,false,Tx,0,8,06,A0,26,9F,7F,FF,02,7F,
91349,000001F2,false,Tx,0,2,20,00,00,00,00,00,00,00,
91375,000001F1,false,Tx,0,8,0E,00,00,00,08,74,00,00,
91397,000001F2,false,Tx,0,2,20,00,00,00,00,00,00,00,
91409,000002B5,false,Tx,0,8,10,82,34,00,00,00,00,A6,
91423,000001FC,false,Tx,0,8,FF,E9,00,B5,00,00,40,00,
92586,00000214,false,Tx,0,6,02,00,00,00,00,00,00,00,
92636,00000172,false,Tx,0,8,85,62,9D,85,62,9D,00,00,
92657,00000227,false,Tx,0,8,00,00,00,10,FF,FF,80,00,
92669,00000094,false,Tx,0,8,80,00,7B,FF,80,00,03,87,
92680,0000022A,false,Tx,0,2,00,70,00,00,00,00,00,00,
92693,00000099,false,Tx,0,8,A0,8F,80,04,00,5D,00,F6,
92707,00000230,false,Tx,0,8,00,00,00,00,00,00,00,00,
93867,0000014B,false,Tx,0,8,01,8B,00,00,00,00,00,00,
93926,00000246,false,Tx,0,8,00,00,00,00,00,00,00,00,
95079,0000034A,false,Tx,0,8,00,00,00,00,00,00,00,00,
97434,000001C7,false,Tx,0,8,00,00,BF,FE,00,04,00,00,
97493,0000022C,false,Tx,0,8,03,47,8A,3C,48,F1,08,F1,
98659,000003C2,false,Tx,0,8,7F,FF,F9,DB,00,12,05,20,
98716,000000AF,false,Tx,0,8,00,00,00,00,00,00,00,00,
99881,000000AC,false,Tx,0,8,04,70,38,A8,02,00,00,E6,
99935,00000088,false,Tx,0,8,00,00,38,00,00,00,00,38,
99955,0000008A,false,Tx,0,8,80,00,00,04,00,02,33,B5,
99969,0000008D,false,Tx,0,8,00,00,00,00,00,30,00,30,
99989,000000FB,false,Tx,0,8,11,FF,00,30,AB,26,05,FF,
100003,0000008E,false,Tx,0,8,5D,05,04,00,13,88,03,C4,
100017,0000019C,false,Tx,0,8,06,A0,26,9F,7F,FF,03,7F,
100030,0000009D,false,Tx,0,8,70,07,80,70,00,09,00,00,
100045,0000008F,false,Tx,0,8,00,00,00,00,00,00,00,00,
101210,0000009B,false,Tx,0,8,00,00,00,00,0C,00,00,0C,
101271,0000014F,false,Tx,0,8,02,28,00,00,00,00,00,00,
101285,000001AF,false,Tx,0,8,00,00,00,00,00,00,00,00,
101299,000000DF,false,Tx,0,8,00,00,00,00,00,00,08,00,
101313,0000019F,false,Tx,0,8,00,00,00,00,00,00,00,00,
102474,00000173,false,Tx,0,8,00,00,C7,C8,0C,DA,0C,D8,
105965,00000163,false,Tx,0,8,40,05,40,02,08,00,02,00,
107150,000000C1,false,Tx,0,8,B0,01,85,46,30,00,00,00,
107205,0000022A,false,Tx,0,8,01,43,43,05,43,43,42,00,
108392,000000C7,false,Tx,0,4,00,00,00,00,00,00,00,00,
108451,00000088,false,Tx,0,8,00,00,48,00,00,00,00,48,
109615,0000008E,false,Tx,0,8,5D,05,04,00,13,88,04,C3,
109668,00000167,false,Tx,0,8,0C,10,00,00,00,00,00,00,
109690,00000169,false,Tx,0,6,3B,19,60,F7,3C,00,00,00,
110854,0000019C,false,Tx,0,8,06,A0,26,9F,7F,FE,04,7F,
110914,000001E5,false,Tx,0,8,46,80,00,38,00,7F,FD,7C,
112069,000001F2,false,Tx,0,2,20,00,00,00,00,00,00,00,
112082,0000041F,false,Tx,0,3,02,70,01,00,00,00,00,00,
112096,000001FD,false,Tx,0,8,00,00,00,00,00,00,00,00,
112110,00000227,false,Tx,0,8,00,00,00,20,FF,FF,00,00,
112124,0000022A,false,Tx,0,2,00,70,00,00,00,00,00,00,
112138,00000230,false,Tx,0,8,00,00,00,00,00,00,00,00,
112152,00000299,false,Tx,0,8,62,B7,D0,FF,FF,71,00,00,
112171,00000232,false,Tx,0,8,00,00,00,00,00,00,00,00,
113337,00000094,false,Tx,0,8,7F,FF,0B,FF,7F,FF,03,F7,
113396,00000094,false,Tx,0,8,80,00,00,00,00,00,03,00,
113411,00000099,false,Tx,0,8,A0,81,80,04,00,5D,00,F8,
113426,00000242,false,Tx,0,8,00,00,00,00,00,08,00,00,
113440,00000244,false,Tx,0,8,00,00,20,04,00,00,00,00,
113455,00000246,false,Tx,0,8,00,00,00,00,00,00,00,00,
116922,000000C1,false,Tx,0,8,80,01,85,46,00,00,00,00,
118131,000001C7,false,Tx,0,8,00,00,00,00,00,08,00,00,
119333,000000AC,false,Tx,0,8,04,70,58,A8,02,00,00,86,
119391,000000AF,false,Tx,0,8,00,00,24,00,00,71,F9,00,
119408,000000FB,false,Tx,0,8,11,FF,00,30,AB,35,05,FE,
120590,0000014F,false,Tx,0,8,02,38,00,00,00,00,00,00,
120649,000000DF,false,Tx,0,8,00,00,00,00,00,00,08,00,
120664,000001AF,false,Tx,0,8,00,00,00,00,00,00,00,00,
121830,00000196,false,Tx,0,8,75,30,75,30,20,00,75,2B,
121889,000001E5,false,Tx,0,8,46,80,00,48,00,7F,FC,0D,
123060,0000039B,false,Tx,0,8,00,00,00,00,00,00,00,00,
123120,00000094,false,Tx,0,8,80,00,13,FF,80,00,03,EF,
124289,000002A2,false,Tx,0,8,86,00,20,C8,00,84,00,AC,
125471,000003BF,false,Tx,0,8,28,00,30,00,28,00,30,00,
125528,00000468,false,Tx,0,8,28,00,30,00,28,00,30,00,
126694,00000469,false,Tx,0,8,28,00,30,00,28,00,30,00,
126750,0000046D,false,Tx,0,8,02,97,02,97,00,00,01,02,
127902,000000C5,false,Tx,0,8,10,00,00,00,10,00,00,00,
127917,00000227,false,Tx,0,8,00,00,00,30,FF,FE,80,00,
129085,00000232,false,Tx,0,8,00,00,00,00,00,00,00,00,
129144,000000AC,false,Tx,0,8,04,70,68,A8,02,00,00,B6,
130312,000000FB,false,Tx,0,8,11,FF,00,30,AB,35,05,FE,
130369,000000AF,false,Tx,0,8,00,00,00,00,00,00,00,00,
130385,00000167,false,Tx,0,8,0C,10,00,00,00,00,00,00,
131554,0000019C,false,Tx,0,8,06,A0,26,9F,7F,FF,06,7F,
131610,00000172,false,Tx,0,8,85,62,9D,85,62,9D,00,00,
131627,000001F2,false,Tx,0,2,20,00,00,00,00,00,00,00,
131641,00000353,false,Tx,0,8,00,00,00,00,00,00,00,00,
132806,00000204,false,Tx,0,8,08,00,00,00,00,00,00,00,
132863,00000094,false,Tx,0,8,80,00,00,00,00,00,03,00,
132879,00000094,false,Tx,0,8,7F,FF,1B,FF,7F,FF,03,E7,
134052,00000242,false,Tx,0,8,00,00,00,00,00,08,00,00,
134107,0000014B,false,Tx,0,8,01,8B,00,00,00,00,00,00,
134123,00000244,false,Tx,0,8,00,00,20,04,00,00,00,00,
134139,00000400,false,Tx,0,8,71,40,02,00,00,40,06,00,
135311,0000030B,false,Tx,0,8,00,00,00,00,06,20,06,20,
135368,00000319,false,Tx,0,8,83,37,00,00,2B,AE,00,00,
136533,00000336,false,Tx,0,8,00,00,00,00,00,00,00,00,
136606,00000361,false,Tx,0,8,00,00,00,00,00,00,00,00,
137768,00000402,false,Tx,0,8,00,00,00,00,00,05,00,00,
137821,000001FC,false,Tx,0,8,00,00,00,B5,00,00,80,00,
139022,000001E1,false,Tx,0,7,40,BD,03,00,00,00,00,00,
139079,000003C2,false,Tx,0,8,7F,FF,F9,D6,00,12,05,20,
140245,0000008A,false,Tx,0,8,7F,FF,00,04,00,02,37,B1,
140301,000000C7,false,Tx,0,4,00,00,00,00,00,00,00,00,
140317,0000009D,false,Tx,0,8,B0,0B,80,70,00,05,00,00,
141482,0000019C,false,Tx,0,8,06,A0,26,9F,7F,FE,07,7F,
141535,000000DF,false,Tx,0,8,00,00,00,00,00,00,08,00,
141552,0000019F,false,Tx,0,8,00,00,00,00,00,00,00,00,
141576,00000196,false,Tx,0,8,75,30,75,30,20,00,75,2B,
141593,00000348,false,Tx,0,8,00,00,00,00,00,00,00,00,
141627,0000034A,false,Tx,0,8,00,00,00,00,00,00,00,00,
142794,00000364,false,Tx,0,8,00,00,00,00,00,00,00,32,
142848,00000173,false,Tx,0,8,00,00,C7,C8,0C,DA,0C,D8,
142866,0000029B,false,Tx,0,8,80,00,00,00,00,00,00,00,
142890,00000418,false,Tx,0,8,00,00,00,00,00,00,00,00,
142907,00000372,false,Tx,0,8,00,00,00,00,00,85,00,00,
144072,00000376,false,Tx,0,8,00,00,00,00,00,00,00,00,
144126,00000379,false,Tx,0,8,84,00,00,85,00,00,00,00,
145301,00000541,false,Tx,0,8,18,03,0B,0D,02,4B,00,00,
147660,000000C5,false,Tx,0,8,30,00,00,00,30,00,00,00,
148869,000000F1,false,Tx,0,8,00,00,00,00,00,00,00,00,
148923,000003C2,false,Tx,0,8,7F,FF,F9,DA,00,12,05,20,
150091,0000008A,false,Tx,0,8,80,00,00,04,00,02,38,BE,
150147,0000008E,false,Tx,0,8,5D,05,04,00,13,88,08,CF,
151317,00000167,false,Tx,0,8,0C,10,00,00,00,00,00,00,
151373,000000AF,false,Tx,0,8,00,00,00,00,00,00,00,00,
151390,0000019C,false,Tx,0,8,06,A0,26,9F,7F,FF,08,7F,
151407,00000196,false,Tx,0,8,00,00,00,00,00,00,00,00,
151424,000001E5,false,Tx,0,8,46,80,00,78,00,7F,F9,38,
151441,000001F1,false,Tx,0,8,0E,00,00,00,00,00,00,00,
151458,000001F2,false,Tx,0,2,20,00,00,00,00,00,00,00,
151473,000001F1,false,Tx,0,8,0E,00,00,00,08,74,00,00,
151490,000001F2,false,Tx,0,2,20,00,00,00,00,00,00,00,
152660,000001FD,false,Tx,0,8,00,00,00,00,00,00,00,00,
152715,0000022A,false,Tx,0,2,00,70,00,00,00,00,00,00,
152730,00000230,false,Tx,0,8,00,00,00,00,00,00,00,00,
152753,00000172,false,Tx,0,8,85,62,9D,85,62,9D,00,00,
152770,00000242,false,Tx,0,8,00,00,00,00,00,08,00,00,
152787,00000094,false,Tx,0,8,7F,FF,2B,FF,7F,FF,03,D7,
152804,00000244,false,Tx,0,8,00,00,20,04,00,00,00,00,
152837,0000014B,false,Tx,0,8,01,8B,00,00,00,00,00,00,
157444,00000171,false,Tx,0,8,00,30,15,B0,87,42,AC,FC,
157493,000002A2,false,Tx,0,8,86,86,20,00,40,84,00,AC,
159814,000000AF,false,Tx,0,8,00,00,14,00,00,B1,F5,00,
159863,0000008A,false,Tx,0,8,7F,FF,00,04,00,02,39,BF,
159881,000000FB,false,Tx,0,8,11,FF,00,30,AB,53,05,FC,
161053,0000009D,false,Tx,0,8,D0,0D,80,70,00,03,00,00,
161109,000000DF,false,Tx,0,8,00,00,00,00,00,00,08,00,
161128,00000194,false,Tx,0,8,0F,0F,00,01,00,00,00,00,
161147,0000039A,false,Tx,0,8,00,43,00,00,1F,C0,00,00,
161165,000002EF,false,Tx,0,8,FE,20,00,00,00,00,00,00,
161183,0000019F,false,Tx,0,8,00,00,00,00,00,00,00,00,
161201,00000196,false,Tx,0,8,75,30,75,30,20,00,75,2B,
162374,00000394,false,Tx,0,8,00,28,00,00,10,43,00,7B,
162425,0000030C,false,Tx,0,8,E9,30,00,00,00,00,00,01,
162444,0000049A,false,Tx,0,1,00,00,00,00,00,00,00,00,
162461,00000389,false,Tx,0,8,00,00,00,00,00,00,00,00,
162480,0000038B,false,Tx,0,8,1B,00,01,00,00,44,03,E8,
162498,00000299,false,Tx,0,8,62,B7,D0,FF,FF,71,00,00,
162516,000003AB,false,Tx,0,8,80,00,00,03,FF,45,00,00,
163676,00000099,false,Tx,0,8,A0,86,80,04,00,5D,00,FF,
165997,00000163,false,Tx,0,8,43,05,40,02,08,00,02,00,
167201,00000185,false,Tx,0,4,00,00,00,0E,00,00,00,00,
168404,000000AC,false,Tx,0,8,04,70,A8,A8,02,00,00,76,
169610,00000165,false,Tx,0,8,00,00,06,A0,E5,72,0E,00,
169660,0000008E,false,Tx,0,8,5D,05,04,00,13,88,0A,CD,
169688,00000166,false,Tx,0,8,00,00,00,00,00,00,00,00,
169724,00000169,false,Tx,0,6,3B,19,60,F7,3C,00,00,00,
170895,000000AF,false,Tx,0,8,00,00,00,00,00,00,00,00,
170951,000001F1,false,Tx,0,8,0E,00,00,00,00,00,00,00,
170969,000001F2,false,Tx,0,2,20,00,00,00,00,00,00,00,
170986,000001F1,false,Tx,0,8,0E,00,00,00,08,74,00,00,
171005,000003C2,false,Tx,0,8,7F,FF,F9,D1,00,12,05,20,
172176,000001F2,false,Tx,0,2,20,00,00,00,00,00,00,00,
172224,000001FD,false,Tx,0,8,00,00,00,00,00,00,00,00,
172252,00000227,false,Tx,0,8,00,00,00,50,FF,FD,80,00,
172270,0000022A,false,Tx,0,2,00,70,00,00,00,00,00,00,
172287,00000230,false,Tx,0,8,00,00,00,00,00,00,00,00,
172305,00000172,false,Tx,0,8,85,62,9D,85,62,9D,00,00,
172323,00000232,false,Tx,0,8,00,00,00,00,00,00,00,00,
173496,00000094,false,Tx,0,8,7F,FF,3B,FF,7F,FF,03,C7,
173549,00000094,false,Tx,0,8,80,00,00,00,00,00,03,00,
173573,00000099,false,Tx,0,8,A0,87,80,04,00,5D,00,FE,
173592,00000391,false,Tx,0,8,10,01,A0,00,B0,00,48,00,
175912,000002E7,false,Tx,0,8,08,00,00,00,00,00,0E,06,
178260,00000171,false,Tx,0,8,00,30,19,B0,87,42,AC,F0,
179465,00000166,false,Tx,0,8,00,00,00,00,00,00,00,00,
179515,000000AF,false,Tx,0,8,00,00,0C,00,00,D1,F3,00,
179536,000000C7,false,Tx,0,4,00,00,00,00,00,00,00,00,
179564,0000008E,false,Tx,0,8,5D,05,04,00,13,88,0B,CC,
180738,0000009B,false,Tx,0,8,00,00,00,00,2C,00,00,2C,
180791,000000AF,false,Tx,0,8,00,00,00,00,00,00,00,00,
180811,00000194,false,Tx,0,8,0F,0F,00,01,00,00,00,00,
180830,000000DF,false,Tx,0,8,00,00,00,00,00,00,08,00,
180851,000001AF,false,Tx,0,8,00,00,00,00,00,00,00,00,
180871,000003C2,false,Tx,0,8,7F,FF,F9,D5,00,12,05,20,
180892,00000196,false,Tx,0,8,75,30,75,30,20,00,75,2B,
180929,0000019F,false,Tx,0,8,00,00,00,00,00,00,00,00,
182100,000001E5,false,Tx,0,8,46,80,00,A8,00,7F,F6,E7,
182156,00000204,false,Tx,0,8,08,00,00,00,00,00,00,00,
182176,0000021C,false,Tx,0,8,00,00,00,00,00,00,00,00,
182196,000002F6,false,Tx,0,8,80,00,00,00,00,01,00,00,
182216,000002FD,false,Tx,0,8,FA,00,00,00,00,00,00,00,
183388,00000094,false,Tx,0,8,80,00,43,FF,80,00,03,BF,
186895,00000163,false,Tx,0,8,40,05,40,02,08,00,02,00,
188097,00000185,false,Tx,0,4,00,00,00,0E,00,00,00,00,
188144,000001C7,false,Tx,0,8,00,00,FF,FD,00,16,00,00,
189315,00000165,false,Tx,0,8,00,00,06,A0,E5,71,0F,00,
189366,000000C7,false,Tx,0,4,00,00,00,00,00,00,00,00,
189384,000000FB,false,Tx,0,8,11,FF,00,30,AB,62,05,FB,
190555,00000167,false,Tx,0,8,0C,10,00,00,00,00,00,00,
190605,00000196,false,Tx,0,8,00,00,00,00,00,00,00,00,
191762,000001F1,false,Tx,0,8,0E,00,00,00,00,00,00,00,
191783,000001F1,false,Tx,0,8,0E,00,00,00,08,74,00,00,
191805,000002B6,false,Tx,0,8,20,00,00,02,1D,0C,86,B5,
191826,000001FC,false,Tx,0,8,00,00,00,B5,00,00,C0,00,
191846,000003C2,false,Tx,0,8,7F,FF,F9,E1,00,12,05,20,
191866,00000214,false,Tx,0,6,06,00,00,00,00,00,00,00,
193039,00000172,false,Tx,0,8,85,62,9D,85,62,9D,00,00,
193087,00000227,false,Tx,0,8,00,00,00,60,FF,FD,00,00,
193110,00000094,false,Tx,0,8,7F,FF,4B,FF,7F,FF,03,B7,
193132,00000094,false,Tx,0,8,80,00,00,00,00,00,03,00,
193162,00000230,false,Tx,0,8,00,00,00,00,00,00,00,00,
193184,0000014B,false,Tx,0,8,01,8B,00,00,00,00,00,00,
193206,00000232,false,Tx,0,8,00,00,00,00,00,00,00,00,
194381,00000348,false,Tx,0,8,00,00,00,00,00,00,00,00,
197885,000003BA,false,Tx,0,8,03,07,12,64,00,00,00,00,
197935,00000171,false,Tx,0,8,00,30,1D,B0,87,42,AC,F4,
199115,000000F1,false,Tx,0,8,00,00,00,00,00,00,00,00,
199164,000000AC,false,Tx,0,8,04,70,D8,A8,02,00,00,06,
199186,00000088,false,Tx,0,8,00,00,D8,00,00,00,00,D8,
199209,000000AF,false,Tx,0,8,00,00,04,00,00,F1,F1,00,
200385,000000C7,false,Tx,0,4,00,00,00,00,00,00,00,00,
200436,0000008D,false,Tx,0,8,00,00,00,00,00,D0,00,D0,
200458,0000008E,false,Tx,0,8,5D,05,04,00,13,88,0D,CA,
200489,0000019C,false,Tx,0,8,06,A0,26,9F,7F,FE,0D,7F,
200512,0000008F,false,Tx,0,8,00,00,00,00,00,00,00,00,
200535,0000014F,false,Tx,0,8,02,78,00,00,00,00,00,00,
200557,0000009B,false,Tx,0,8,00,00,00,00,34,00,00,34,
200580,0000009D,false,Tx,0,8,10,01,80,70,00,0F,00,00,
200602,000003C2,false,Tx,0,8,7F,FF,F9,DC,00,12,05,20,
200625,00000194,false,Tx,0,8,0F,0F,00,01,00,00,00,00,
201785,000000DF,false,Tx,0,8,00,00,00,00,00,00,08,00,
201812,00000196,false,Tx,0,8,75,30,75,30,20,00,75,2B,
202988,00000173,false,Tx,0,8,00,00,C7,C8,0C,D9,0C,D8,
203032,00000094,false,Tx,0,8,80,00,00,00,00,00,03,00,
203057,0000022B,false,Tx,0,8,0F,47,8A,3C,48,F1,08,F1,
207687,000000C5,false,Tx,0,8,10,00,00,00,10,00,00,00,
207741,0000022A,false,Tx,0,8,03,43,43,07,42,43,43,00,
208935,00000227,false,Tx,0,8,00,00,00,70,FF,FC,80,00,
208983,0000008A,false,Tx,0,8,7F,FF,00,04,00,02,3E,B8,
210159,0000008F,false,Tx,0,8,00,00,00,00,00,00,00,00,
210207,00000165,false,Tx,0,8,00,00,06,A0,E5,80,00,00,
210230,000000AF,false,Tx,0,8,00,00,00,00,00,00,00,00,
211417,00000169,false,Tx,0,6,3B,19,60,F7,3C,00,00,00,
211465,000001E5,false,Tx,0,8,46,80,00,D8,00,7F,F3,92,
211487,000003C2,false,Tx,0,8,7F,FF,F9,DA,00,12,05,20,
211509,000001F1,false,Tx,0,8,0E,00,00,00,08,74,00,00,
211532,000001F2,false,Tx,0,2,20,00,00,00,00,00,00,00,
212708,000001FD,false,Tx,0,8,00,00,00,00,00,00,00,00,
212757,0000022A,false,Tx,0,2,00,70,00,00,00,00,00,00,
212781,00000230,false,Tx,0,8,00,00,00,00,00,00,00,00,
212806,00000299,false,Tx,0,8,62,B7,D0,FF,FF,71,00,00,
212833,00000242,false,Tx,0,8,00,00,00,00,00,08,00,00,
212858,00000334,false,Tx,0,8,00,00,00,00,00,00,08,00,
212884,00000094,false,Tx,0,8,7F,FF,5B,FF,7F,FF,03,A7,
212909,00000094,false,Tx,0,8,80,00,00,00,00,00,03,00,
212935,00000099,false,Tx,0,8,A0,8B,80,04,00,5D,00,F2,
212961,00000244,false,Tx,0,8,00,00,20,04,00,00,00,00,
214134,000003AC,false,Tx,0,8,00,5D,02,22,4B,FF,18,00,
217641,000000C5,false,Tx,0,8,20,00,00,00,20,00,00,00,
218821,000000AC,false,Tx,0,8,04,70,F8,A8,02,00,00,26,
218863,000000AF,false,Tx,0,8,00,00,3C,00,00,11,FF,00,
220038,000000FB,false,Tx,0,8,11,FF,00,30,AB,80,05,F9,
220080,0000009B,false,Tx,0,8,00,00,00,00,3C,00,00,3C,
221256,00000196,false,Tx,0,8,75,30,75,30,20,00,75,2B,
221300,0000019F,false,Tx,0,8,00,00,00,00,00,00,00,00,
222494,00000094,false,Tx,0,8,80,00,63,FF,80,00,03,9F,
223680,0000029C,false,Tx,0,8,28,00,00,00,00,00,00,00,
223720,000002A2,false,Tx,0,8,86,00,20,C8,00,84,00,AC,
224893,000003A6,false,Tx,0,8,00,00,00,00,00,00,00,00,
226086,00000464,false,Tx,0,8,08,00,08,00,00,00,00,00,
226133,00000468,false,Tx,0,8,28,00,30,00,28,00,30,00,
227302,0000046D,false,Tx,0,8,02,99,02,99,00,00,01,02,
227347,00000295,false,Tx,0,8,86,2B,00,02,34,4E,3F,EA,
228539,00000692,false,Tx,0,8,28,00,00,00,00,00,00,00,
229736,000000AC,false,Tx,0,8,04,70,08,A8,02,00,00,D6,
229783,000000C7,false,Tx,0,4,00,00,00,00,00,00,00,00,
229808,000000FB,false,Tx,0,8,11,FF,00,30,AB,80,05,F9,
230983,0000009D,false,Tx,0,8,40,04,80,70,00,0C,00,00,
231031,00000196,false,Tx,0,8,00,00,00,00,00,00,00,00,
232203,00000353,false,Tx,0,8,00,00,00,00,00,00,00,00,
232246,000001F1,false,Tx,0,8,0E,00,00,00,08,74,00,00,
232282,000001FD,false,Tx,0,8,00,00,00,00,00,00,00,00,
232311,00000172,false,Tx,0,8,85,62,9D,85,62,9D,00,00,
233508,0000021C,false,Tx,0,8,00,00,00,00,00,00,00,00,
233550,00000099,false,Tx,0,8,A0,8D,80,04,00,5D,00,F4,
233582,0000022A,false,Tx,0,2,00,70,00,00,00,00,00,00,
233611,0000014B,false,Tx,0,8,01,8B,00,00,00,00,00,00,
233643,000003BE,false,Tx,0,8,00,43,08,F1,18,30,00,00,
234822,00000246,false,Tx,0,8,00,00,00,00,00,00,00,00,
234869,00000297,false,Tx,0,8,00,03,00,00,00,00,20,00,
234898,000002F6,false,Tx,0,8,80,00,00,00,00,01,00,00,
236081,0000031A,false,Tx,0,8,0A,20,00,37,57,42,90,4E,
236127,00000336,false,Tx,0,8,00,00,00,00,00,00,00,00,
238454,000001C7,false,Tx,0,8,00,00,00,00,00,00,00,00,
238502,00000402,false,Tx,0,8,00,00,00,00,00,05,00,00,
238532,000000F1,false,Tx,0,8,00,00,00,00,00,00,00,00,
239710,00000088,false,Tx,0,8,00,00,18,00,00,00,00,18,
239756,000000AF,false,Tx,0,8,00,00,34,00,00,31,FD,00,
239786,0000008D,false,Tx,0,8,00,00,00,00,00,10,00,10,
240967,0000008F,false,Tx,0,8,00,00,00,00,00,00,00,00,
241014,0000014F,false,Tx,0,8,02,98,00,00,00,00,00,00,
241043,0000019F,false,Tx,0,8,00,00,00,00,00,00,00,00,
241073,00000194,false,Tx,0,8,0F,0F,00,01,00,00,00,00,
242255,0000034A,false,Tx,0,8,00,00,00,00,00,00,00,00,
242298,00000196,false,Tx,0,8,75,30,75,30,20,00,75,2B,
242328,00000361,false,Tx,0,8,00,00,00,00,00,00,00,00,
242358,00000364,false,Tx,0,8,00,00,00,00,00,00,00,32,
242391,00000173,false,Tx,0,8,00,00,C7,C8,0C,D9,0C,D8,
242420,0000029B,false,Tx,0,8,80,00,00,00,00,00,00,00,
242450,00000094,false,Tx,0,8,80,00,74,00,80,00,03,77,
242500,00000099,false,Tx,0,8,A0,8E,80,04,00,5D,00,F7,
243668,0000014B,false,Tx,0,8,01,8B,00,00,00,00,00,00,
244841,0000046A,false,Tx,0,8,00,20,00,00,00,40,00,03,
246092,00000163,false,Tx,0,8,43,05,40,02,08,00,02,00,
247351,000000C5,false,Tx,0,8,10,00,00,00,10,00,00,00,
248572,00000227,false,Tx,0,8,00,00,00,90,FF,FB,80,00,
249735,000000AF,false,Tx,0,8,00,00,30,00,00,41,FC,00,
249763,0000008D,false,Tx,0,8,00,00,00,00,00,20,00,20,
249787,00000165,false,Tx,0,8,00,00,06,A0,E5,7E,02,00,
250980,0000009D,false,Tx,0,8,60,06,80,70,00,0A,00,00,
251029,00000167,false,Tx,0,8,0C,10,00,00,00,00,00,00,
251052,0000019C,false,Tx,0,8,06,A0,26,A0,7F,FF,02,7F,
251076,000001F1,false,Tx,0,8,0E,00,00,00,00,00,00,00,
251099,000001F2,false,Tx,0,2,20,00,00,00,00,00,00,00,
251117,000001E5,false,Tx,0,8,46,80,00,18,00,7F,FF,5E,
252299,000003C2,false,Tx,0,8,7F,FF,F9,E2,00,12,05,20,
252358,000001F1,false,Tx,0,8,0E,00,00,00,08,74,00,00,
252381,000001F2,false,Tx,0,2,20,00,00,00,00,00,00,00,
252402,000001FD,false,Tx,0,8,00,00,00,00,00,00,00,00,
252428,0000022A,false,Tx,0,2,00,70,00,00,00,00,00,00,
252448,00000230,false,Tx,0,8,00,00,00,00,00,00,00,00,
252471,00000172,false,Tx,0,8,85,62,9D,85,62,9D,00,00,
252494,00000094,false,Tx,0,8,80,00,00,00,00,00,03,00,
252517,00000094,false,Tx,0,8,80,00,7B,FF,7F,FF,03,87,
253701,00000242,false,Tx,0,8,00,00,00,00,00,08,00,00,
253781,000003C0,false,Tx,0,8,00,00,00,00,00,1F,C0,00,
257248,000000C5,false,Tx,0,8,20,00,00,00,20,00,00,00,
258462,000002A2,false,Tx,0,8,86,86,20,00,40,84,00,AC,
259677,000000AC,false,Tx,0,8,04,70,38,A8,02,00,00,E6,
259735,0000008E,false,Tx,0,8,5D,05,04,00,13,88,03,C4,
259753,0000019C,false,Tx,0,8,06,A0,26,9F,7F,FF,03,7F,
260949,0000009B,false,Tx,0,8,00,00,00,00,0C,00,00,0C,
260998,000000DF,false,Tx,0,8,00,00,00,00,00,00,08,00,
261025,0000039A,false,Tx,0,8,00,43,00,00,2F,80,00,00,
261050,00000196,false,Tx,0,8,75,30,75,30,20,00,75,2B,
261076,0000019F,false,Tx,0,8,00,00,00,00,00,00,00,00,
262262,000001E1,false,Tx,0,7,40,BD,03,00,00,00,00,00,
262315,000003C2,false,Tx,0,8,7F,FF,F9,DF,00,12,05,20,
262360,000001E5,false,Tx,0,8,46,80,00,28,00,7F,FE,6F,
262380,00000394,false,Tx,0,8,00,28,00,00,10,43,01,7A,
262409,0000049A,false,Tx,0,1,00,00,00,00,00,00,00,00,
262438,000002EF,false,Tx,0,8,FC,40,00,00,00,00,00,00,
262465,0000030C,false,Tx,0,8,E9,30,00,00,00,00,00,01,
262492,00000389,false,Tx,0,8,00,00,00,00,00,00,00,00,
262517,00000299,false,Tx,0,8,62,B7,D0,FF,FF,71,00,00,
263688,00000099,false,Tx,0,8,A0,80,80,04,00,5D,00,F9,
267160,00000293,false,Tx,0,8,8C,00,B3,26,21,40,00,00,
267196,000000C5,false,Tx,0,8,30,00,00,00,30,00,00,00,
268367,000001E9,false,Tx,0,8,00,00,00,08,0F,F6,00,00,
269572,00000088,false,Tx,0,8,00,00,48,00,00,00,00,48,
269628,00000166,false,Tx,0,8,00,00,00,00,00,00,00,00,
269666,0000008F,false,Tx,0,8,00,00,00,00,00,00,00,00,
269720,00000169,false,Tx,0,6,3B,19,60,F7,3C,00,00,00,
270905,00000196,false,Tx,0,8,00,00,00,00,00,00,00,00,
270966,000001E5,false,Tx,0,8,46,80,00,38,00,7F,FD,7C,
271008,000001F2,false,Tx,0,2,20,00,00,00,00,00,00,00,
271048,000001F2,false,Tx,0,2,20,00,00,00,00,00,00,00,
272221,000003C2,false,Tx,0,8,7F,FF,F9,D6,00,12,05,20,
272270,000001FD,false,Tx,0,8,00,00,00,00,00,00,00,00,
272309,0000041F,false,Tx,0,3,02,70,01,00,00,00,00,00,
272324,00000227,false,Tx,0,8,00,00,00,A0,FF,FB,00,00,
272343,0000022A,false,Tx,0,2,00,70,00,00,00,00,00,00,
272360,00000230,false,Tx,0,8,00,00,00,00,00,00,00,00,
272392,00000232,false,Tx,0,8,00,00,00,00,00,00,00,00,
272412,00000172,false,Tx,0,8,85,62,9D,85,62,9D,00,00,
272443,00000242,false,Tx,0,8,00,00,00,00,00,08,00,00,
273616,00000094,false,Tx,0,8,7F,FF,0B,FF,7F,FF,03,F7,
273675,00000094,false,Tx,0,8,80,00,00,00,00,00,03,00,
273722,000002A2,false,Tx,0,8,86,00,20,C8,00,84,00,AC,
273739,000003AC,false,Tx,0,8,00,00,02,22,06,2B,4E,3F,
277231,000000C5,false,Tx,0,8,00,00,00,00,00,00,00,00,
278403,000000F1,false,Tx,0,8,00,00,00,00,00,00,00,00,
279579,0000008A,false,Tx,0,8,7F,FF,00,04,00,02,35,B3,
279607,000000AF,false,Tx,0,8,00,00,24,00,00,71,F9,00,
279636,0000008D,false,Tx,0,8,00,00,00,00,00,50,00,50,
280800,0000014F,false,Tx,0,8,02,B8,00,00,00,00,00,00,
280827,000000AF,false,Tx,0,8,00,00,00,00,00,00,00,00,
280852,00000194,false,Tx,0,8,0F,0F,00,01,00,00,00,00,
280878,000000DF,false,Tx,0,8,00,00,00,00,00,00,08,00,
280903,000001AF,false,Tx,0,8,00,00,00,00,00,00,00,00,
280929,000003C2,false,Tx,0,8,7F,FF,F9,D8,00,12,05,20,
280955,00000196,false,Tx,0,8,75,30,75,30,20,00,75,2B,
280982,0000019F,false,Tx,0,8,00,00,00,00,00,00,00,00,
282143,000001E5,false,Tx,0,8,46,80,00,48,00,7F,FC,0D,
282167,00000204,false,Tx,0,8,08,00,00,00,00,00,00,00,
282193,0000021C,false,Tx,0,8,00,00,00,00,00,00,00,00,
282219,000002F6,false,Tx,0,8,80,00,00,00,00,01,00,00,
283379,00000094,false,Tx,0,8,80,00,13,FF,80,00,03,EF,
283404,00000094,false,Tx,0,8,80,00,00,00,00,00,03,00,
283429,0000046A,false,Tx,0,8,00,20,00,00,00,40,00,03,
287999,000000C5,false,Tx,0,8,10,00,00,00,10,00,00,00,
289172,000000F1,false,Tx,0,8,00,00,00,00,00,00,00,00,
289207,00000088,false,Tx,0,8,00,00,68,00,00,00,00,68,
289240,0000008D,false,Tx,0,8,00,00,00,00,00,60,00,60,
290409,00000166,false,Tx,0,8,00,00,00,00,00,00,00,00,
290441,00000167,false,Tx,0,8,0C,10,00,00,00,00,00,00,
291610,00000196,false,Tx,0,8,00,00,00,00,00,00,00,00,
291632,000001E1,false,Tx,0,7,40,C0,00,00,00,00,00,00,
291653,000002B5,false,Tx,0,8,30,82,34,00,00,00,00,86,
291674,000001F1,false,Tx,0,8,0E,00,00,00,08,74,00,00,
291693,000002B6,false,Tx,0,8,30,00,00,02,19,0C,86,A1,
291712,000003C2,false,Tx,0,8,7F,FF,F9,D1,00,12,05,20,
292873,000001FD,false,Tx,0,8,00,00,00,00,00,00,00,00,
292917,00000214,false,Tx,0,6,02,00,00,00,00,00,00,00,
292945,00000172,false,Tx,0,8,85,62,9D,85,62,9D,00,00,
292974,00000094,false,Tx,0,8,80,00,00,00,00,00,03,00,
293001,00000094,false,Tx,0,8,80,00,1B,FF,80,00,03,E7,
293027,0000022A,false,Tx,0,2,00,70,00,00,00,00,00,00,
293051,0000014B,false,Tx,0,8,01,8B,00,00,00,00,00,00,
294216,00000230,false,Tx,0,8,00,00,00,00,00,00,00,00,
294244,0000029B,false,Tx,0,8,80,00,00,00,00,00,00,00,
297681,000000C1,false,Tx,0,8,A0,01,85,46,20,00,00,00,
297706,000000C5,false,Tx,0,8,20,00,00,00,20,00,00,00,
297729,0000044C,false,Tx,0,1,01,00,00,00,00,00,00,00,
298889,000000AF,false,Tx,0,8,00,00,00,00,00,00,00,00,
298913,000000AC,false,Tx,0,8,04,70,78,A8,02,00,00,A6,
300072,00000088,false,Tx,0,8,00,00,78,00,00,00,00,78,
300095,000000AF,false,Tx,0,8,00,00,1C,00,00,91,F7,00,
300118,0000008D,false,Tx,0,8,00,00,00,00,00,70,00,70,
300143,000000FB,false,Tx,0,8,11,FF,00,30,AB,CC,05,F5,
300166,0000008E,false,Tx,0,8,5D,05,04,00,13,88,07,C0,
300187,0000019C,false,Tx,0,8,06,A0,26,9F,7F,FF,07,7F,
300210,0000008F,false,Tx,0,8,00,00,00,00,00,00,00,00,
300232,0000014F,false,Tx,0,8,02,C8,00,00,00,00,00,00,
301391,0000009B,false,Tx,0,8,00,00,00,00,1C,00,00,1C,
301414,0000009D,false,Tx,0,8,B0,0B,80,70,00,05,00,00,
301437,000003C2,false,Tx,0,8,7F,FF,F9,D2,00,12,05,20,
301458,00000194,false,Tx,0,8,0F,0F,00,01,00,00,00,00,
301481,000000DF,false,Tx,0,8,00,00,00,00,00,00,08,00,
302637,00000173,false,Tx,0,8,00,00,C7,C8,0C,DA,0C,D8,
302660,0000022B,false,Tx,0,8,11,47,8A,3C,48,F1,08,F1,
303824,0000014B,false,Tx,0,8,01,8B,00,00,00,00,00,00,
307250,00000295,false,Tx,0,8,C6,2B,00,02,34,4E,3F,AA,
308408,000000AC,false,Tx,0,8,04,70,88,A8,02,00,00,56,
308434,000000AF,false,Tx,0,8,00,00,18,00,00,A1,F6,00,
309596,000000FB,false,Tx,0,8,11,FF,00,30,AB,CC,05,F5,
309618,0000008E,false,Tx,0,8,5D,05,04,00,13,88,08,CF,
310774,00000169,false,Tx,0,6,3B,19,60,F7,3C,00,00,00,
310794,000000AF,false,Tx,0,8,00,00,00,00,00,00,00,00,
310815,0000009D,false,Tx,0,8,C0,0C,80,70,00,04,00,00,
310835,000001F2,false,Tx,0,2,20,00,00,00,00,00,00,00,
311993,000001F2,false,Tx,0,2,20,00,00,00,00,00,00,00,
312011,000003C2,false,Tx,0,8,7F,FF,F9,D4,00,12,05,20,
312031,000001FD,false,Tx,0,8,00,00,00,00,00,00,00,00,
312050,00000227,false,Tx,0,8,00,00,00,C0,FF,FA,00,00,
312070,0000022A,false,Tx,0,2,00,70,00,00,00,00,00,00,
312088,00000230,false,Tx,0,8,00,00,00,00,00,00,00,00,
312107,00000232,false,Tx,0,8,00,00,00,00,00,00,00,00,
313263,00000299,false,Tx,0,8,62,B7,D0,FF,FF,71,00,00,
313284,00000242,false,Tx,0,8,00,00,00,00,00,08,00,00,
313306,00000094,false,Tx,0,8,7F,FF,2B,FF,7F,FF,03,D7,
313324,00000094,false,Tx,0,8,80,00,00,00,00,00,03,00,
313345,00000099,false,Tx,0,8,A0,85,80,04,00,5D,00,FC,
313364,00000244,false,Tx,0,8,00,00,20,04,00,00,00,00,
313383,00000172,false,Tx,0,8,85,62,9D,85,62,9D,00,00,
316804,000000C1,false,Tx,0,8,80,01,85,46,00,00,00,00,
319094,00000088,false,Tx,0,8,00,00,98,00,00,00,00,98,
319113,000000AC,false,Tx,0,8,04,70,98,A8,02,00,00,46,
319131,0000008D,false,Tx,0,8,00,00,00,00,00,90,00,90,
320282,0000009B,false,Tx,0,8,00,00,00,00,24,00,00,24,
321438,00000194,false,Tx,0,8,0F,0F,00,01,00,00,00,00,
321456,000001AF,false,Tx,0,8,00,00,00,00,00,00,00,00,
321474,000001E1,false,Tx,0,7,40,BF,01,00,00,00,00,00,
321492,000001E5,false,Tx,0,8,46,80,00,88,00,7F,F8,C9,
322646,00000173,false,Tx,0,8,00,00,C7,C8,0C,DA,0C,D8,
322664,00000094,false,Tx,0,8,80,00,00,00,00,00,03,00,
322681,0000039B,false,Tx,0,8,00,00,00,00,00,00,00,00,
323832,0000033F,false,Tx,0,8,00,00,00,00,28,00,00,46,
326123,000003E2,false,Tx,0,8,1E,B6,17,A2,63,4D,63,5B,
326148,00000464,false,Tx,0,8,08,00,08,00,00,00,00,00,
326167,0000046B,false,Tx,0,8,0B,BC,00,F9,05,72,01,48,
327320,000000C5,false,Tx,0,8,10,00,00,00,10,00,00,00,
328473,000001E9,false,Tx,0,8,00,00,00,08,0F,F6,00,00,
328494,00000232,false,Tx,0,8,00,00,00,00,00,00,00,00,
328511,0000008E,false,Tx,0,8,5D,05,04,00,13,88,0A,CD,
329660,000000FB,false,Tx,0,8,11,FF,00,30,AB,DB,05,F4,
330814,000000AF,false,Tx,0,8,00,00,00,00,00,00,00,00,
330835,00000169,false,Tx,0,6,3B,19,60,F7,3C,00,00,00,
331985,00000336,false,Tx,0,8,00,00,00,00,00,00,00,00,
332004,000001F1,false,Tx,0,8,0E,00,00,00,08,74,00,00,
332021,00000356,false,Tx,0,8,00,00,00,1E,3E,00,00,00,
333175,00000172,false,Tx,0,8,85,62,9D,85,62,9D,00,00,
333193,00000094,false,Tx,0,8,80,00,00,00,00,00,03,00,
333211,0000022A,false,Tx,0,2,00,70,00,00,00,00,00,00,
333228,00000230,false,Tx,0,8,00,00,00,00,00,00,00,00,
333247,0000014B,false,Tx,0,8,01,8B,00,00,00,00,00,00,
334398,00000244,false,Tx,0,8,00,00,20,04,00,00,00,00,
334414,000003FC,false,Tx,0,8,1E,3E,00,00,00,00,00,00,
334431,000002FD,false,Tx,0,8,FA,00,00,00,00,00,00,00,
334447,00000541,false,Tx,0,8,18,03,0B,0D,02,0C,00,00,
335598,0000031A,false,Tx,0,8,0A,20,00,37,57,42,90,4E,
336752,00000343,false,Tx,0,8,00,00,00,00,00,00,00,00,
337901,0000029B,false,Tx,0,8,3B,CA,86,02,FD,06,00,00,
337918,000001C7,false,Tx,0,8,00,00,BF,FE,00,14,00,00,
337934,00000214,false,Tx,0,6,04,00,00,00,00,00,00,00,
339081,00000348,false,Tx,0,8,00,00,00,00,00,00,00,00,
339096,00000088,false,Tx,0,8,00,00,B8,00,00,00,00,B8,
340242,0000008A,false,Tx,0,8,80,00,00,04,00,02,3B,BD,
340258,0000008E,false,Tx,0,8,5D,05,04,00,13,88,0B,CC,
340274,0000009D,false,Tx,0,8,F0,0F,80,70,00,01,00,00,
341423,000003C2,false,Tx,0,8,7F,FF,F9,E1,00,12,05,20,
341439,000000DF,false,Tx,0,8,00,00,00,00,00,00,08,00,
341455,00000194,false,Tx,0,8,0F,0F,00,01,00,00,00,00,
341471,0000034A,false,Tx,0,8,00,00,00,00,00,00,00,00,
342619,00000364,false,Tx,0,8,00,00,00,00,00,00,00,32,
342631,00000372,false,Tx,0,8,00,00,00,00,00,85,00,00,
342645,00000173,false,Tx,0,8,00,00,C7,C8,0C,DA,0C,D8,
342657,0000029B,false,Tx,0,8,80,00,00,00,00,00,00,00,
342667,00000094,false,Tx,0,8,80,00,44,00,80,00,03,47,
343816,00000099,false,Tx,0,8,A0,88,80,04,00,5D,00,F1,
343835,000003F1,false,Tx,0,8,00,00,00,00,00,00,08,84,
343853,000003FA,false,Tx,0,8,1E,3E,1E,3E,00,00,00,00,
345003,00000540,false,Tx,0,8,00,52,AB,00,00,00,00,00,
347297,00000295,false,Tx,0,8,E6,2B,00,02,34,4E,3F,8A,
348455,000001E9,false,Tx,0,8,00,00,00,08,0F,F6,00,00,
348477,00000227,false,Tx,0,8,00,00,00,E0,FF,F9,00,00,
349630,0000008A,false,Tx,0,8,80,00,00,04,00,02,3C,BA,
349649,000000FB,false,Tx,0,8,11,FF,00,30,AB,EA,05,F3,
350801,00000167,false,Tx,0,8,0C,10,00,00,00,00,00,00,
350819,0000009D,false,Tx,0,8,00,00,80,70,00,00,00,00,
350834,0000019C,false,Tx,0,8,06,A0,26,A0,7F,FF,0C,7F,
351985,000001F2,false,Tx,0,2,20,00,00,00,00,00,00,00,
352000,000001E1,false,Tx,0,7,40,BE,02,00,00,00,00,00,
352015,000003C2,false,Tx,0,8,7F,FF,F9,D2,00,12,05,20,
352031,000001E5,false,Tx,0,8,46,80,00,B8,00,7F,F5,F4,
352046,0000041F,false,Tx,0,3,02,70,01,00,00,00,00,00,
352061,000001F1,false,Tx,0,8,0E,00,00,00,08,74,00,00,
352076,000001F2,false,Tx,0,2,20,00,00,00,00,00,00,00,
352090,000001FD,false,Tx,0,8,00,00,00,00,00,00,00,00,
353243,0000022A,false,Tx,0,2,00,70,00,00,00,00,00,00,
353259,00000172,false,Tx,0,8,85,62,9D,85,62,9D,00,00,
353274,00000230,false,Tx,0,8,00,00,00,00,00,00,00,00,
353287,00000094,false,Tx,0,8,7F,FF,4C,00,7F,FF,03,4F,
353305,00000094,false,Tx,0,8,80,00,00,00,00,00,03,00,
353324,00000099,false,Tx,0,8,A0,89,80,04,00,5D,00,F0,
353338,00000244,false,Tx,0,8,00,00,20,04,00,00,00,00,
357897,0000022A,false,Tx,0,8,06,43,42,02,43,43,43,00,
357926,000001C7,false,Tx,0,8,00,00,00,00,00,18,00,00,
359077,000000AF,false,Tx,0,8,00,00,00,00,00,00,00,00,
360227,000000FB,false,Tx,0,8,11,FF,00,30,AB,F9,05,F2,
360244,0000008F,false,Tx,0,8,00,00,00,00,00,00,00,00,
360259,000001AF,false,Tx,0,8,00,00,00,00,00,00,00,00,
361408,0000039A,false,Tx,0,8,00,43,00,00,3F,40,00,00,
361423,00000194,false,Tx,0,8,0F,0F,00,01,00,00,00,00,
361438,000000DF,false,Tx,0,8,00,00,00,00,00,00,08,00,
361453,000001E5,false,Tx,0,8,46,80,00,C8,00,7F,F4,85,
361469,000003C2,false,Tx,0,8,7F,FF,F9,D1,00,12,05,20,
361484,00000196,false,Tx,0,8,75,30,75,30,20,00,75,2B,
361499,0000019F,false,Tx,0,8,00,00,00,00,00,00,00,00,
361515,000002EF,false,Tx,0,8,FA,60,00,00,00,00,00,00,
362662,00000394,false,Tx,0,8,00,28,00,00,10,43,02,79,
362678,0000030C,false,Tx,0,8,E9,30,00,00,00,00,00,01,
362693,0000049A,false,Tx,0,1,00,00,00,00,00,00,00,00,
362706,00000389,false,Tx,0,8,00,00,00,00,00,00,00,00,
362721,00000299,false,Tx,0,8,62,B7,D0,FF,FF,71,00,00,
362737,00000094,false,Tx,0,8,7F,FF,54,00,7F,FF,03,57,
366151,00000163,false,Tx,0,8,41,05,40,02,08,00,02,00,
368434,000001C7,false,Tx,0,8,00,00,7F,FF,00,1A,00,00,
368456,000001E9,false,Tx,0,8,00,00,00,08,0F,F6,00,00,
369604,0000008A,false,Tx,0,8,7F,FF,00,04,00,02,3E,B8,
369621,00000165,false,Tx,0,8,00,00,06,A0,E5,78,08,00,
369637,0000009D,false,Tx,0,8,20,02,80,70,00,0E,00,00,
369652,00000167,false,Tx,0,8,0C,10,00,00,00,00,00,00,
370802,00000169,false,Tx,0,6,3B,19,60,F7,3C,00,00,00,
370819,000001F1,false,Tx,0,8,0E,00,00,00,00,00,00,00,
370837,000001F1,false,Tx,0,8,0E,00,00,00,08,74,00,00,
370853,000001F2,false,Tx,0,2,20,00,00,00,00,00,00,00,
372004,000001F2,false,Tx,0,2,20,00,00,00,00,00,00,00,
372019,000003C2,false,Tx,0,8,7F,FF,F9,DA,00,12,05,20,
372034,000001FD,false,Tx,0,8,00,00,00,00,00,00,00,00,
372049,00000227,false,Tx,0,8,00,00,00,F0,FF,F8,80,00,
372064,0000022A,false,Tx,0,2,00,70,00,00,00,00,00,00,
372078,00000230,false,Tx,0,8,00,00,00,00,00,00,00,00,
372093,00000232,false,Tx,0,8,00,00,00,00,00,00,00,00,
373242,00000172,false,Tx,0,8,85,62,9D,85,62,9D,00,00,
373257,00000242,false,Tx,0,8,00,00,00,00,00,08,00,00,
373272,00000094,false,Tx,0,8,80,00,5C,00,80,00,03,5F,
373287,00000094,false,Tx,0,8,80,00,00,00,00,00,03,00,
373302,000002A2,false,Tx,0,8,86,00,20,C8,00,84,00,AC,
377846,000000C1,false,Tx,0,8,A0,01,85,46,20,00,00,00,
378996,000000F1,false,Tx,0,8,00,00,00,00,00,00,00,00,
379011,00000166,false,Tx,0,8,00,00,00,00,00,00,00,00,
379026,0000008A,false,Tx,0,8,80,00,00,04,00,02,3F,B9,
380175,0000008D,false,Tx,0,8,00,00,00,00,00,F0,00,F0,
380191,0000009B,false,Tx,0,8,00,00,00,00,3C,00,00,3C,
380206,0000014F,false,Tx,0,8,02,08,00,00,00,00,00,00,
380221,0000009D,false,Tx,0,8,30,03,80,70,00,0D,00,00,
381371,000000DF,false,Tx,0,8,00,00,00,00,00,00,08,00,
381388,00000194,false,Tx,0,8,0F,0F,00,01,00,00,00,00,
381404,000003C2,false,Tx,0,8,7F,FF,F9,DC,00,12,05,20,
381420,000001AF,false,Tx,0,8,00,00,00,00,00,00,00,00,
381434,0000019F,false,Tx,0,8,00,00,00,00,00,00,00,00,
381446,00000196,false,Tx,0,8,75,30,75,30,20,00,75,30,
381459,000001E1,false,Tx,0,7,40,BD,03,00,00,00,00,00,
381470,000001E5,false,Tx,0,8,46,80,00,E8,00,7F,F2,A3,
382627,0000021C,false,Tx,0,8,00,00,00,00,00,00,00,00,
382642,00000173,false,Tx,0,8,00,00,C7,C8,0C,D9,0C,D8,
382657,00000094,false,Tx,0,8,80,00,64,00,80,00,03,67,
383805,000002FD,false,Tx,0,8,FA,00,00,00,00,00,00,00,
387215,000000C5,false,Tx,0,8,30,00,00,00,30,00,00,00,
388375,0000017D,false,Tx,0,7,20,20,00,00,00,00,00,00,
388392,000001E9,false,Tx,0,8,00,00,00,08,0F,F6,00,00,
389573,000000C7,false,Tx,0,4,00,00,00,00,00,00,00,00,
389589,0000008D,false,Tx,0,8,00,00,00,00,00,00,00,00,
389605,0000008F,false,Tx,0,8,00,00,00,00,00,00,00,00,
390753,000000DF,false,Tx,0,8,00,00,00,00,00,00,08,00,
390769,00000196,false,Tx,0,8,00,00,00,00,00,00,00,00,
391919,000001F1,false,Tx,0,8,0E,00,00,00,00,00,00,00,
391935,000001F1,false,Tx,0,8,0E,00,00,00,08,74,00,00,
391951,000001FC,false,Tx,0,8,00,00,00,9F,00,00,C0,00,
391967,000002B6,false,Tx,0,8,40,00,00,02,19,0C,86,D1,
391981,000003C2,false,Tx,0,8,7F,FF,F9,DC,00,12,05,20,
391998,00000214,false,Tx,0,6,06,00,00,00,00,00,00,00,
393147,00000172,false,Tx,0,8,85,62,9D,85,62,9D,00,00,
393163,00000227,false,Tx,0,8,00,00,00,00,00,00,00,00,
393180,00000094,false,Tx,0,8,80,00,00,00,00,00,03,00,
393196,00000099,false,Tx,0,8,A0,8D,80,04,00,5D,00,F4,
393210,00000230,false,Tx,0,8,00,00,00,00,00,00,00,00,
393222,0000014B,false,Tx,0,8,01,8B,00,00,00,00,00,00,
394366,00000246,false,Tx,0,8,00,00,00,00,00,00,00,00,
397790,000000C1,false,Tx,0,8,80,01,85,46,00,00,00,00,
397815,000003BA,false,Tx,0,8,03,07,44,64,00,00,00,00,
397827,0000022C,false,Tx,0,8,09,47,8A,3C,48,F1,08,F1,
398977,00000166,false,Tx,0,8,00,00,00,00,00,00,00,00,
398994,000000AF,false,Tx,0,8,00,00,00,00,00,00,00,00,
399011,000000AC,false,Tx,0,8,04,70,18,A8,02,00,00,C6,
400138,000000AF,false,Tx,0,8,00,00,34,00,00,31,FD,00,
400158,000000C7,false,Tx,0,4,00,00,00,00,00,00,00,00,
400179,0000008D,false,Tx,0,8,00,00,00,00,00,10,00,10,
400198,000000FB,false,Tx,0,8,11,FF,00,30,AB,17,06,00,
400213,0000008E,false,Tx,0,8,5D,05,04,00,13,88,01,C6,
400231,0000019C,false,Tx,0,8,06,A0,26,A0,7F,FF,01,7F,
400249,0000008F,false,Tx,0,8,00,00,00,00,00,00,00,00,
400266,0000014F,false,Tx,0,8,02,18,00,00,00,00,00,00,
401386,0000009B,false,Tx,0,8,00,00,00,00,04,00,00,04,
401406,0000009D,false,Tx,0,8,50,05,80,70,00,0B,00,00,
401423,000003C2,false,Tx,0,8,7F,FF,F9,D7,00,12,05,20,
401438,00000194,false,Tx,0,8,0F,0F,00,01,00,00,00,00,
401456,0000019F,false,Tx,0,8,00,00,00,00,00,00,00,00,
401466,00000196,false,Tx,0,8,75,30,75,30,20,00,75,30,
402615,00000094,false,Tx,0,8,80,00,74,00,80,00,03,77,
406036,00000163,false,Tx,0,8,43,05,40,02,08,00,02,00,
408351,000001E9,false,Tx,0,8,00,00,00,08,0F,F6,00,00,
408412,00000227,false,Tx,0,8,00,00,00,10,FF,FF,80,00,
409575,000000AC,false,Tx,0,8,04,70,28,A8,02,00,00,F6,
409625,0000008D,false,Tx,0,8,00,00,00,00,00,20,00,20,
410790,0000009B,false,Tx,0,8,00,00,00,00,08,00,00,08,
410845,00000166,false,Tx,0,8,00,00,00,00,00,00,00,00,
410861,0000009D,false,Tx,0,8,60,06,80,70,00,0A,00,00,
412009,000001E1,false,Tx,0,7,40,C0,00,00,00,00,00,00,
412023,000003C2,false,Tx,0,8,7F,FF,F9,D2,00,12,05,20,
412030,000001E5,false,Tx,0,8,46,80,00,18,00,7F,FF,5E,
412037,000001F1,false,Tx,0,8,0E,00,00,00,08,74,00,00,
412044,000001F2,false,Tx,0,2,20,00,00,00,00,00,00,00,
412050,000001FD,false,Tx,0,8,00,00,00,00,00,00,00,00,
412057,0000022A,false,Tx,0,2,00,70,00,00,00,00,00,00,
413193,00000299,false,Tx,0,8,62,B7,D0,FF,FF,71,00,00,
413207,00000230,false,Tx,0,8,00,00,00,00,00,00,00,00,
413222,00000094,false,Tx,0,8,7F,FF,7C,00,7F,FF,03,7F,
413235,00000094,false,Tx,0,8,80,00,00,00,00,00,03,00,
413244,00000099,false,Tx,0,8,A0,8F,80,04,00,5D,00,F6,
413256,00000242,false,Tx,0,8,00,00,00,00,00,08,00,00,
413266,00000172,false,Tx,0,8,85,62,9D,85,62,9D,00,00,
414408,00000246,false,Tx,0,8,00,00,00,00,00,00,00,00,
417867,00000293,false,Tx,0,8,8C,00,B3,26,21,40,00,00,
417916,0000043C,false,Tx,0,1,03,00,00,00,00,00,00,00,
419068,00000088,false,Tx,0,8,00,00,38,00,00,00,00,38,
420242,000000C7,false,Tx,0,4,00,00,00,00,00,00,00,00,
420283,0000014F,false,Tx,0,8,02,28,00,00,00,00,00,00,
420297,0000009B,false,Tx,0,8,00,00,00,00,0C,00,00,0C,
421463,0000009D,false,Tx,0,8,70,07,80,70,00,09,00,00,
421508,00000196,false,Tx,0,8,75,30,75,30,20,00,75,30,
421521,00000173,false,Tx,0,8,00,00,C7,C8,0C,D9,0C,D8,
422686,00000094,false,Tx,0,8,80,00,00,00,00,00,03,00,
422743,0000039B,false,Tx,0,8,00,00,00,00,00,00,00,00,
425035,0000039B,false,Tx,0,8,44,43,9D,00,00,00,0C,96,
425048,000003A6,false,Tx,0,8,00,00,00,00,00,00,00,00,
426193,000003E2,false,Tx,0,8,1E,B6,17,A2,63,4D,63,5B,
426213,00000469,false,Tx,0,8,28,00,30,00,28,00,30,00,
427370,000000C5,false,Tx,0,8,30,00,00,00,30,00,00,00,
427418,00000295,false,Tx,0,8,26,2B,00,02,34,4E,3F,4A,
428583,000001C7,false,Tx,0,8,00,00,FF,FD,00,06,00,00,
428633,00000692,false,Tx,0,8,28,00,00,00,00,00,00,00,
429798,000000C7,false,Tx,0,4,00,00,00,00,00,00,00,00,
429850,0000008E,false,Tx,0,8,5D,05,04,00,13,88,04,C3,
429869,0000008F,false,Tx,0,8,00,00,00,00,00,00,00,00,
431039,000000DF,false,Tx,0,8,00,00,00,00,00,00,08,00,
431093,00000169,false,Tx,0,6,3B,19,60,F7,3C,00,00,00,
431111,000001E5,false,Tx,0,8,46,80,00,38,00,7F,FD,7C,
432277,00000204,false,Tx,0,8,08,00,00,00,00,00,00,00,
432329,00000358,false,Tx,0,8,00,00,00,00,00,00,00,00,
432348,0000021C,false,Tx,0,8,00,00,00,00,00,00,00,00,
433515,00000094,false,Tx,0,8,80,00,00,00,00,00,03,00,
433562,00000230,false,Tx,0,8,00,00,00,00,00,00,00,00,
433584,0000014B,false,Tx,0,8,01,8B,00,00,00,00,00,00,
433603,00000242,false,Tx,0,8,00,00,00,00,00,08,00,00,
433624,00000246,false,Tx,0,8,00,00,00,00,00,00,00,00,
434787,0000041F,false,Tx,0,3,02,70,01,00,00,00,00,00,
434815,000002FD,false,Tx,0,8,FA,00,00,00,00,00,00,00,
434839,0000030B,false,Tx,0,8,00,00,00,00,06,20,06,20,
436010,0000032E,false,Tx,0,8,00,00,00,00,00,00,00,00,
436061,00000343,false,Tx,0,8,00,00,00,00,00,00,00,00,
437250,00000171,false,Tx,0,8,00,30,0D,B0,87,42,AC,E4,
438452,00000214,false,Tx,0,6,00,00,00,00,00,00,00,00,
438501,000000F1,false,Tx,0,8,00,00,00,00,00,00,00,00,
439672,000001E5,false,Tx,0,8,46,80,00,48,00,7F,FC,0D,
439723,00000088,false,Tx,0,8,00,00,58,00,00,00,00,58,
440894,0000008E,false,Tx,0,8,5D,05,04,00,13,88,05,C2,
440945,000000FB,false,Tx,0,8,11,FF,00,30,AB,35,05,FE,
440965,0000009D,false,Tx,0,8,90,09,80,70,00,07,00,00,
440985,000003C2,false,Tx,0,8,7F,FF,F9,DF,00,12,05,20,
442155,0000019F,false,Tx,0,8,00,00,00,00,00,00,00,00,
442201,00000194,false,Tx,0,8,0F,0F,00,01,00,00,00,00,
442222,00000348,false,Tx,0,8,00,00,00,00,00,00,00,00,
442242,00000196,false,Tx,0,8,75,30,75,30,20,00,75,30,
442262,0000034A,false,Tx,0,8,00,00,00,00,00,00,00,00,
442285,00000364,false,Tx,0,8,00,00,00,00,00,00,00,32,
442310,00000173,false,Tx,0,8,00,00,C7,C8,0C,D9,0C,D8,
443480,00000094,false,Tx,0,8,80,00,00,00,00,00,03,00,
443533,00000099,false,Tx,0,8,A0,82,80,04,00,5D,00,FB,
443553,00000372,false,Tx,0,8,00,00,00,00,00,85,00,00,
443574,00000418,false,Tx,0,8,00,00,00,00,00,00,00,00,
447036,00000295,false,Tx,0,8,36,2B,00,02,34,4E,3F,5A,
448256,000000C5,false,Tx,0,8,10,00,00,00,10,00,00,00,
448308,000001C7,false,Tx,0,8,00,00,7F,FF,00,0A,00,00,
449479,00000088,false,Tx,0,8,00,00,68,00,00,00,00,68,
449530,0000008E,false,Tx,0,8,5D,05,04,00,13,88,06,C1,
449550,000000FB,false,Tx,0,8,11,FF,00,30,AB,35,05,FE,
450722,00000165,false,Tx,0,8,00,00,06,A0,E5,74,0C,00,
450751,000000DF,false,Tx,0,8,00,00,00,00,00,00,08,00,
450773,00000196,false,Tx,0,8,00,00,00,00,00,00,00,00,
451935,0000019C,false,Tx,0,8,06,A0,26,9F,7F,FE,06,7F,
451963,000001F1,false,Tx,0,8,0E,00,00,00,00,00,00,00,
451985,000001F2,false,Tx,0,2,20,00,00,00,00,00,00,00,
452012,000001E5,false,Tx,0,8,46,80,00,58,00,7F,FB,1A,
452034,000003C2,false,Tx,0,8,7F,FF,F9,D9,00,12,05,20,
452056,000001F1,false,Tx,0,8,0E,00,00,00,08,74,00,00,
452079,000001F2,false,Tx,0,2,20,00,00,00,00,00,00,00,
452099,000001FD,false,Tx,0,8,00,00,00,00,00,00,00,00,
452121,0000022A,false,Tx,0,2,00,70,00,00,00,00,00,00,
453285,00000230,false,Tx,0,8,00,00,00,00,00,00,00,00,
453314,00000172,false,Tx,0,8,85,62,9D,85,62,9D,00,00,
453337,00000094,false,Tx,0,8,80,00,00,00,00,00,03,00,
453359,00000094,false,Tx,0,8,80,00,1B,FF,7F,FF,03,E7,
453381,00000099,false,Tx,0,8,A0,83,80,04,00,5D,00,FA,
458004,000000C5,false,Tx,0,8,20,00,00,00,20,00,00,00,
458053,0000022A,false,Tx,0,8,02,43,43,04,43,43,43,00,
459226,000000F1,false,Tx,0,8,00,00,00,00,00,00,00,00,
459276,0000008A,false,Tx,0,8,80,00,00,04,00,02,37,B1,
460463,0000008F,false,Tx,0,8,00,00,00,00,00,00,00,00,
460509,0000014F,false,Tx,0,8,02,48,00,00,00,00,00,00,
460531,000000AF,false,Tx,0,8,00,00,00,00,00,00,00,00,
461703,00000194,false,Tx,0,8,0F,0F,00,01,00,00,00,00,
461747,0000039A,false,Tx,0,8,00,43,00,00,4F,00,00,00,
461797,000001E5,false,Tx,0,8,46,80,00,68,00,7F,FA,2B,
461848,0000019F,false,Tx,0,8,00,00,00,00,00,00,00,00,
461870,00000196,false,Tx,0,8,75,30,75,30,20,00,75,2B,
461891,000003C2,false,Tx,0,8,7F,FF,F9,D8,00,12,05,20,
461914,000002EF,false,Tx,0,8,F8,80,00,00,00,00,00,00,
461936,00000394,false,Tx,0,8,00,28,00,00,10,43,03,78,
461958,0000049A,false,Tx,0,1,00,00,00,00,00,00,00,00,
461979,0000030C,false,Tx,0,8,E9,30,00,00,00,00,00,01,
463153,00000389,false,Tx,0,8,00,00,00,00,00,00,00,00,
463203,000003AB,false,Tx,0,8,80,00,00,03,FF,45,00,00,
463233,00000094,false,Tx,0,8,80,00,23,FF,80,00,03,DF,
463255,0000014B,false,Tx,0,8,01,8B,00,00,00,00,00,00,
467878,00000185,false,Tx,0,4,03,FF,00,0C,00,00,00,00,
467924,00000295,false,Tx,0,8,46,2C,00,02,34,4E,3F,2D,
469097,000000AF,false,Tx,0,8,00,00,18,00,00,A1,F6,00,
469147,00000165,false,Tx,0,8,00,00,06,A0,E5,73,0D,00,
470308,0000008E,false,Tx,0,8,5D,05,04,00,13,88,08,CF,
470328,0000008F,false,Tx,0,8,00,00,00,00,00,00,00,00,
470354,0000019C,false,Tx,0,8,06,A0,26,9F,7F,FF,08,7F,
471504,000001F1,false,Tx,0,8,0E,00,00,00,00,00,00,00,
471524,000001E5,false,Tx,0,8,46,80,00,78,00,7F,F9,38,
471546,000001F2,false,Tx,0,2,20,00,00,00,00,00,00,00,
471560,000001F1,false,Tx,0,8,0E,00,00,00,08,74,00,00,
471574,000003C2,false,Tx,0,8,7F,FF,F9,D9,00,12,05,20,
471589,000001F2,false,Tx,0,2,20,00,00,00,00,00,00,00,
471611,000001FD,false,Tx,0,8,00,00,00,00,00,00,00,00,
472768,00000227,false,Tx,0,8,00,00,00,40,FF,FE,00,00,
472789,0000022A,false,Tx,0,2,00,70,00,00,00,00,00,00,
472810,00000230,false,Tx,0,8,00,00,00,00,00,00,00,00,
472832,00000172,false,Tx,0,8,85,62,9D,85,62,9D,00,00,
472855,00000232,false,Tx,0,8,00,00,00,00,00,00,00,00,
472877,00000094,false,Tx,0,8,7F,FF,2C,00,7F,FF,03,2F,
472899,00000094,false,Tx,0,8,80,00,00,00,00,00,03,00,
474076,0000014B,false,Tx,0,8,01,8B,00,00,00,00,00,00,
474134,00000391,false,Tx,0,8,10,01,A0,00,B0,00,48,00,
477602,000003A8,false,Tx,0,8,00,00,00,FF,C3,FF,CB,FF,
478799,000000F1,false,Tx,0,8,00,00,00,00,00,00,00,00,
479999,00000088,false,Tx,0,8,00,00,98,00,00,00,00,98,
480046,000000AF,false,Tx,0,8,00,00,14,00,00,B1,F5,00,
480071,0000008F,false,Tx,0,8,00,00,00,00,00,00,00,00,
480096,0000019C,false,Tx,0,8,06,A0,26,A0,7F,FE,09,7F,
481277,000000AF,false,Tx,0,8,00,00,00,00,00,00,00,00,
481319,0000009D,false,Tx,0,8,D0,0D,80,70,00,03,00,00,
481345,000000DF,false,Tx,0,8,00,00,00,00,00,00,08,00,
481372,00000194,false,Tx,0,8,0F,0F,00,01,00,00,00,00,
481397,0000019F,false,Tx,0,8,00,00,00,00,00,00,00,00,
481422,000001AF,false,Tx,0,8,00,00,00,00,00,00,00,00,
481447,00000196,false,Tx,0,8,75,30,75,30,20,00,75,2B,
481472,000003C2,false,Tx,0,8,7F,FF,F9,D9,00,12,05,20,
481498,00000204,false,Tx,0,8,08,00,00,00,00,00,00,00,
482676,0000021C,false,Tx,0,8,00,00,00,00,00,00,00,00,
482722,000002F6,false,Tx,0,8,80,00,00,00,00,01,00,00,
482746,000002FD,false,Tx,0,8,FA,00,00,00,00,00,00,00,
482781,00000099,false,Tx,0,8,A0,86,80,04,00,5D,00,FF,
487403,00000295,false,Tx,0,8,56,2B,00,02,34,4E,3F,3A,
487450,000000C5,false,Tx,0,8,10,00,00,00,10,00,00,00,
488627,000001C7,false,Tx,0,8,00,00,7F,FF,00,12,00,00,
489831,0000008A,false,Tx,0,8,80,00,00,04,00,02,3A,BC,
489858,0000008F,false,Tx,0,8,00,00,00,00,00,00,00,00,
489884,00000166,false,Tx,0,8,00,00,00,00,00,00,00,00,
491122,00000169,false,Tx,0,6,3B,19,60,F7,3C,00,00,00,
491160,000001E5,false,Tx,0,8,46,80,00,98,00,7F,F7,D6,
491186,000001F1,false,Tx,0,8,0E,00,00,00,00,00,00,00,
491212,000001F1,false,Tx,0,8,0E,00,00,00,08,74,00,00,
492389,000002B5,false,Tx,0,8,50,82,34,00,00,00,00,E6,
492439,000003C2,false,Tx,0,8,7F,FF,F9,DC,00,12,05,20,
492464,000001FD,false,Tx,0,8,00,00,00,00,00,00,00,00,
492490,00000214,false,Tx,0,6,02,00,00,00,00,00,00,00,
492514,00000227,false,Tx,0,8,00,00,00,50,FF,FD,80,00,
492540,00000172,false,Tx,0,8,85,62,9D,85,62,9D,00,00,
492564,0000022A,false,Tx,0,2,00,70,00,00,00,00,00,00,
493726,00000099,false,Tx,0,8,A0,87,80,04,00,5D,00,FE,
493750,00000230,false,Tx,0,8,00,00,00,00,00,00,00,00,
493778,0000014B,false,Tx,0,8,01,8B,00,00,00,00,00,00,
493806,00000244,false,Tx,0,8,00,00,20,04,00,00,00,00,
494983,00000418,false,Tx,0,8,00,00,00,00,00,00,00,80,
497328,000000C1,false,Tx,0,8,A0,01,85,46,20,00,00,00,
498524,000001C7,false,Tx,0,8,00,00,BF,FE,00,14,00,00,
498564,00000166,false,Tx,0,8,00,00,00,00,00,00,00,00,
499744,000001E1,false,Tx,0,7,40,BD,03,00,00,00,00,00,
499787,000000AC,false,Tx,0,8,04,70,B8,A8,02,00,00,66,
499817,00000088,false,Tx,0,8,00,00,B8,00,00,00,00,B8,
499846,0000008D,false,Tx,0,8,00,00,00,00,00,B0,00,B0,
499877,000000FB,false,Tx,0,8,11,FF,00,30,AB,62,05,FB,
501060,0000008E,false,Tx,0,8,5D,05,04,00,13,88,0B,CC,
501105,0000019C,false,Tx,0,8,06,A0,26,A0,7F,FF,0B,7F,
501144,0000008F,false,Tx,0,8,00,00,00,00,00,00,00,00,
501174,0000014F,false,Tx,0,8,02,68,00,00,00,00,00,00,
501203,0000009B,false,Tx,0,8,00,00,00,00,2C,00,00,2C,
501233,000001AF,false,Tx,0,8,00,00,00,00,00,00,00,00,
501262,000000DF,false,Tx,0,8,00,00,00,00,00,00,08,00,
501291,0000009D,false,Tx,0,8,F0,0F,80,70,00,01,00,00,
501321,00000194,false,Tx,0,8,0F,0F,00,01,00,00,00,00,
502504,000003C2,false,Tx,0,8,7F,FF,F9,DD,00,12,05,20,
502549,00000196,false,Tx,0,8,75,30,75,30,20,00,75,30,
503734,00000099,false,Tx,0,8,A0,88,80,04,00,5D,00,F1,
506097,00000163,false,Tx,0,8,40,05,40,02,08,00,02,00,
508491,000001E9,false,Tx,0,8,00,00,00,08,0F,F8,00,00,
508589,000000AC,false,Tx,0,8,04,70,C8,A8,02,00,00,16,
509801,000000F1,false,Tx,0,8,00,00,00,00,00,00,00,00,
509863,0000008E,false,Tx,0,8,5D,05,04,00,13,88,0C,CB,
509891,0000009B,false,Tx,0,8,00,00,00,00,30,00,00,30,
510950,00000169,false,Tx,0,6,3B,19,60,F7,3C,00,00,00,
510987,000001E5,false,Tx,0,8,46,80,00,B8,00,7F,F5,F4,
511009,000001F2,false,Tx,0,2,20,00,00,00,00,00,00,00,
511030,000001F2,false,Tx,0,2,20,00,00,00,00,00,00,00,
512221,0000041F,false,Tx,0,3,02,70,01,00,00,00,00,00,
512275,000001FD,false,Tx,0,8,00,00,00,00,00,00,00,00,
512306,000003C2,false,Tx,0,8,7F,FF,F9,E2,00,12,05,20,
512331,00000227,false,Tx,0,8,00,00,00,60,FF,FD,00,00,
512357,0000022A,false,Tx,0,2,00,70,00,00,00,00,00,00,
512380,00000230,false,Tx,0,8,00,00,00,00,00,00,00,00,
512402,00000232,false,Tx,0,8,00,00,00,00,00,00,00,00,
512426,00000299,false,Tx,0,8,62,B7,D0,FF,FF,71,00,00,
513603,00000242,false,Tx,0,8,00,00,00,00,00,08,00,00,
513667,00000094,false,Tx,0,8,7F,FF,4B,FF,7F,FF,03,B7,
513687,00000094,false,Tx,0,8,80,00,00,00,00,00,03,00,
513703,00000099,false,Tx,0,8,A0,89,80,04,00,5D,00,F0,
513719,0000014B,false,Tx,0,8,01,8B,00,00,00,00,00,00,
517195,000000C1,false,Tx,0,8,80,01,85,46,00,00,00,00,
517227,000000C5,false,Tx,0,8,00,00,00,00,00,00,00,00,
518404,000000F1,false,Tx,0,8,00,00,00,00,00,00,00,00,
519587,0000008A,false,Tx,0,8,7F,FF,00,04,00,02,3D,BB,
520756,0000008F,false,Tx,0,8,00,00,00,00,00,00,00,00,
520782,0000019C,false,Tx,0,8,06,A0,26,9F,7F,FE,0D,7F,
520799,000001AF,false,Tx,0,8,00,00,00,00,00,00,00,00,
520824,00000194,false,Tx,0,8,0F,0F,00,01,00,00,00,00,
521986,0000019F,false,Tx,0,8,00,00,00,00,00,00,00,00,
522009,0000009D,false,Tx,0,8,10,01,80,70,00,0F,00,00,
523179,000003C2,false,Tx,0,8,7F,FF,F9,E1,00,12,05,20,
523218,0000029C,false,Tx,0,8,28,00,00,00,00,00,00,00,
524392,0000033F,false,Tx,0,8,00,00,00,00,28,00,00,46,
524424,00000396,false,Tx,0,8,44,6E,B4,28,C0,4E,4D,4D,
525603,000003DE,false,Tx,0,8,01,F2,01,F3,01,F2,01,F5,
526776,00000469,false,Tx,0,8,28,00,30,00,28,00,30,00,
527944,0000046F,false,Tx,0,8,00,00,00,00,00,20,00,00,
527970,000000C5,false,Tx,0,8,10,00,00,00,10,00,00,00,
527996,000001C7,false,Tx,0,8,00,00,7F,FF,00,1A,00,00,
528042,000000AC,false,Tx,0,8,04,70,E8,A8,02,00,00,36,
529204,0000008D,false,Tx,0,8,00,00,00,00,00,E0,00,E0,
529232,00000165,false,Tx,0,8,00,00,06,A0,E5,80,00,00,
530393,0000008F,false,Tx,0,8,00,00,00,00,00,00,00,00,
531553,0000009D,false,Tx,0,8,20,02,80,70,00,0E,00,00,
531576,00000196,false,Tx,0,8,00,00,00,00,00,00,00,00,
531598,000001F1,false,Tx,0,8,0E,00,00,00,08,74,00,00,
531621,000001FD,false,Tx,0,8,00,00,00,00,00,00,00,00,
532778,00000227,false,Tx,0,8,00,00,00,70,FF,FC,80,00,
532806,00000172,false,Tx,0,8,85,62,9D,85,62,9D,00,00,
532828,00000094,false,Tx,0,8,80,00,00,00,00,00,03,00,
532851,0000022A,false,Tx,0,2,00,70,00,00,00,00,00,00,
532872,00000099,false,Tx,0,8,A0,8B,80,04,00,5D,00,F2,
534028,00000232,false,Tx,0,8,00,00,00,00,00,00,00,00,
534050,00000244,false,Tx,0,8,00,00,20,04,00,00,00,00,
534078,000003FC,false,Tx,0,8,1E,3E,00,00,00,00,00,00,
534100,00000297,false,Tx,0,8,00,03,00,00,00,00,20,00,
535259,000002F6,false,Tx,0,8,80,00,00,00,00,01,00,00,
536417,0000032E,false,Tx,0,8,00,00,00,00,00,00,00,00,
536444,00000336,false,Tx,0,8,00,00,00,00,00,00,00,00,
537605,00000171,false,Tx,0,8,00,30,21,B0,87,42,AC,C8,
537624,00000402,false,Tx,0,8,00,00,00,00,00,05,00,00,
538781,000001E5,false,Tx,0,8,46,80,00,E8,00,7F,F2,A3,
538801,000000AF,false,Tx,0,8,00,00,00,00,00,00,00,00,
539952,00000088,false,Tx,0,8,00,00,F8,00,00,00,00,F8,
539974,000000AF,false,Tx,0,8,00,00,3C,00,00,11,FF,00,
541132,0000009B,false,Tx,0,8,00,00,00,00,3C,00,00,3C,
541152,0000014F,false,Tx,0,8,02,88,00,00,00,00,00,00,
541172,0000009D,false,Tx,0,8,30,03,80,70,00,0D,00,00,
541192,000001AF,false,Tx,0,8,00,00,00,00,00,00,00,00,
542347,00000196,false,Tx,0,8,75,30,75,30,20,00,75,2B,
542371,000003C2,false,Tx,0,8,7F,FF,F9,D7,00,12,05,20,
542388,0000034A,false,Tx,0,8,00,00,00,00,00,00,00,00,
542408,00000361,false,Tx,0,8,00,00,00,00,00,00,00,00,
542428,00000364,false,Tx,0,8,00,00,00,00,00,00,00,32,
542446,00000173,false,Tx,0,8,00,00,C7,C8,0C,DA,0C,D8,
543600,00000094,false,Tx,0,8,80,00,00,00,00,00,03,00,
543618,00000099,false,Tx,0,8,A0,8C,80,04,00,5D,00,F5,
543636,00000373,false,Tx,0,8,00,00,00,00,00,00,00,00,
543654,00000379,false,Tx,0,8,84,00,00,85,00,00,00,00,
547070,00000163,false,Tx,0,8,42,05,40,02,08,00,02,00,
548222,000002A0,false,Tx,0,8,40,00,00,00,86,00,00,C6,
548241,000001E9,false,Tx,0,8,00,00,00,08,0F,F7,00,00,
549393,00000088,false,Tx,0,8,00,00,08,00,00,00,00,08,
549411,0000008D,false,Tx,0,8,00,00,00,00,00,00,00,00,
550564,0000008F,false,Tx,0,8,00,00,00,00,00,00,00,00,
550582,0000009B,false,Tx,0,8,00,00,00,00,00,00,00,00,
550599,000000DF,false,Tx,0,8,00,00,00,00,00,00,08,00,
551749,0000019C,false,Tx,0,8,06,A0,26,9F,7F,FE,00,7F,
551766,000001F1,false,Tx,0,8,0E,00,00,00,00,00,00,00,
551783,000001F2,false,Tx,0,2,20,00,00,00,00,00,00,00,
551799,000001E5,false,Tx,0,8,46,80,00,F8,00,7F,F1,B0,
551815,000001F1,false,Tx,0,8,0E,00,00,00,08,74,00,00,
551832,000003C2,false,Tx,0,8,7F,FF,F9,CE,00,12,05,20,
551849,000001F2,false,Tx,0,2,20,00,00,00,00,00,00,00,
551865,000001FD,false,Tx,0,8,00,00,00,00,00,00,00,00,
553015,0000022A,false,Tx,0,2,00,70,00,00,00,00,00,00,
553031,00000230,false,Tx,0,8,00,00,00,00,00,00,00,00,
553050,00000172,false,Tx,0,8,85,62,9D,85,62,9D,00,00,
553067,00000094,false,Tx,0,8,80,00,00,00,00,00,03,00,
553084,00000094,false,Tx,0,8,80,00,6B,FF,80,00,03,97,
553100,00000242,false,Tx,0,8,00,00,00,00,00,08,00,00,
554251,0000022B,false,Tx,0,8,02,47,8A,3C,48,F1,08,F1,
557662,000000C5,false,Tx,0,8,00,00,00,00,00,00,00,00,
558814,00000166,false,Tx,0,8,00,00,00,00,00,00,00,00,
558835,000000AF,false,Tx,0,8,00,00,00,00,00,00,00,00,
559986,0000008A,false,Tx,0,8,80,00,00,04,00,02,31,B7,
560003,000000FB,false,Tx,0,8,11,FF,00,30,AB,9F,05,F8,
561155,0000039A,false,Tx,0,8,00,43,00,00,5E,C0,00,00,
561171,0000009D,false,Tx,0,8,50,05,80,70,00,0B,00,00,
561187,000000DF,false,Tx,0,8,00,00,00,00,00,00,08,00,
561208,00000194,false,Tx,0,8,0F,0F,00,01,00,00,00,00,
561224,0000019F,false,Tx,0,8,00,00,00,00,00,00,00,00,
561240,000001E5,false,Tx,0,8,46,80,00,08,00,80,00,4E,
561273,00000394,false,Tx,0,8,00,28,00,00,10,43,04,7F,
561288,00000196,false,Tx,0,8,75,30,75,30,20,00,75,2B,
562439,0000049A,false,Tx,0,1,00,00,00,00,00,00,00,00,
562453,000002EF,false,Tx,0,8,F6,A0,00,00,00,00,00,00,
562468,000003C2,false,Tx,0,8,7F,FF,F9,D6,00,12,05,20,
562483,0000030C,false,Tx,0,8,E9,30,00,00,00,00,00,01,
562498,00000389,false,Tx,0,8,00,00,00,00,00,00,00,00,
562514,00000173,false,Tx,0,8,00,00,C7,C8,0C,DA,0C,D8,
563662,00000094,false,Tx,0,8,7F,FF,73,FF,7F,FF,03,8F,
563676,0000014B,false,Tx,0,8,01,8B,00,00,00,00,00,00,
568221,000000C5,false,Tx,0,8,10,00,00,00,10,00,00,00,
569368,00000232,false,Tx,0,8,00,00,00,00,00,00,00,00,
569382,00000088,false,Tx,0,8,00,00,28,00,00,00,00,28,
569397,000000AF,false,Tx,0,8,00,00,30,00,00,41,FC,00,
569411,0000008E,false,Tx,0,8,5D,05,04,00,13,88,02,C5,
570555,00000166,false,Tx,0,8,00,00,00,00,00,00,00,00,
570569,000000DF,false,Tx,0,8,00,00,00,00,00,00,08,00,
571714,00000169,false,Tx,0,6,3B,19,60,F7,3C,00,00,00,
571728,000001F1,false,Tx,0,8,0E,00,00,00,00,00,00,00,
571743,000001F2,false,Tx,0,2,20,00,00,00,00,00,00,00,
571756,0000019C,false,Tx,0,8,06,A0,26,9F,7F,FE,02,7F,
571770,000001E5,false,Tx,0,8,46,80,00,18,00,7F,FF,5E,
571785,000001F1,false,Tx,0,8,0E,00,00,00,08,74,00,00,
571799,000003C2,false,Tx,0,8,7F,FF,F9,DF,00,12,05,20,
571813,000001F2,false,Tx,0,2,20,00,00,00,00,00,00,00,
572959,000001FD,false,Tx,0,8,00,00,00,00,00,00,00,00,
572974,0000022A,false,Tx,0,2,00,70,00,00,00,00,00,00,
572988,00000172,false,Tx,0,8,85,62,9D,85,62,9D,00,00,
573003,00000230,false,Tx,0,8,00,00,00,00,00,00,00,00,
573018,00000094,false,Tx,0,8,80,00,7B,FF,80,00,03,87,
573032,00000242,false,Tx,0,8,00,00,00,00,00,08,00,00,
573046,0000014B,false,Tx,0,8,01,8B,00,00,00,00,00,00,
577594,000000C1,false,Tx,0,8,A0,01,85,46,20,00,00,00,
577609,000001C7,false,Tx,0,8,00,00,BF,FE,00,04,00,00,
579888,00000088,false,Tx,0,8,00,00,38,00,00,00,00,38,
579910,000000AC,false,Tx,0,8,04,70,38,A8,02,00,00,E6,
579926,000000C7,false,Tx,0,4,00,00,00,00,00,00,00,00,
579940,0000019C,false,Tx,0,8,06,A0,26,9F,7F,FF,03,7F,
579953,0000008F,false,Tx,0,8,00,00,00,00,00,00,00,00,
581102,000000AF,false,Tx,0,8,00,00,00,00,00,00,00,00,
581115,0000009D,false,Tx,0,8,70,07,80,70,00,09,00,00,
581130,000000DF,false,Tx,0,8,00,00,00,00,00,00,08,00,
581143,00000194,false,Tx,0,8,0F,0F,00,01,00,00,00,00,
581156,0000019F,false,Tx,0,8,00,00,00,00,00,00,00,00,
581169,000001E5,false,Tx,0,8,46,80,00,28,00,7F,FE,6F,
582316,00000196,false,Tx,0,8,75,30,75,30,20,00,75,2B,
582330,00000204,false,Tx,0,8,08,00,00,00,00,00,00,00,
582344,000003C2,false,Tx,0,8,7F,FF,F9,DB,00,12,05,20,
582357,0000021C,false,Tx,0,8,00,00,00,00,00,00,00,00,
583506,00000094,false,Tx,0,8,80,00,00,00,00,00,03,00,
583521,00000094,false,Tx,0,8,7F,FF,03,FF,7F,FF,03,FF,
583536,000003F1,false,Tx,0,8,00,00,00,00,00,00,08,84,
588123,00000295,false,Tx,0,8,A6,2B,00,02,34,4E,3F,CA,
588149,0000029B,false,Tx,0,8,3B,CA,86,02,FD,06,00,00,
588176,000001E9,false,Tx,0,8,00,00,00,08,0F,F6,00,00,
589334,000002B6,false,Tx,0,8,60,00,00,02,19,0C,86,F1,
590509,0000008E,false,Tx,0,8,5D,05,04,00,13,88,04,C3,
590582,00000166,false,Tx,0,8,00,00,00,00,00,00,00,00,
590597,0000009B,false,Tx,0,8,00,00,00,00,10,00,00,10,
591777,000000DF,false,Tx,0,8,00,00,00,00,00,00,08,00,
591835,000001F1,false,Tx,0,8,0E,00,00,00,00,00,00,00,
591849,000001F2,false,Tx,0,2,20,00,00,00,00,00,00,00,
591862,000001F1,false,Tx,0,8,0E,00,00,00,08,74,00,00,
591876,000001FC,false,Tx,0,8,00,00,00,CC,00,00,C0,00,
591890,000003C2,false,Tx,0,8,7F,FF,F9,D8,00,12,05,20,
593056,000001FD,false,Tx,0,8,00,00,00,00,00,00,00,00,
593113,00000214,false,Tx,0,6,06,00,00,00,00,00,00,00,
593127,00000172,false,Tx,0,8,85,62,9D,85,62,9D,00,00,
593142,00000227,false,Tx,0,8,00,00,00,A0,FF,FB,00,00,
593156,00000094,false,Tx,0,8,80,00,00,00,00,00,03,00,
593172,0000014B,false,Tx,0,8,01,8B,00,00,00,00,00,00,
593187,00000230,false,Tx,0,8,00,00,00,00,00,00,00,00,
594345,00000242,false,Tx,0,8,00,00,00,00,00,08,00,00,
595500,00000353,false,Tx,0,8,00,00,00,00,00,00,00,00,
597826,000001C7,false,Tx,0,8,00,00,00,00,00,08,00,00,
597885,0000022C,false,Tx,0,8,03,47,8A,3C,48,F1,08,F1,
599050,00000166,false,Tx,0,8,00,00,00,00,00,00,00,00,
599080,000001E5,false,Tx,0,8,46,80,00,48,00,7F,FC,0D,
599107,000000AF,false,Tx,0,8,00,00,00,00,00,00,00,00,
599123,000000AC,false,Tx,0,8,04,70,58,A8,02,00,00,86,
600290,0000008A,false,Tx,0,8,7F,FF,00,04,00,02,35,B3,
600346,000000FB,false,Tx,0,8,11,FF,00,30,AB,BD,05,F6,
600361,0000008E,false,Tx,0,8,5D,05,04,00,13,88,05,C2,
600375,0000019C,false,Tx,0,8,06,A0,26,9F,7F,FE,05,7F,
600390,0000008F,false,Tx,0,8,00,00,00,00,00,00,00,00,
600404,0000014F,false,Tx,0,8,02,B8,00,00,00,00,00,00,
600418,0000009B,false,Tx,0,8,00,00,00,00,14,00,00,14,
601580,000001AF,false,Tx,0,8,00,00,00,00,00,00,00,00,
601632,000000DF,false,Tx,0,8,00,00,00,00,00,00,08,00,
601646,0000009D,false,Tx,0,8,90,09,80,70,00,07,00,00,
601660,0000019F,false,Tx,0,8,00,00,00,00,00,00,00,00,
601675,00000194,false,Tx,0,8,0F,0F,00,01,00,00,00,00,
602841,0000022B,false,Tx,0,8,03,47,8A,3C,48,F1,08,F0,
602895,00000094,false,Tx,0,8,7F,FF,13,FF,7F,FF,03,EF,
607490,000000C1,false,Tx,0,8,90,01,85,46,10,00,00,00,
608685,000001C7,false,Tx,0,8,00,00,7F,FF,00,0A,00,00,
608742,00000088,false,Tx,0,8,00,00,68,00,00,00,00,68,
609898,0000008A,false,Tx,0,8,7F,FF,00,04,00,02,36,B0,
609913,0000008D,false,Tx,0,8,00,00,00,00,00,60,00,60,
609928,00000166,false,Tx,0,8,00,00,00,00,00,00,00,00,
611095,000001E5,false,Tx,0,8,46,80,00,58,00,7F,FB,1A,
611151,0000009D,false,Tx,0,8,A0,0A,80,70,00,06,00,00,
611166,000001F1,false,Tx,0,8,0E,00,00,00,00,00,00,00,
611182,000001F2,false,Tx,0,2,20,00,00,00,00,00,00,00,
611196,000001F2,false,Tx,0,2,20,00,00,00,00,00,00,00,
612356,000001FD,false,Tx,0,8,00,00,00,00,00,00,00,00,
612409,00000227,false,Tx,0,8,00,00,00,B0,FF,FA,80,00,
612429,0000022A,false,Tx,0,2,00,70,00,00,00,00,00,00,
612444,000003C2,false,Tx,0,8,7F,FF,F9,D7,00,12,05,20,
612463,00000230,false,Tx,0,8,00,00,00,00,00,00,00,00,
612476,00000232,false,Tx,0,8,00,00,00,00,00,00,00,00,
612491,00000299,false,Tx,0,8,62,B7,D0,FF,FF,71,00,00,
612506,00000242,false,Tx,0,8,00,00,00,00,00,08,00,00,
613675,00000094,false,Tx,0,8,7F,FF,1B,FF,7F,FF,03,E7,
613733,00000094,false,Tx,0,8,80,00,00,00,00,00,03,00,
613749,00000246,false,Tx,0,8,00,00,00,00,00,00,00,00,
613764,000002EF,false,Tx,0,8,F5,B0,00,00,00,00,00,00,
613778,000003AC,false,Tx,0,8,00,5D,02,22,4B,FF,18,00,
618398,0000043C,false,Tx,0,1,03,00,00,00,00,00,00,00,
619600,000000F1,false,Tx,0,8,00,00,00,00,00,00,00,00,
619654,0000008D,false,Tx,0,8,00,00,00,00,00,70,00,70,
620813,0000008F,false,Tx,0,8,00,00,00,00,00,00,00,00,
620858,00000194,false,Tx,0,8,0F,0F,00,01,00,00,00,00,
620879,0000009D,false,Tx,0,8,B0,0B,80,70,00,05,00,00,
622053,00000196,false,Tx,0,8,75,30,75,30,20,00,75,2B,
622107,000001AF,false,Tx,0,8,00,00,00,00,00,00,00,00,
623286,00000173,false,Tx,0,8,00,00,C7,C8,0C,DA,0C,D8,
623340,0000039B,false,Tx,0,8,00,00,00,00,00,00,00,00,
624507,000002A2,false,Tx,0,8,86,00,20,C8,00,84,00,AC,
625716,000002E7,false,Tx,0,8,08,00,00,00,00,00,07,0F,
625775,000003E2,false,Tx,0,8,1E,B6,17,A2,63,4D,63,5B,
626939,00000469,false,Tx,0,8,28,00,30,00,28,00,30,00,
626994,0000046D,false,Tx,0,8,02,A1,02,A1,00,00,01,02,
628158,000001C7,false,Tx,0,8,00,00,FF,FD,00,0E,00,00,
628192,00000322,false,Tx,0,8,00,00,00,00,00,00,00,00,
629354,00000232,false,Tx,0,8,00,00,00,00,00,00,00,00,
629370,000000AF,false,Tx,0,8,00,00,18,00,00,A1,F6,00,
630534,0000009B,false,Tx,0,8,00,00,00,00,20,00,00,20,
630595,00000166,false,Tx,0,8,00,00,00,00,00,00,00,00,
630610,00000169,false,Tx,0,6,3B,19,60,F7,3C,00,00,00,
631778,000001F2,false,Tx,0,2,20,00,00,00,00,00,00,00,
631833,000001E5,false,Tx,0,8,46,80,00,78,00,7F,F9,38,
631850,000001FD,false,Tx,0,8,00,00,00,00,00,00,00,00,
631866,00000356,false,Tx,0,8,00,00,00,1E,3E,00,00,00,
633022,00000358,false,Tx,0,8,00,00,00,00,00,00,00,00,
633055,00000172,false,Tx,0,8,85,62,9D,85,62,9D,00,00,
633082,0000022A,false,Tx,0,2,00,70,00,00,00,00,00,00,
633096,00000099,false,Tx,0,8,A0,85,80,04,00,5D,00,FC,
633121,0000014B,false,Tx,0,8,01,8B,00,00,00,00,00,00,
634288,00000242,false,Tx,0,8,00,00,00,00,00,08,00,00,
634344,000003C2,false,Tx,0,8,7F,FF,F9,E0,00,12,05,20,
634362,00000400,false,Tx,0,8,71,40,02,00,00,40,06,00,
635528,000002FD,false,Tx,0,8,FA,00,00,00,00,00,00,00,
636729,00000336,false,Tx,0,8,00,00,00,00,00,00,00,00,
636761,00000343,false,Tx,0,8,00,00,00,00,00,00,00,00,
637935,000000C1,false,Tx,0,8,80,01,85,46,00,00,00,00,
637991,000001C7,false,Tx,0,8,00,00,00,00,00,10,00,00,
639160,000001E5,false,Tx,0,8,46,80,00,88,00,7F,F8,C9,
639216,000000AF,false,Tx,0,8,00,00,00,00,00,00,00,00,
639233,00000348,false,Tx,0,8,00,00,00,00,00,00,00,00,
640401,0000008D,false,Tx,0,8,00,00,00,00,00,90,00,90,
640453,0000009B,false,Tx,0,8,00,00,00,00,24,00,00,24,
640470,0000014F,false,Tx,0,8,02,D8,00,00,00,00,00,00,
641639,0000009D,false,Tx,0,8,D0,0D,80,70,00,03,00,00,
641694,00000194,false,Tx,0,8,0F,0F,00,01,00,00,00,00,
641720,000001AF,false,Tx,0,8,00,00,00,00,00,00,00,00,
641737,00000196,false,Tx,0,8,75,30,75,30,20,00,75,2B,
641754,0000034A,false,Tx,0,8,00,00,00,00,00,00,00,00,
642905,00000364,false,Tx,0,8,00,00,00,00,00,00,00,32,
642921,000003C2,false,Tx,0,8,7F,FF,F9,DB,00,12,05,20,
642940,00000372,false,Tx,0,8,00,00,00,00,00,85,00,00,
642960,0000029B,false,Tx,0,8,80,00,00,00,00,00,00,00,
642979,00000094,false,Tx,0,8,80,00,00,00,00,00,03,00,
642997,00000099,false,Tx,0,8,A0,86,80,04,00,5D,00,FF,
644166,00000418,false,Tx,0,8,00,00,00,00,00,00,00,00,
647645,00000295,false,Tx,0,8,D6,2B,00,02,34,4E,3F,BA,
647661,00000185,false,Tx,0,4,03,FF,00,0E,00,00,00,00,
647677,000002A0,false,Tx,0,8,50,00,00,00,86,00,00,D6,
648840,00000232,false,Tx,0,8,00,00,00,00,00,00,00,00,
650045,000000AF,false,Tx,0,8,00,00,10,00,00,C1,F4,00,
650099,0000008D,false,Tx,0,8,00,00,00,00,00,A0,00,A0,
650117,00000165,false,Tx,0,8,00,00,06,A0,E5,7A,06,00,
651291,00000169,false,Tx,0,6,3B,19,60,F7,3C,00,00,00,
651346,000000DF,false,Tx,0,8,00,00,00,00,00,00,08,00,
651364,000001F1,false,Tx,0,8,0E,00,00,00,00,00,00,00,
651387,000001F2,false,Tx,0,2,20,00,00,00,00,00,00,00,
651404,000001E1,false,Tx,0,7,40,C0,00,00,00,00,00,00,
652574,000001E5,false,Tx,0,8,46,80,00,98,00,7F,F7,D6,
652627,000001F1,false,Tx,0,8,0E,00,00,00,08,74,00,00,
652645,000001F2,false,Tx,0,2,20,00,00,00,00,00,00,00,
652669,000001FD,false,Tx,0,8,00,00,00,00,00,00,00,00,
652687,0000022A,false,Tx,0,2,00,70,00,00,00,00,00,00,
652703,00000172,false,Tx,0,8,85,62,9D,85,62,9D,00,00,
652728,00000230,false,Tx,0,8,00,00,00,00,00,00,00,00,
652746,00000094,false,Tx,0,8,7F,FF,3B,FF,7F,FF,03,C7,
653910,00000094,false,Tx,0,8,80,00,00,00,00,00,03,00,
653946,00000099,false,Tx,0,8,A0,87,80,04,00,5D,00,FE,
653967,0000014B,false,Tx,0,8,01,8B,00,00,00,00,00,00,
657413,000000C1,false,Tx,0,8,A0,01,85,46,20,00,00,00,
657447,000000C5,false,Tx,0,8,20,00,00,00,20,00,00,00,
658621,000002A2,false,Tx,0,8,86,86,20,00,40,84,00,AC,
659825,000000C7,false,Tx,0,4,00,00,00,00,00,00,00,00,
659877,0000008D,false,Tx,0,8,00,00,00,00,00,B0,00,B0,
659895,0000019C,false,Tx,0,8,06,A0,26,9F,7F,FE,0B,7F,
661062,0000014F,false,Tx,0,8,02,E8,00,00,00,00,00,00,
661114,000000AF,false,Tx,0,8,00,00,00,00,00,00,00,00,
661132,00000194,false,Tx,0,8,0F,0F,00,01,00,00,00,00,
661150,0000039A,false,Tx,0,8,00,43,00,00,6E,80,00,00,
661171,000001E5,false,Tx,0,8,46,80,00,A8,00,7F,F6,E7,
662347,0000019F,false,Tx,0,8,00,00,00,00,00,00,00,00,
662394,00000196,false,Tx,0,8,75,30,75,30,20,00,75,2B,
662412,00000394,false,Tx,0,8,00,28,00,00,10,43,05,7E,
662432,0000049A,false,Tx,0,1,00,00,00,00,00,00,00,00,
662448,000002EF,false,Tx,0,8,F4,C0,00,00,00,00,00,00,
662466,0000030C,false,Tx,0,8,E9,30,00,00,00,00,00,01,
662484,00000389,false,Tx,0,8,00,00,00,00,00,00,00,00,
662502,000003C2,false,Tx,0,8,7F,FF,F9,E4,00,12,05,20,
662540,00000094,false,Tx,0,8,80,00,43,FF,80,00,03,BF,
663715,00000299,false,Tx,0,8,62,B7,D0,FF,FF,71,00,00,
667222,00000163,false,Tx,0,8,40,05,40,02,08,00,02,00,
668425,00000185,false,Tx,0,4,00,00,00,0E,00,00,00,00,
668473,000001E9,false,Tx,0,8,00,00,00,08,0F,F6,00,00,
668493,000000AF,false,Tx,0,8,00,00,08,00,00,E1,F2,00,
669656,0000008D,false,Tx,0,8,00,00,00,00,00,C0,00,C0,
669702,00000166,false,Tx,0,8,00,00,00,00,00,00,00,00,
670879,0000019C,false,Tx,0,8,06,A0,26,9F,7F,FF,0C,7F,
670930,000000DF,false,Tx,0,8,00,00,00,00,00,00,08,00,
670950,0000009D,false,Tx,0,8,00,00,80,70,00,00,00,00,
672129,000001F2,false,Tx,0,2,20,00,00,00,00,00,00,00,
672177,000001F2,false,Tx,0,2,20,00,00,00,00,00,00,00,
672195,0000041F,false,Tx,0,3,02,70,01,00,00,00,00,00,
672214,000001FD,false,Tx,0,8,00,00,00,00,00,00,00,00,
672234,00000227,false,Tx,0,8,00,00,00,E0,FF,F9,00,00,
672254,0000022A,false,Tx,0,2,00,70,00,00,00,00,00,00,
672273,00000230,false,Tx,0,8,00,00,00,00,00,00,00,00,
672293,00000232,false,Tx,0,8,00,00,00,00,00,00,00,00,
673464,00000172,false,Tx,0,8,85,62,9D,85,62,9D,00,00,
673514,00000242,false,Tx,0,8,00,00,00,00,00,08,00,00,
673535,00000094,false,Tx,0,8,7F,FF,4B,FF,7F,FF,03,B7,
673556,00000094,false,Tx,0,8,80,00,00,00,00,00,03,00,
673577,00000246,false,Tx,0,8,00,00,00,00,00,00,00,00,
673597,000002A2,false,Tx,0,8,86,00,20,C8,00,84,00,AC,
675915,000002E7,false,Tx,0,8,08,00,00,00,00,00,08,00,
678258,00000171,false,Tx,0,8,00,30,3D,B0,87,42,AC,D4,
679444,00000088,false,Tx,0,8,00,00,D8,00,00,00,00,D8,
679495,000000AC,false,Tx,0,8,04,70,D8,A8,02,00,00,06,
679515,0000008A,false,Tx,0,8,7F,FF,00,04,00,02,3D,BB,
679553,0000008E,false,Tx,0,8,5D,05,04,00,13,88,0D,CA,
680724,0000008F,false,Tx,0,8,00,00,00,00,00,00,00,00,
680774,000000AF,false,Tx,0,8,00,00,00,00,00,00,00,00,
680794,00000194,false,Tx,0,8,0F,0F,00,01,00,00,00,00,
680814,000000DF,false,Tx,0,8,00,00,00,00,00,00,08,00,
680834,0000009D,false,Tx,0,8,10,01,80,70,00,0F,00,00,
682008,0000019F,false,Tx,0,8,00,00,00,00,00,00,00,00,
682058,00000196,false,Tx,0,8,75,30,75,30,20,00,75,2B,
682078,000001E1,false,Tx,0,7,40,BF,01,00,00,00,00,00,
682098,000001E5,false,Tx,0,8,46,80,00,C8,00,7F,F4,85,
682118,00000204,false,Tx,0,8,08,00,00,00,00,00,00,00,
682138,0000021C,false,Tx,0,8,00,00,00,00,00,00,00,00,
683311,000002F6,false,Tx,0,8,80,00,00,00,00,01,00,00,
683360,000003C2,false,Tx,0,8,7F,FF,F9,DF,00,12,05,20,
683382,00000099,false,Tx,0,8,A0,8A,80,04,00,5D,00,F3,
688007,000000C5,false,Tx,0,8,10,00,00,00,10,00,00,00,
688058,0000029B,false,Tx,0,8,3B,CA,86,02,FD,06,00,00,
689230,000001E9,false,Tx,0,8,00,00,00,08,0F,F6,00,00,
689279,00000165,false,Tx,0,8,00,00,06,A0,E5,78,08,00,
689301,000000C7,false,Tx,0,4,00,00,00,00,00,00,00,00,
690475,0000008E,false,Tx,0,8,5D,05,04,00,13,88,0E,C9,
690521,0000008F,false,Tx,0,8,00,00,00,00,00,00,00,00,
690553,000000AF,false,Tx,0,8,00,00,00,00,00,00,00,00,
690574,000000DF,false,Tx,0,8,00,00,00,00,00,00,08,00,
691768,000001E5,false,Tx,0,8,46,80,00,D8,00,7F,F3,92,
691816,000001F1,false,Tx,0,8,0E,00,00,00,08,74,00,00,
691846,000001F2,false,Tx,0,2,20,00,00,00,00,00,00,00,
691866,000001FC,false,Tx,0,8,00,00,00,B5,00,00,40,00,
693041,00000214,false,Tx,0,6,02,00,00,00,00,00,00,00,
693091,00000172,false,Tx,0,8,85,62,9D,85,62,9D,00,00,
693119,00000227,false,Tx,0,8,00,00,00,F0,FF,F8,80,00,
693140,000003C2,false,Tx,0,8,7F,FF,F9,E0,00,12,05,20,
693162,00000094,false,Tx,0,8,80,00,5B,FF,80,00,03,A7,
693184,00000230,false,Tx,0,8,00,00,00,00,00,00,00,00,
693206,00000099,false,Tx,0,8,A0,8B,80,04,00,5D,00,F2,
694372,0000014B,false,Tx,0,8,01,8B,00,00,00,00,00,00,
695557,00000353,false,Tx,0,8,00,00,00,00,00,00,00,00,
695606,00000418,false,Tx,0,8,00,00,00,00,00,00,00,80,
697938,000000C5,false,Tx,0,8,20,00,00,00,20,00,00,00,
697986,0000044C,false,Tx,0,1,01,00,00,00,00,00,00,00,
699197,00000166,false,Tx,0,8,00,00,00,00,00,00,00,00,
699244,000001E5,false,Tx,0,8,46,80,00,E8,00,7F,F2,A3,
699265,000000AF,false,Tx,0,8,00,00,00,00,00,00,00,00,
699287,000000AC,false,Tx,0,8,04,70,F8,A8,02,00,00,26,
700461,000000AF,false,Tx,0,8,00,00,3C,00,00,11,FF,00,
700511,0000008D,false,Tx,0,8,00,00,00,00,00,F0,00,F0,
700542,000000FB,false,Tx,0,8,11,FF,00,30,AB,08,06,01,
700564,0000008E,false,Tx,0,8,5D,05,04,00,13,88,0F,C8,
700586,0000019C,false,Tx,0,8,06,A0,26,9F,7F,FF,0F,7F,
700608,0000008F,false,Tx,0,8,00,00,00,00,00,00,00,00,
700630,0000014F,false,Tx,0,8,02,08,00,00,00,00,00,00,
700652,0000009B,false,Tx,0,8,00,00,00,00,3C,00,00,3C,
700674,000001AF,false,Tx,0,8,00,00,00,00,00,00,00,00,
700715,000000DF,false,Tx,0,8,00,00,00,00,00,00,08,00,
700735,0000009D,false,Tx,0,8,30,03,80,70,00,0D,00,00,
701909,00000194,false,Tx,0,8,0F,0F,00,01,00,00,00,00,
703099,00000094,false,Tx,0,8,80,00,00,00,00,00,03,00,
706577,00000163,false,Tx,0,8,42,05,40,02,08,00,02,00,
707771,000000C1,false,Tx,0,8,B0,01,85,46,30,00,00,00,
707814,00000185,false,Tx,0,4,00,00,00,0C,00,00,00,00,
708999,000000AF,false,Tx,0,8,00,00,38,00,00,21,FE,00,
709042,000000C7,false,Tx,0,4,00,00,00,00,00,00,00,00,
709065,000000FB,false,Tx,0,8,11,FF,00,30,AB,08,06,01,
710228,00000165,false,Tx,0,8,00,00,06,A0,E5,77,09,00,
710253,00000166,false,Tx,0,8,00,00,00,00,00,00,00,00,
710278,000000AF,false,Tx,0,8,00,00,00,00,00,00,00,00,
711452,00000196,false,Tx,0,8,00,00,00,00,00,00,00,00,
711492,000001F1,false,Tx,0,8,0E,00,00,00,08,74,00,00,
711518,000001F2,false,Tx,0,2,20,00,00,00,00,00,00,00,
712692,000001FD,false,Tx,0,8,00,00,00,00,00,00,00,00,
712738,00000227,false,Tx,0,8,00,00,00,00,00,00,00,00,
712763,0000022A,false,Tx,0,2,00,70,00,00,00,00,00,00,
712787,00000230,false,Tx,0,8,00,00,00,00,00,00,00,00,
712811,00000299,false,Tx,0,8,62,B7,D0,FF,FF,71,00,00,
712837,00000232,false,Tx,0,8,00,00,00,00,00,00,00,00,
712861,00000094,false,Tx,0,8,7F,FF,6B,FF,7F,FF,03,97,
712886,00000094,false,Tx,0,8,80,00,00,00,00,00,03,00,
712911,00000099,false,Tx,0,8,A0,8D,80,04,00,5D,00,F4,
714089,00000242,false,Tx,0,8,00,00,00,00,00,08,00,00,
714136,0000014B,false,Tx,0,8,01,8B,00,00,00,00,00,00,
714161,000003AC,false,Tx,0,8,00,5D,02,22,4B,FF,18,00,
714186,000003C2,false,Tx,0,8,7F,FF,F9,D9,00,12,05,20,
717657,00000171,false,Tx,0,8,00,30,05,B0,87,02,AC,AC,
718872,00000088,false,Tx,0,8,00,00,18,00,00,00,00,18,
720069,0000008E,false,Tx,0,8,5D,05,04,00,13,88,01,C6,
720116,0000008F,false,Tx,0,8,00,00,00,00,00,00,00,00,
721301,0000014F,false,Tx,0,8,02,18,00,00,00,00,00,00,
721346,000000DF,false,Tx,0,8,00,00,00,00,00,00,08,00,
721370,00000194,false,Tx,0,8,0F,0F,00,01,00,00,00,00,
721403,0000019F,false,Tx,0,8,00,00,00,00,00,00,00,00,
722579,00000173,false,Tx,0,8,00,00,C7,C8,0C,D9,0C,D8,
723779,0000029C,false,Tx,0,8,28,00,00,00,00,00,00,00,
723825,000002A2,false,Tx,0,8,86,00,20,C8,00,84,00,AC,
725005,000003A6,false,Tx,0,8,00,00,00,00,00,00,00,00,
726204,000003E2,false,Tx,0,8,1E,B6,17,A2,63,4D,63,5B,
727402,0000046B,false,Tx,0,8,0B,BD,00,F9,05,72,01,48,
727448,000000C1,false,Tx,0,8,90,01,85,46,10,00,00,00,
727478,00000185,false,Tx,0,4,00,00,00,0A,00,00,00,00,
728659,000001E9,false,Tx,0,8,00,00,00,08,0F,F6,00,00,
728705,00000227,false,Tx,0,8,00,00,00,10,FF,FF,80,00,
729876,000000AC,false,Tx,0,8,04,70,28,A8,02,00,00,F6,
729906,0000008F,false,Tx,0,8,00,00,00,00,00,00,00,00,
729935,00000165,false,Tx,0,8,00,00,06,A0,E5,76,0A,00,
731104,000000AF,false,Tx,0,8,00,00,00,00,00,00,00,00,
731132,0000019C,false,Tx,0,8,06,A0,26,9F,7F,FF,02,7F,
732318,000001F2,false,Tx,0,2,20,00,00,00,00,00,00,00,
732363,00000353,false,Tx,0,8,00,00,00,00,00,00,00,00,
732392,00000358,false,Tx,0,8,00,00,00,00,00,00,00,00,
732421,0000021C,false,Tx,0,8,00,00,00,00,00,00,00,00,
733610,00000094,false,Tx,0,8,80,00,00,00,00,00,03,00,
733656,0000022A,false,Tx,0,2,00,70,00,00,00,00,00,00,
733682,0000014B,false,Tx,0,8,01,8B,00,00,00,00,00,00,
733711,00000242,false,Tx,0,8,00,00,00,00,00,08,00,00,
733742,000003BE,false,Tx,0,8,00,43,08,F1,1B,33,00,00,
734924,00000297,false,Tx,0,8,00,03,00,00,00,00,20,00,
734971,00000400,false,Tx,0,8,71,40,02,00,00,40,06,00,
735000,000002FD,false,Tx,0,8,FA,00,00,00,00,00,00,00,
736182,0000031A,false,Tx,0,8,0A,20,00,37,57,42,90,4E,
737456,00000361,false,Tx,0,8,00,00,00,00,00,00,00,00,
737584,000000C1,false,Tx,0,8,A0,01,85,46,20,00,00,00,
738811,000001C7,false,Tx,0,8,00,00,BF,FE,00,04,00,00,
738884,00000214,false,Tx,0,6,04,00,00,00,00,00,00,00,
740059,000001E5,false,Tx,0,8,46,80,00,28,00,7F,FE,6F,
740126,00000088,false,Tx,0,8,00,00,38,00,00,00,00,38,
740143,0000008A,false,Tx,0,8,7F,FF,00,04,00,02,33,B5,
740177,000000FB,false,Tx,0,8,11,FF,00,30,AB,26,05,FF,
741348,0000008F,false,Tx,0,8,00,00,00,00,00,00,00,00,
741414,000001AF,false,Tx,0,8,00,00,00,00,00,00,00,00,
741430,0000009D,false,Tx,0,8,70,07,80,70,00,09,00,00,
742608,00000196,false,Tx,0,8,75,30,75,30,20,00,75,2B,
742668,0000034A,false,Tx,0,8,00,00,00,00,00,00,00,00,
742689,00000364,false,Tx,0,8,00,00,00,00,00,00,00,32,
742716,00000173,false,Tx,0,8,00,00,C7,C8,0C,D9,0C,D8,
742739,0000029B,false,Tx,0,8,80,00,00,00,00,00,00,00,
742762,00000418,false,Tx,0,8,00,00,00,00,00,00,00,00,
742785,00000094,false,Tx,0,8,80,00,00,00,00,00,03,00,
743967,00000373,false,Tx,0,8,00,00,00,00,00,00,00,00,
744028,00000379,false,Tx,0,8,84,00,00,85,00,00,00,00,
744052,000003FA,false,Tx,0,8,1E,3E,1E,3E,00,00,00,00,
745239,0000047E,false,Tx,0,8,00,00,00,00,00,00,00,00,
747590,0000022C,false,Tx,0,8,06,47,82,3C,48,F0,08,F0,
747645,00000185,false,Tx,0,4,00,00,00,0C,00,00,00,00,
748811,00000232,false,Tx,0,8,00,00,00,00,00,00,00,00,
749871,000000AF,false,Tx,0,8,00,00,28,00,00,61,FA,00,
749903,0000008D,false,Tx,0,8,00,00,00,00,00,40,00,40,
749939,0000008F,false,Tx,0,8,00,00,00,00,00,00,00,00,
751123,000000AF,false,Tx,0,8,00,00,00,00,00,00,00,00,
751177,0000019C,false,Tx,0,8,06,A0,26,9F,7F,FF,04,7F,
751208,000001F1,false,Tx,0,8,0E,00,00,00,00,00,00,00,
752385,000001E5,false,Tx,0,8,46,80,00,38,00,7F,FD,7C,
752438,000001F2,false,Tx,0,2,20,00,00,00,00,00,00,00,
752461,0000041F,false,Tx,0,3,02,70,01,00,00,00,00,00,
752486,000001F1,false,Tx,0,8,0E,00,00,00,08,74,00,00,
752511,000001F2,false,Tx,0,2,20,00,00,00,00,00,00,00,
752535,000001FD,false,Tx,0,8,00,00,00,00,00,00,00,00,
752558,0000022A,false,Tx,0,2,00,70,00,00,00,00,00,00,
752585,00000230,false,Tx,0,8,00,00,00,00,00,00,00,00,
752611,00000172,false,Tx,0,8,85,62,9D,85,62,9D,00,00,
753786,00000094,false,Tx,0,8,80,00,00,00,00,00,03,00,
753841,00000094,false,Tx,0,8,80,00,0C,00,80,00,03,0F,
753870,00000242,false,Tx,0,8,00,00,00,00,00,08,00,00,
753896,00000099,false,Tx,0,8,A0,81,80,04,00,5D,00,F8,
753924,000003C2,false,Tx,0,8,7F,FF,F9,DD,00,12,05,20,
757418,00000171,false,Tx,0,8,00,30,0D,B0,87,42,AC,E4,
758629,000002A2,false,Tx,0,8,86,86,20,00,40,84,00,AC,
759864,000000AF,false,Tx,0,8,00,00,00,00,00,00,00,00,
759921,000000FB,false,Tx,0,8,11,FF,00,30,AB,35,05,FE,
759957,0000008D,false,Tx,0,8,00,00,00,00,00,50,00,50,
761144,0000008F,false,Tx,0,8,00,00,00,00,00,00,00,00,
761192,0000039A,false,Tx,0,8,00,43,00,00,7E,40,00,00,
761223,000001E5,false,Tx,0,8,46,80,00,48,00,7F,FC,0D,
761258,000000DF,false,Tx,0,8,00,00,00,00,00,00,08,00,
761288,0000009D,false,Tx,0,8,90,09,80,70,00,07,00,00,
761341,0000019F,false,Tx,0,8,00,00,00,00,00,00,00,00,
761367,00000196,false,Tx,0,8,75,30,75,30,20,00,75,2B,
761424,00000394,false,Tx,0,8,00,28,00,00,10,43,06,7D,
761455,000002EF,false,Tx,0,8,F2,E0,00,00,00,00,00,00,
762647,0000049A,false,Tx,0,1,00,00,00,00,00,00,00,00,
762695,0000030C,false,Tx,0,8,E9,30,00,00,00,00,00,01,
762729,00000389,false,Tx,0,8,00,00,00,00,00,00,00,00,
762763,0000038B,false,Tx,0,8,1B,00,01,00,00,44,03,E8,
762797,00000299,false,Tx,0,8,62,B7,D0,FF,FF,71,00,00,
763976,000003A3,false,Tx,0,8,00,00,00,00,00,00,00,00,
767468,00000293,false,Tx,0,8,8C,00,B3,26,21,40,00,00,
767501,00000185,false,Tx,0,4,03,FF,00,0C,00,00,00,00,
768667,000000AC,false,Tx,0,8,04,70,68,A8,02,00,00,B6,
769846,00000088,false,Tx,0,8,00,00,68,00,00,00,00,68,
769881,000000FB,false,Tx,0,8,11,FF,00,30,AB,35,05,FE,
769923,0000008E,false,Tx,0,8,5D,05,04,00,13,88,06,C1,
769945,00000167,false,Tx,0,8,0C,10,00,00,00,00,00,00,
771124,000001E5,false,Tx,0,8,46,80,00,58,00,7F,FB,1A,
771158,00000196,false,Tx,0,8,00,00,00,00,00,00,00,00,
771186,000001F2,false,Tx,0,2,20,00,00,00,00,00,00,00,
771212,000001F1,false,Tx,0,8,0E,00,00,00,08,74,00,00,
772382,000001F2,false,Tx,0,2,20,00,00,00,00,00,00,00,
772412,000001FD,false,Tx,0,8,00,00,00,00,00,00,00,00,
772441,00000227,false,Tx,0,8,00,00,00,30,FF,FE,80,00,
772468,0000022A,false,Tx,0,2,00,70,00,00,00,00,00,00,
772490,00000230,false,Tx,0,8,00,00,00,00,00,00,00,00,
772516,00000172,false,Tx,0,8,85,62,9D,85,62,9D,00,00,
773681,00000232,false,Tx,0,8,00,00,00,00,00,00,00,00,
773712,00000094,false,Tx,0,8,7F,FF,1B,FF,7F,FF,03,E7,
773738,00000094,false,Tx,0,8,80,00,00,00,00,00,03,00,
773765,00000099,false,Tx,0,8,A0,83,80,04,00,5D,00,FA,
773792,00000242,false,Tx,0,8,00,00,00,00,00,08,00,00,
773817,00000246,false,Tx,0,8,00,00,00,00,00,00,00,00,
777261,000000C5,false,Tx,0,8,20,00,00,00,20,00,00,00,
778434,00000171,false,Tx,0,8,00,30,11,B0,87,42,AC,F8,
779622,00000166,false,Tx,0,8,00,00,00,00,00,00,00,00,
779672,000000AC,false,Tx,0,8,04,70,78,A8,02,00,00,A6,
779702,0000008D,false,Tx,0,8,00,00,00,00,00,70,00,70,
779730,0000008E,false,Tx,0,8,5D,05,04,00,13,88,07,C0,
780900,0000009B,false,Tx,0,8,00,00,00,00,1C,00,00,1C,
780944,000000AF,false,Tx,0,8,00,00,00,00,00,00,00,00,
780977,00000194,false,Tx,0,8,0F,0F,00,01,00,00,00,00,
781008,000000DF,false,Tx,0,8,00,00,00,00,00,00,08,00,
781040,0000009D,false,Tx,0,8,B0,0B,80,70,00,05,00,00,
781072,0000019F,false,Tx,0,8,00,00,00,00,00,00,00,00,
782239,00000196,false,Tx,0,8,75,30,75,30,20,00,75,30,
782268,000001E5,false,Tx,0,8,46,80,00,68,00,7F,FA,2B,
782294,00000204,false,Tx,0,8,08,00,00,00,00,00,00,00,
782321,0000021C,false,Tx,0,8,00,00,00,00,00,00,00,00,
782346,000002F6,false,Tx,0,8,80,00,00,00,00,01,00,00,
783509,00000173,false,Tx,0,8,00,00,C7,C8,0C,DA,0C,D8,
783534,00000099,false,Tx,0,8,A0,84,80,04,00,5D,00,FD,
786977,000000C1,false,Tx,0,8,B0,01,85,46,30,00,00,00,
788140,000000C5,false,Tx,0,8,30,00,00,00,30,00,00,00,
788164,00000185,false,Tx,0,4,03,FF,00,0E,00,00,00,00,
789323,000001FC,false,Tx,0,8,FF,E9,00,B5,00,00,C0,00,
789347,00000088,false,Tx,0,8,00,00,88,00,00,00,00,88,
789369,000000C7,false,Tx,0,4,00,00,00,00,00,00,00,00,
790528,00000165,false,Tx,0,8,00,00,06,A0,E5,73,0D,00,
790551,0000008F,false,Tx,0,8,00,00,00,00,00,00,00,00,
790574,000000AF,false,Tx,0,8,00,00,00,00,00,00,00,00,
791734,00000196,false,Tx,0,8,00,00,00,00,00,00,00,00,
791756,000001E5,false,Tx,0,8,46,80,00,78,00,7F,F9,38,
791778,000001F2,false,Tx,0,2,20,00,00,00,00,00,00,00,
791799,000001F2,false,Tx,0,2,20,00,00,00,00,00,00,00,
792959,000001FD,false,Tx,0,8,00,00,00,00,00,00,00,00,
792982,00000214,false,Tx,0,6,06,00,00,00,00,00,00,00,
793004,00000227,false,Tx,0,8,00,00,00,40,FF,FE,00,00,
793028,00000172,false,Tx,0,8,85,62,9D,85,62,9D,00,00,
793050,0000022A,false,Tx,0,2,00,70,00,00,00,00,00,00,
793071,00000094,false,Tx,0,8,80,00,2B,FF,80,00,03,D7,
793094,00000094,false,Tx,0,8,80,00,00,00,00,00,03,00,
793117,00000230,false,Tx,0,8,00,00,00,00,00,00,00,00,
794278,00000242,false,Tx,0,8,00,00,00,00,00,08,00,00,
794299,00000244,false,Tx,0,8,00,00,20,04,00,00,00,00,
795455,0000034A,false,Tx,0,8,00,00,00,00,00,00,00,00,
797744,000000C5,false,Tx,0,8,00,00,00,00,00,00,00,00,
798906,000000F1,false,Tx,0,8,00,00,00,00,00,00,00,00,
798927,00000166,false,Tx,0,8,00,00,00,00,00,00,00,00,
800083,000000AF,false,Tx,0,8,00,00,00,00,00,00,00,00,
800101,000000AC,false,Tx,0,8,04,70,98,A8,02,00,00,46,
800120,0000008A,false,Tx,0,8,80,00,00,04,00,02,39,BF,
800139,000000C7,false,Tx,0,4,00,00,00,00,00,00,00,00,
800156,0000008D,false,Tx,0,8,00,00,00,00,00,90,00,90,
800175,0000008E,false,Tx,0,8,5D,05,04,00,13,88,09,CE,
800193,0000019C,false,Tx,0,8,06,A0,26,9F,7F,FF,09,7F,
801348,0000008F,false,Tx,0,8,00,00,00,00,00,00,00,00,
801373,0000014F,false,Tx,0,8,02,58,00,00,00,00,00,00,
801393,0000009B,false,Tx,0,8,00,00,00,00,24,00,00,24,
801411,000001AF,false,Tx,0,8,00,00,00,00,00,00,00,00,
801430,000000DF,false,Tx,0,8,00,00,00,00,00,00,08,00,
801449,00000194,false,Tx,0,8,0F,0F,00,01,00,00,00,00,
801467,0000019F,false,Tx,0,8,00,00,00,00,00,00,00,00,
801485,00000196,false,Tx,0,8,75,30,75,30,20,00,75,2B,
802638,00000173,false,Tx,0,8,00,00,C7,C8,0C,DA,0C,D8,
803788,000003C2,false,Tx,0,8,7F,FF,F9,DA,00,12,05,20,
807202,00000163,false,Tx,0,8,43,05,40,02,08,00,02,00,
808356,00000185,false,Tx,0,4,03,FF,00,0E,00,00,00,00,
808374,000000AF,false,Tx,0,8,00,00,10,00,00,C1,F4,00,
809536,000000C7,false,Tx,0,4,00,00,00,00,00,00,00,00,
809553,000000FB,false,Tx,0,8,11,FF,00,30,AB,53,05,FC,
809571,0000008E,false,Tx,0,8,5D,05,04,00,13,88,0A,CD,
809589,00000166,false,Tx,0,8,00,00,00,00,00,00,00,00,
810740,00000169,false,Tx,0,6,3B,19,60,F7,3C,00,00,00,
810761,00000196,false,Tx,0,8,00,00,00,00,00,00,00,00,
810782,000001F1,false,Tx,0,8,0E,00,00,00,08,74,00,00,
811936,000001F2,false,Tx,0,2,20,00,00,00,00,00,00,00,
811953,000001F2,false,Tx,0,2,20,00,00,00,00,00,00,00,
811971,000001FD,false,Tx,0,8,00,00,00,00,00,00,00,00,
811992,00000227,false,Tx,0,8,00,00,00,50,FF,FD,80,00,
812008,0000022A,false,Tx,0,2,00,70,00,00,00,00,00,00,
812024,00000230,false,Tx,0,8,00,00,00,00,00,00,00,00,
813175,00000232,false,Tx,0,8,00,00,00,00,00,00,00,00,
813192,00000299,false,Tx,0,8,62,B7,D0,FF,FF,71,00,00,
813209,00000242,false,Tx,0,8,00,00,00,00,00,08,00,00,
813227,00000094,false,Tx,0,8,7F,FF,3B,FF,7F,FF,03,C7,
813244,00000094,false,Tx,0,8,80,00,00,00,00,00,03,00,
813262,00000099,false,Tx,0,8,A0,87,80,04,00,5D,00,FE,
813280,0000014B,false,Tx,0,8,01,8B,00,00,00,00,00,00,
814433,00000334,false,Tx,0,8,00,00,00,00,00,00,08,00,
817852,00000293,false,Tx,0,8,8C,00,B3,26,21,40,00,00,
817868,00000171,false,Tx,0,8,00,30,19,B0,87,42,AC,F0,
819017,000000AC,false,Tx,0,8,04,70,B8,A8,02,00,00,66,
820165,0000008D,false,Tx,0,8,00,00,00,00,00,B0,00,B0,
821313,0000019C,false,Tx,0,8,06,A0,26,9F,7F,FE,0B,7F,
821328,000000AF,false,Tx,0,8,00,00,00,00,00,00,00,00,
821343,000000DF,false,Tx,0,8,00,00,00,00,00,00,08,00,
821358,0000009D,false,Tx,0,8,F0,0F,80,70,00,01,00,00,
822503,000001E5,false,Tx,0,8,46,80,00,A8,00,7F,F6,E7,
823651,00000094,false,Tx,0,8,80,00,43,FF,80,00,03,BF,
823667,0000014B,false,Tx,0,8,01,8B,00,00,00,00,00,00,
824816,000003A6,false,Tx,0,8,00,00,00,00,00,00,00,00,
825962,000003BF,false,Tx,0,8,28,00,30,00,28,00,30,00,
825977,000003E2,false,Tx,0,8,1E,B6,17,A2,63,4D,63,5B,
827122,00000469,false,Tx,0,8,28,00,30,00,28,00,30,00,
828270,00000185,false,Tx,0,4,00,00,00,10,00,00,00,00,
828284,00000297,false,Tx,0,8,01,03,E0,00,C3,0C,AF,82,
828302,000001E9,false,Tx,0,8,00,00,00,08,0F,F6,00,00,
829450,00000088,false,Tx,0,8,00,00,C8,00,00,00,00,C8,
829466,0000008A,false,Tx,0,8,80,00,00,04,00,02,3C,BA,
829481,0000008E,false,Tx,0,8,5D,05,04,00,13,88,0C,CB,
830631,0000009B,false,Tx,0,8,00,00,00,00,30,00,00,30,
831787,0000009D,false,Tx,0,8,00,00,80,70,00,00,00,00,
831803,000001F1,false,Tx,0,8,0E,00,00,00,00,00,00,00,
831820,00000336,false,Tx,0,8,00,00,00,00,00,00,00,00,
832965,0000021C,false,Tx,0,8,00,00,00,00,00,00,00,00,
832979,00000227,false,Tx,0,8,00,00,00,60,FF,FD,00,00,
832994,00000172,false,Tx,0,8,85,62,9D,85,62,9D,00,00,
833009,0000022A,false,Tx,0,2,00,70,00,00,00,00,00,00,
833025,00000094,false,Tx,0,8,7F,FF,4B,FF,7F,FF,03,B7,
834174,00000099,false,Tx,0,8,A0,89,80,04,00,5D,00,F0,
834188,0000014B,false,Tx,0,8,01,8B,00,00,00,00,00,00,
834202,00000400,false,Tx,0,8,71,40,02,00,00,40,06,00,
834216,0000041F,false,Tx,0,3,02,70,01,00,00,00,00,00,
835360,000002F6,false,Tx,0,8,80,00,00,00,00,01,00,00,
835375,00000319,false,Tx,0,8,83,2F,00,00,2B,AF,00,00,
836519,0000031A,false,Tx,0,8,0A,20,00,37,57,42,90,4E,
836533,00000343,false,Tx,0,8,00,00,00,00,00,00,00,00,
837679,0000029B,false,Tx,0,8,3B,CA,86,02,FD,06,00,00,
838826,00000402,false,Tx,0,8,00,00,00,00,00,05,00,00,
838839,00000166,false,Tx,0,8,00,00,00,00,00,00,00,00,
839987,000000AF,false,Tx,0,8,00,00,00,00,00,00,00,00,
840000,0000008A,false,Tx,0,8,7F,FF,00,04,00,02,3D,BB,
840013,000000AF,false,Tx,0,8,00,00,04,00,00,F1,F1,00,
840027,0000008E,false,Tx,0,8,5D,05,04,00,13,88,0D,CA,
841174,0000009B,false,Tx,0,8,00,00,00,00,34,00,00,34,
841189,0000019F,false,Tx,0,8,00,00,00,00,00,00,00,00,
841207,00000194,false,Tx,0,8,0F,0F,00,01,00,00,00,00,
842355,0000034A,false,Tx,0,8,00,00,00,00,00,00,00,00,
842368,00000196,false,Tx,0,8,75,30,75,30,20,00,75,2B,
842383,00000361,false,Tx,0,8,00,00,00,00,00,00,00,00,
842396,00000364,false,Tx,0,8,00,00,00,00,00,00,00,32,
842409,00000173,false,Tx,0,8,00,00,C7,C8,0C,DA,0C,D8,
843591,00000418,false,Tx,0,8,00,00,00,00,00,00,00,00,
843643,00000099,false,Tx,0,8,A0,8A,80,04,00,5D,00,F3,
843657,00000373,false,Tx,0,8,00,00,00,00,00,00,00,00,
843669,0000014B,false,Tx,0,8,01,8B,00,00,00,00,00,00,
844711,00000440,false,Tx,0,8,00,00,00,00,00,00,00,00,
844768,0000046A,false,Tx,0,8,00,20,00,00,00,40,00,03,
848208,00000185,false,Tx,0,4,00,00,00,10,00,00,00,00,
848244,000001E9,false,Tx,0,8,00,00,00,08,0F,F6,00,00,
849427,0000008A,false,Tx,0,8,7F,FF,00,04,00,02,3E,B8,
849462,000000AF,false,Tx,0,8,00,00,00,00,00,00,00,00,
850643,0000008E,false,Tx,0,8,5D,05,04,00,13,88,0E,C9,
850705,000000AF,false,Tx,0,8,00,00,00,00,00,00,00,00,
850720,00000167,false,Tx,0,8,0C,10,00,00,00,00,00,00,
851887,00000196,false,Tx,0,8,00,00,00,00,00,00,00,00,
851944,0000009D,false,Tx,0,8,20,02,80,70,00,0E,00,00,
851959,000001F1,false,Tx,0,8,0E,00,00,00,00,00,00,00,
851973,000001F2,false,Tx,0,2,20,00,00,00,00,00,00,00,
851986,000001E5,false,Tx,0,8,46,80,00,D8,00,7F,F3,92,
852000,000001F1,false,Tx,0,8,0E,00,00,00,08,74,00,00,
852013,000001F2,false,Tx,0,2,20,00,00,00,00,00,00,00,
853171,000001FD,false,Tx,0,8,00,00,00,00,00,00,00,00,
853204,0000022A,false,Tx,0,2,00,70,00,00,00,00,00,00,
853231,00000172,false,Tx,0,8,85,62,9D,85,62,9D,00,00,
853247,00000230,false,Tx,0,8,00,00,00,00,00,00,00,00,
853261,00000094,false,Tx,0,8,80,00,5B,FF,80,00,03,A7,
853274,00000094,false,Tx,0,8,80,00,00,00,00,00,03,00,
853288,00000099,false,Tx,0,8,A0,8B,80,04,00,5D,00,F2,
854454,000003C0,false,Tx,0,8,00,00,00,00,00,7E,40,00,
854510,000003C2,false,Tx,0,8,7F,FF,F9,DB,00,12,05,20,
857980,0000022A,false,Tx,0,8,02,43,43,08,43,42,43,00,
859187,00000088,false,Tx,0,8,00,00,F8,00,00,00,00,F8,
860403,0000008D,false,Tx,0,8,00,00,00,00,00,F0,00,F0,
860459,000000FB,false,Tx,0,8,11,FF,00,30,AB,80,05,F9,
860473,0000014F,false,Tx,0,8,02,88,00,00,00,00,00,00,
861630,000000DF,false,Tx,0,8,00,00,00,00,00,00,08,00,
861664,0000009D,false,Tx,0,8,30,03,80,70,00,0D,00,00,
861691,0000039A,false,Tx,0,8,00,43,00,00,8E,00,00,00,
861704,00000196,false,Tx,0,8,75,30,75,30,20,00,75,2B,
861715,0000019F,false,Tx,0,8,00,00,00,00,00,00,00,00,
861727,000001E1,false,Tx,0,7,40,BD,03,00,00,00,00,00,
861737,00000394,false,Tx,0,8,00,28,00,00,10,43,07,7C,
861748,0000049A,false,Tx,0,1,00,00,00,00,00,00,00,00,
861758,000001E5,false,Tx,0,8,46,80,00,E8,00,7F,F2,A3,
862905,000002EF,false,Tx,0,8,00,00,00,00,00,00,00,00,
862920,0000030C,false,Tx,0,8,E9,30,00,00,00,00,00,01,
862934,00000299,false,Tx,0,8,62,B7,D0,FF,FF,71,00,00,
862949,00000173,false,Tx,0,8,00,00,C7,C8,0C,DA,0C,D8,
864114,00000099,false,Tx,0,8,A0,8C,80,04,00,5D,00,F5,
867616,000000C1,false,Tx,0,8,B0,01,85,46,30,00,00,00,
