Time Stamp,ID,Extended,Dir,Bus,LEN,D1,D2,D3,D4,D5,D6,D7,D8
36501675,000001FD,false,Tx,0,8,00,00,00,00,00,00,00,00,
36501693,00000214,false,Tx,0,6,02,00,00,00,00,00,00,00,
36501708,00000227,false,Tx,0,8,00,00,00,30,FF,FE,80,00,
36501724,00000172,false,Tx,0,8,85,62,9D,85,62,9D,00,00,
36501740,0000022A,false,Tx,0,2,00,70,00,00,00,00,00,00,
36501755,00000094,false,Tx,0,8,80,00,1B,FF,80,00,03,E7,
36502901,00000099,false,Tx,0,8,A0,83,80,04,00,5D,00,FA,
36502916,00000230,false,Tx,0,8,00,00,00,00,00,00,00,00,
36502931,0000014B,false,Tx,0,8,01,8B,00,00,00,00,00,00,
36502947,00000244,false,Tx,0,8,00,00,20,04,00,00,00,00,
36504093,0000034A,false,Tx,0,8,00,00,00,00,00,00,00,00,
36507501,000000C5,false,Tx,0,8,20,00,00,00,20,00,00,00,
36507518,00000171,false,Tx,0,8,00,30,11,B0,87,42,AC,F8,
36507533,0000044C,false,Tx,0,1,01,00,00,00,00,00,00,00,
36508697,000000AF,false,Tx,0,8,00,00,00,00,00,00,00,00,
36508718,000000AC,false,Tx,0,8,04,70,78,A8,02,00,00,A6,
36508732,00000088,false,Tx,0,8,00,00,78,00,00,00,00,78,
36508743,0000008A,false,Tx,0,8,80,00,00,04,00,02,37,B1,
36508755,000000C7,false,Tx,0,4,00,00,00,00,00,00,00,00,
36509900,000000FB,false,Tx,0,8,11,FF,00,30,AB,44,05,FD,
36509918,0000008E,false,Tx,0,8,5D,05,04,00,13,88,07,C0,
36509935,0000019C,false,Tx,0,8,06,A0,26,9F,7F,FF,07,7F,
36509951,0000008F,false,Tx,0,8,00,00,00,00,00,00,00,00,
36509967,0000014F,false,Tx,0,8,02,48,00,00,00,00,00,00,
36509983,0000009B,false,Tx,0,8,00,00,00,00,1C,00,00,1C,
36509997,000001AF,false,Tx,0,8,00,00,00,00,00,00,00,00,
36510013,000000DF,false,Tx,0,8,00,00,00,00,00,00,08,00,
36510028,00000194,false,Tx,0,8,0F,0F,00,01,00,00,00,00,
36511174,0000009D,false,Tx,0,8,B0,0B,80,70,00,05,00,00,
36511192,00000196,false,Tx,0,8,75,30,75,30,20,00,75,2B,
36512338,00000173,false,Tx,0,8,00,00,C7,C8,0C,D9,0C,D8,
36513488,00000391,false,Tx,0,8,10,01,A0,00,B0,00,48,00,
36516903,00000185,false,Tx,0,4,00,00,00,0E,00,00,00,00,
36516930,0000022A,false,Tx,0,8,01,43,43,05,43,43,42,00,
36518077,000001E9,false,Tx,0,8,00,00,00,08,0F,F7,00,00,
36519229,0000008A,false,Tx,0,8,7F,FF,00,04,00,02,38,BE,
36519245,000000AF,false,Tx,0,8,00,00,18,00,00,A1,F6,00,
36519261,0000008E,false,Tx,0,8,5D,05,04,00,13,88,08,CF,
36520410,00000167,false,Tx,0,8,0C,10,00,00,00,00,00,00,
36520427,000000AF,false,Tx,0,8,00,00,00,00,00,00,00,00,
36520444,00000196,false,Tx,0,8,00,00,00,00,00,00,00,00,
36520458,000001F1,false,Tx,0,8,0E,00,00,00,00,00,00,00,
36520472,000001F2,false,Tx,0,2,20,00,00,00,00,00,00,00,
36520504,0000009D,false,Tx,0,8,C0,0C,80,70,00,04,00,00,
36521652,000001F1,false,Tx,0,8,0E,00,00,00,08,74,00,00,
36521667,000001F2,false,Tx,0,2,20,00,00,00,00,00,00,00,
36521679,000001FD,false,Tx,0,8,00,00,00,00,00,00,00,00,
36521693,0000022A,false,Tx,0,2,00,70,00,00,00,00,00,00,
36521706,00000230,false,Tx,0,8,00,00,00,00,00,00,00,00,
36521716,00000299,false,Tx,0,8,62,B7,D0,FF,FF,71,00,00,
36521730,00000242,false,Tx,0,8,00,00,00,00,00,08,00,00,
36521742,00000094,false,Tx,0,8,7F,FF,2B,FF,7F,FF,03,D7,
36522899,00000094,false,Tx,0,8,80,00,00,00,00,00,03,00,
36522913,00000244,false,Tx,0,8,00,00,20,04,00,00,00,00,
36522927,000003AC,false,Tx,0,8,00,5D,02,22,4B,FF,18,00,
36525225,000003C2,false,Tx,0,8,7F,FF,F9,E6,00,12,05,20,
36527509,00000171,false,Tx,0,8,00,30,15,B0,87,42,AC,FC,
36528666,000000AC,false,Tx,0,8,04,70,98,A8,02,00,00,46,
36528684,0000008E,false,Tx,0,8,5D,05,04,00,13,88,09,CE,
36529826,00000166,false,Tx,0,8,00,00,00,00,00,00,00,00,
36529841,0000009B,false,Tx,0,8,00,00,00,00,24,00,00,24,
36529856,000000DF,false,Tx,0,8,00,00,00,00,00,00,08,00,
36530999,00000196,false,Tx,0,8,75,30,75,30,20,00,75,2B,
36531015,0000019F,false,Tx,0,8,00,00,00,00,00,00,00,00,
36532167,0000029C,false,Tx,0,8,28,00,00,00,00,00,00,00,
36532182,00000173,false,Tx,0,8,00,00,C7,C8,0C,D9,0C,D8,
36533327,000002A2,false,Tx,0,8,86,00,20,C8,00,84,00,AC,
36534476,000003A6,false,Tx,0,8,00,00,00,00,00,00,00,00,
36534493,000003C2,false,Tx,0,8,7F,FF,F9,E7,00,12,05,20,
36536781,0000046B,false,Tx,0,8,0B,BC,00,F9,05,72,01,48,
36536817,000000C1,false,Tx,0,8,90,01,85,46,10,00,00,00,
36536830,00000185,false,Tx,0,4,00,00,00,10,00,00,00,00,
930,000001E9,false,Tx,0,8,00,00,00,08,0F,F6,00,00,
949,00000227,false,Tx,0,8,00,00,00,50,FF,FD,80,00,
965,00000088,false,Tx,0,8,00,00,A8,00,00,00,00,A8,
2116,0000008D,false,Tx,0,8,00,00,00,00,00,A0,00,A0,
3271,000000AF,false,Tx,0,8,00,00,00,00,00,00,00,00,
3290,00000167,false,Tx,0,8,0C,10,00,00,00,00,00,00,
3313,00000196,false,Tx,0,8,00,00,00,00,00,00,00,00,
4467,000001E5,false,Tx,0,8,46,80,00,98,00,7F,F7,D6,
4499,000001FD,false,Tx,0,8,00,00,00,00,00,00,00,00,
4530,00000358,false,Tx,0,8,00,00,00,00,00,00,00,00,
4545,00000204,false,Tx,0,8,08,00,00,00,00,00,00,00,
5696,0000021C,false,Tx,0,8,00,00,00,00,00,00,00,00,
5713,00000099,false,Tx,0,8,A0,87,80,04,00,5D,00,FE,
5729,0000014B,false,Tx,0,8,01,8B,00,00,00,00,00,00,
5745,000003BE,false,Tx,0,8,00,42,08,F1,1D,35,00,00,
6917,00000541,false,Tx,0,8,18,03,0B,0D,02,0C,00,00,
6949,00000297,false,Tx,0,8,00,03,00,00,00,00,20,00,
6980,000002FD,false,Tx,0,8,FA,00,00,00,00,00,00,00,
8144,00000319,false,Tx,0,8,83,2B,00,00,2B,B0,00,00,
9341,0000029B,false,Tx,0,8,3B,CA,86,02,FD,06,00,00,
9356,0000034F,false,Tx,0,8,00,00,00,00,00,00,00,00,
9370,000000C1,false,Tx,0,8,A0,01,85,46,20,00,00,00,
10536,00000348,false,Tx,0,8,00,00,00,00,00,00,00,00,
11754,000001E5,false,Tx,0,8,46,80,00,A8,00,7F,F6,E7,
11816,00000088,false,Tx,0,8,00,00,B8,00,00,00,00,B8,
11828,000000AC,false,Tx,0,8,04,70,B8,A8,02,00,00,66,
12979,0000008E,false,Tx,0,8,5D,05,04,00,13,88,0B,CC,
13008,0000019C,false,Tx,0,8,06,A0,26,9F,7F,FF,0B,7F,
13038,000001AF,false,Tx,0,8,00,00,00,00,00,00,00,00,
13053,00000194,false,Tx,0,8,0F,0F,00,01,00,00,00,00,
14092,00000196,false,Tx,0,8,75,30,75,30,20,00,75,2B,
14122,0000034A,false,Tx,0,8,00,00,00,00,00,00,00,00,
14151,00000361,false,Tx,0,8,00,00,00,00,00,00,00,00,
15306,00000364,false,Tx,0,8,00,00,00,00,00,00,00,32,
15335,00000173,false,Tx,0,8,00,00,C7,C8,0C,D9,0C,D8,
15368,0000029B,false,Tx,0,8,80,00,00,00,00,00,00,00,
15381,00000094,false,Tx,0,8,80,00,00,00,00,00,03,00,
15394,00000373,false,Tx,0,8,00,00,00,00,00,00,00,00,
16558,00000376,false,Tx,0,8,00,00,00,00,00,00,00,00,
16614,000003FA,false,Tx,0,8,1E,3E,1E,3E,00,00,00,00,
17786,00000541,false,Tx,0,8,18,03,0B,0D,02,4C,00,00,
20140,0000022C,false,Tx,0,8,04,47,8A,3C,48,F1,08,F1,
20197,00000185,false,Tx,0,4,00,00,00,10,00,00,00,00,
21385,00000232,false,Tx,0,8,00,00,00,00,00,00,00,00,
21443,0000008A,false,Tx,0,8,7F,FF,00,04,00,02,3C,BA,
22602,000000C7,false,Tx,0,4,00,00,00,00,00,00,00,00,
22654,0000008E,false,Tx,0,8,5D,05,04,00,13,88,0C,CB,
22684,0000009B,false,Tx,0,8,00,00,00,00,30,00,00,30,
23852,000001E5,false,Tx,0,8,46,80,00,B8,00,7F,F5,F4,
23908,000001F1,false,Tx,0,8,0E,00,00,00,00,00,00,00,
23922,0000009D,false,Tx,0,8,00,00,80,70,00,00,00,00,
23933,000001F2,false,Tx,0,2,20,00,00,00,00,00,00,00,
23943,0000041F,false,Tx,0,3,02,70,01,00,00,00,00,00,
23955,000001F1,false,Tx,0,8,0E,00,00,00,08,74,00,00,
23969,000001F2,false,Tx,0,2,20,00,00,00,00,00,00,00,
25116,000001FD,false,Tx,0,8,00,00,00,00,00,00,00,00,
25129,0000022A,false,Tx,0,2,00,70,00,00,00,00,00,00,
25138,00000230,false,Tx,0,8,00,00,00,00,00,00,00,00,
25148,00000172,false,Tx,0,8,85,62,9D,85,62,9D,00,00,
25159,00000094,false,Tx,0,8,80,00,00,00,00,00,03,00,
25169,00000094,false,Tx,0,8,7F,FF,4B,FF,7F,FF,03,B7,
25179,00000099,false,Tx,0,8,A0,89,80,04,00,5D,00,F0,
25189,00000244,false,Tx,0,8,00,00,20,04,00,00,00,00,
26347,0000022B,false,Tx,0,8,0E,47,8A,3C,48,F1,08,F1,
29860,000000C1,false,Tx,0,8,80,01,85,46,00,00,00,00,
29915,000001C7,false,Tx,0,8,00,00,00,00,00,18,00,00,
32210,00000088,false,Tx,0,8,00,00,D8,00,00,00,00,D8,
32265,000000C7,false,Tx,0,4,00,00,00,00,00,00,00,00,
32285,000000FB,false,Tx,0,8,11,FF,00,30,AB,71,05,FA,
32299,0000008E,false,Tx,0,8,5D,05,04,00,13,88,0D,CA,
33464,000001AF,false,Tx,0,8,00,00,00,00,00,00,00,00,
33517,000001E1,false,Tx,0,7,40,BF,01,00,00,00,00,00,
33531,000000DF,false,Tx,0,8,00,00,00,00,00,00,08,00,
33545,00000196,false,Tx,0,8,75,30,75,30,20,00,75,2B,
33556,0000019F,false,Tx,0,8,00,00,00,00,00,00,00,00,
33567,0000009D,false,Tx,0,8,10,01,80,70,00,0F,00,00,
33577,000001E5,false,Tx,0,8,46,80,00,C8,00,7F,F4,85,
33589,00000394,false,Tx,0,8,00,28,00,00,10,43,0A,71,
34791,0000049A,false,Tx,0,1,00,00,00,00,00,00,00,00,
34843,000002EF,false,Tx,0,8,FA,60,00,00,00,00,00,00,
34861,0000030C,false,Tx,0,8,E9,30,00,00,00,00,00,01,
34873,00000389,false,Tx,0,8,00,00,00,00,00,00,00,00,
34884,00000173,false,Tx,0,8,00,00,C7,C8,0C,DA,0C,D8,
34909,00000094,false,Tx,0,8,80,00,53,FF,80,00,03,AF,
36065,000003A3,false,Tx,0,8,00,00,00,00,00,00,00,00,
39578,00000293,false,Tx,0,8,8C,00,B3,26,21,40,00,00,
40784,000000AC,false,Tx,0,8,04,70,E8,A8,02,00,00,36,
40851,00000088,false,Tx,0,8,00,00,E8,00,00,00,00,E8,
42030,000000F1,false,Tx,0,8,00,00,00,00,00,00,00,00,
42085,00000165,false,Tx,0,8,00,00,06,A0,E5,80,00,00,
42101,0000009B,false,Tx,0,8,00,00,00,00,38,00,00,38,
43267,00000169,false,Tx,0,6,3B,19,60,F7,3C,00,00,00,
43321,00000196,false,Tx,0,8,00,00,00,00,00,00,00,00,
43335,000001F2,false,Tx,0,2,20,00,00,00,00,00,00,00,
43349,000001F1,false,Tx,0,8,0E,00,00,00,00,00,00,00,
43363,000001F2,false,Tx,0,2,20,00,00,00,00,00,00,00,
43376,000001FD,false,Tx,0,8,00,00,00,00,00,00,00,00,
44541,0000009D,false,Tx,0,8,20,02,80,70,00,0E,00,00,
44598,00000242,false,Tx,0,8,00,00,00,00,00,08,00,00,
44613,00000227,false,Tx,0,8,00,00,00,70,FF,FC,80,00,
44636,0000022A,false,Tx,0,2,00,70,00,00,00,00,00,00,
44649,00000230,false,Tx,0,8,00,00,00,00,00,00,00,00,
44663,00000232,false,Tx,0,8,00,00,00,00,00,00,00,00,
44678,00000172,false,Tx,0,8,85,62,9D,85,62,9D,00,00,
45847,00000094,false,Tx,0,8,7F,FF,5B,FF,7F,FF,03,A7,
45896,00000099,false,Tx,0,8,A0,8B,80,04,00,5D,00,F2,
45908,00000246,false,Tx,0,8,00,00,00,00,00,00,00,00,
45920,000003AC,false,Tx,0,8,00,00,02,22,06,2B,4E,3F,
49396,00000297,false,Tx,0,8,01,03,E0,00,C3,0C,A6,8B,
51762,00000166,false,Tx,0,8,00,00,00,00,00,00,00,00,
51819,00000088,false,Tx,0,8,00,00,F8,00,00,00,00,F8,
51835,0000008A,false,Tx,0,8,7F,FF,00,04,00,02,3F,B9,
51856,000000AF,false,Tx,0,8,00,00,3C,00,00,11,FF,00,
53041,0000009B,false,Tx,0,8,00,00,00,00,3C,00,00,3C,
53099,000001AF,false,Tx,0,8,00,00,00,00,00,00,00,00,
53114,000000AF,false,Tx,0,8,00,00,00,00,00,00,00,00,
53129,00000194,false,Tx,0,8,0F,0F,00,01,00,00,00,00,
53142,000000DF,false,Tx,0,8,00,00,00,00,00,00,08,00,
53154,000001E5,false,Tx,0,8,46,80,00,E8,00,7F,F2,A3,
53166,0000019F,false,Tx,0,8,00,00,00,00,00,00,00,00,
54327,00000196,false,Tx,0,8,75,30,75,30,20,00,75,2B,
54382,0000009D,false,Tx,0,8,30,03,80,70,00,0D,00,00,
54397,00000204,false,Tx,0,8,08,00,00,00,00,00,00,00,
54411,0000021C,false,Tx,0,8,00,00,00,00,00,00,00,00,
55560,00000297,false,Tx,0,8,00,03,00,00,00,00,20,00,
55575,00000094,false,Tx,0,8,80,00,63,FF,7F,FF,03,9F,
55591,0000014B,false,Tx,0,8,01,8B,00,00,00,00,00,00,
59055,000002B5,false,Tx,0,8,C0,82,34,00,00,00,00,76,
60259,0000017D,false,Tx,0,7,20,20,00,00,00,00,00,00,
60313,00000185,false,Tx,0,4,00,00,00,0E,00,00,00,00,
61475,000000F1,false,Tx,0,8,00,00,00,00,00,00,00,00,
61530,000000AF,false,Tx,0,8,00,00,38,00,00,21,FE,00,
61558,0000008D,false,Tx,0,8,00,00,00,00,00,00,00,00,
62716,000000FB,false,Tx,0,8,11,FF,00,30,AB,80,05,F9,
62731,00000166,false,Tx,0,8,00,00,00,00,00,00,00,00,
63884,00000196,false,Tx,0,8,00,00,00,00,00,00,00,00,
63899,000001E1,false,Tx,0,7,40,BE,02,00,00,00,00,00,
63915,000001F1,false,Tx,0,8,0E,00,00,00,00,00,00,00,
63926,0000009D,false,Tx,0,8,40,04,80,70,00,0C,00,00,
63944,000001E5,false,Tx,0,8,46,80,00,F8,00,7F,F1,B0,
63962,000001F2,false,Tx,0,2,20,00,00,00,00,00,00,00,
65140,00000214,false,Tx,0,6,06,00,00,00,00,00,00,00,
65196,00000172,false,Tx,0,8,85,62,9D,85,62,9D,00,00,
65213,00000227,false,Tx,0,8,00,00,00,80,FF,FC,00,00,
65228,00000094,false,Tx,0,8,80,00,00,00,00,00,03,00,
65244,0000022A,false,Tx,0,2,00,70,00,00,00,00,00,00,
65259,0000014B,false,Tx,0,8,01,8B,00,00,00,00,00,00,
66423,00000230,false,Tx,0,8,00,00,00,00,00,00,00,00,
66474,00000242,false,Tx,0,8,00,00,00,00,00,08,00,00,
67646,0000034A,false,Tx,0,8,00,00,00,00,00,00,00,00,
68855,000003C2,false,Tx,0,8,7F,FF,F9,E1,00,12,05,20,
70079,000001C7,false,Tx,0,8,00,00,00,00,00,00,00,00,
70137,0000044C,false,Tx,0,1,01,00,00,00,00,00,00,00,
71300,000001E5,false,Tx,0,8,46,80,00,08,00,80,00,4E,
71351,000000AF,false,Tx,0,8,00,00,00,00,00,00,00,00,
71368,000000AC,false,Tx,0,8,04,70,18,A8,02,00,00,C6,
71399,00000088,false,Tx,0,8,00,00,18,00,00,00,00,18,
72569,0000008D,false,Tx,0,8,00,00,00,00,00,10,00,10,
72625,000000FB,false,Tx,0,8,11,FF,00,30,AB,9F,05,F8,
72642,0000008E,false,Tx,0,8,5D,05,04,00,13,88,01,C6,
72658,0000019C,false,Tx,0,8,06,A0,26,9F,7F,FF,01,7F,
72673,0000008F,false,Tx,0,8,00,00,00,00,00,00,00,00,
72688,0000014F,false,Tx,0,8,02,98,00,00,00,00,00,00,
72711,0000009B,false,Tx,0,8,00,00,00,00,04,00,00,04,
72727,000001AF,false,Tx,0,8,00,00,00,00,00,00,00,00,
73893,000000DF,false,Tx,0,8,00,00,00,00,00,00,08,00,
73949,00000194,false,Tx,0,8,0F,0F,00,01,00,00,00,00,
73966,0000019F,false,Tx,0,8,00,00,00,00,00,00,00,00,
75132,00000173,false,Tx,0,8,00,00,C7,C8,0C,DA,0C,D8,
76297,00000391,false,Tx,0,8,10,01,A0,00,B0,00,48,00,
78656,000003C2,false,Tx,0,8,7F,FF,F9,E7,00,12,05,20,
79863,00000295,false,Tx,0,8,96,2C,00,02,34,4E,3F,FD,
81071,000001E9,false,Tx,0,8,00,00,00,08,0F,F6,00,00,
81088,000000AF,false,Tx,0,8,00,00,30,00,00,41,FC,00,
36566396,00000323,false,Rx,0,8,00,00,00,00,00,00,00,00,
36566408,00000324,false,Rx,0,8,70,46,40,4A,49,00,00,7B,
36566414,0000033B,false,Rx,0,8,80,00,00,51,00,00,00,00,
36566420,0000033D,false,Rx,0,8,00,00,30,20,00,18,00,00,
36566426,0000039F,false,Rx,0,8,44,71,00,B0,04,7D,07,FB,
36566432,000003A2,false,Rx,0,8,21,67,10,5C,03,FF,00,F6,
36566438,000003A4,false,Rx,0,8,00,00,06,00,05,00,00,00,
36566444,000003B7,false,Rx,0,8,00,00,00,00,00,0C,73,41,
36566450,00000491,false,Rx,0,8,00,00,00,00,00,00,00,00,
82253,000000FB,false,Tx,0,8,11,FF,00,30,AB,9F,05,F8,
82298,00000165,false,Tx,0,8,00,00,06,A0,E5,7E,02,00,
82316,00000169,false,Tx,0,6,3B,19,60,F7,3C,00,00,00,
82332,000000AF,false,Tx,0,8,00,00,00,00,00,00,00,00,
83499,00000196,false,Tx,0,8,00,00,00,00,00,00,00,00,
83553,000001F1,false,Tx,0,8,0E,00,00,00,00,00,00,00,
83571,000001F2,false,Tx,0,2,20,00,00,00,00,00,00,00,
83586,000001FD,false,Tx,0,8,00,00,00,00,00,00,00,00,
83603,0000009D,false,Tx,0,8,60,06,80,70,00,0A,00,00,
84784,00000227,false,Tx,0,8,00,00,00,90,FF,FB,80,00,
84824,0000022A,false,Tx,0,2,00,70,00,00,00,00,00,00,
84840,00000230,false,Tx,0,8,00,00,00,00,00,00,00,00,
84858,00000232,false,Tx,0,8,00,00,00,00,00,00,00,00,
84876,00000299,false,Tx,0,8,62,B7,D0,FF,FF,71,00,00,
84894,00000242,false,Tx,0,8,00,00,00,00,00,08,00,00,
84911,00000094,false,Tx,0,8,7F,FF,7B,FF,7F,FF,03,87,
84928,00000094,false,Tx,0,8,80,00,00,00,00,00,03,00,
84962,00000099,false,Tx,0,8,A0,8F,80,04,00,5D,00,F6,
86127,00000334,false,Tx,0,8,00,00,00,00,00,00,08,00,
86179,000003AC,false,Tx,0,8,00,5D,02,22,4B,FF,18,00,
89629,00000171,false,Tx,0,8,00,30,29,B0,87,02,AC,80,
91931,00000088,false,Tx,0,8,00,00,38,00,00,00,00,38,
91978,000000FB,false,Tx,0,8,11,FF,00,30,AB,AE,05,F7,
91998,0000008E,false,Tx,0,8,5D,05,04,00,13,88,03,C4,
93166,0000009B,false,Tx,0,8,00,00,00,00,0C,00,00,0C,
93211,000000DF,false,Tx,0,8,00,00,00,00,00,00,08,00,
93229,0000019F,false,Tx,0,8,00,00,00,00,00,00,00,00,
94396,0000009D,false,Tx,0,8,70,07,80,70,00,09,00,00,
94447,000001E5,false,Tx,0,8,46,80,00,28,00,7F,FE,6F,
95614,00000173,false,Tx,0,8,00,00,C7,C8,0C,DA,0C,D8,
95666,00000099,false,Tx,0,8,A0,80,80,04,00,5D,00,F9,
96839,0000039B,false,Tx,0,8,44,43,9D,00,00,00,2C,B6,
96881,000003A6,false,Tx,0,8,00,00,00,00,00,00,00,00,
98045,000003E2,false,Tx,0,8,1E,B6,17,A2,63,4D,63,5B,
99238,0000046B,false,Tx,0,8,0B,BD,00,F9,05,71,01,48,
99279,0000046C,false,Tx,0,8,00,45,00,00,00,00,00,06,
100448,00000185,false,Tx,0,4,00,00,00,10,00,00,00,00,
100490,000001E9,false,Tx,0,8,00,00,00,08,0F,F6,00,00,
100508,0000046F,false,Tx,0,8,00,00,00,00,00,20,00,00,
101675,00000088,false,Tx,0,8,00,00,48,00,00,00,00,48,
101725,000000C7,false,Tx,0,4,00,00,00,00,00,00,00,00,
101743,0000008E,false,Tx,0,8,5D,05,04,00,13,88,04,C3,
102914,000000AF,false,Tx,0,8,00,00,00,00,00,00,00,00,
102965,0000019C,false,Tx,0,8,06,A0,26,9F,7F,FE,04,7F,
104130,0000009D,false,Tx,0,8,80,08,80,70,00,08,00,00,
104187,000001F2,false,Tx,0,2,20,00,00,00,00,00,00,00,
104215,00000356,false,Tx,0,8,00,00,00,1E,3E,00,00,00,
105371,00000204,false,Tx,0,8,08,00,00,00,00,00,00,00,
105389,0000021C,false,Tx,0,8,00,00,00,00,00,00,00,00,
105407,00000094,false,Tx,0,8,80,00,00,00,00,00,03,00,
105426,00000230,false,Tx,0,8,00,00,00,00,00,00,00,00,
105444,0000014B,false,Tx,0,8,01,8B,00,00,00,00,00,00,
106614,000003BE,false,Tx,0,8,00,42,08,F1,1D,35,00,00,
106658,00000400,false,Tx,0,8,71,40,02,00,00,40,06,00,
106677,000002FD,false,Tx,0,8,FA,00,00,00,00,00,00,00,
107847,0000030B,false,Tx,0,8,00,00,00,00,06,20,06,20,
107891,0000031B,false,Tx,0,8,00,00,B0,18,00,00,00,00,
109061,00000343,false,Tx,0,8,00,00,00,00,00,00,00,00,
109103,0000029B,false,Tx,0,8,3B,CA,86,02,FD,06,00,00,
110274,000001C7,false,Tx,0,8,00,00,00,00,00,08,00,00,
110325,00000214,false,Tx,0,6,00,00,00,00,00,00,00,00,
111498,000001E5,false,Tx,0,8,46,80,00,48,00,7F,FC,0D,
111549,000000AC,false,Tx,0,8,04,70,58,A8,02,00,00,86,
112723,0000009B,false,Tx,0,8,00,00,00,00,14,00,00,14,
112770,0000008A,false,Tx,0,8,80,00,00,04,00,02,35,B3,
112792,0000008E,false,Tx,0,8,5D,05,04,00,13,88,05,C2,
113962,000001AF,false,Tx,0,8,00,00,00,00,00,00,00,00,
114017,00000194,false,Tx,0,8,0F,0F,00,01,00,00,00,00,
114052,0000019F,false,Tx,0,8,00,00,00,00,00,00,00,00,
114071,0000034A,false,Tx,0,8,00,00,00,00,00,00,00,00,
114091,0000009D,false,Tx,0,8,90,09,80,70,00,07,00,00,
114111,00000196,false,Tx,0,8,75,30,75,30,20,00,75,2B,
115284,00000364,false,Tx,0,8,00,00,00,00,00,00,00,32,
115333,00000173,false,Tx,0,8,00,00,C7,C8,0C,DA,0C,D8,
115353,0000029B,false,Tx,0,8,80,00,00,00,00,00,00,00,
115373,00000094,false,Tx,0,8,80,00,00,00,00,00,03,00,
115394,00000373,false,Tx,0,8,00,00,00,00,00,00,00,00,
116565,0000046A,false,Tx,0,8,00,20,00,00,00,40,00,03,
118905,000003C2,false,Tx,0,8,7F,FF,F9,E8,00,12,05,20,
120109,00000295,false,Tx,0,8,B6,2B,00,02,34,4E,3F,DA,
120159,000001E9,false,Tx,0,8,00,00,00,08,0F,F7,00,00,
121333,00000232,false,Tx,0,8,00,00,00,00,00,00,00,00,
121378,0000008A,false,Tx,0,8,7F,FF,00,04,00,02,36,B0,
122550,000000C7,false,Tx,0,4,00,00,00,00,00,00,00,00,
122598,0000008E,false,Tx,0,8,5D,05,04,00,13,88,06,C1,
122618,000000AF,false,Tx,0,8,00,00,00,00,00,00,00,00,
123776,00000196,false,Tx,0,8,00,00,00,00,00,00,00,00,
123798,000001E1,false,Tx,0,7,40,C0,00,00,00,00,00,00,
123819,000001F1,false,Tx,0,8,0E,00,00,00,00,00,00,00,
123845,000001F2,false,Tx,0,2,20,00,00,00,00,00,00,00,
123861,0000009D,false,Tx,0,8,A0,0A,80,70,00,06,00,00,
123882,000001E5,false,Tx,0,8,46,80,00,58,00,7F,FB,1A,
125055,000001F1,false,Tx,0,8,0E,00,00,00,08,74,00,00,
125097,000001F2,false,Tx,0,2,20,00,00,00,00,00,00,00,
125116,000001FD,false,Tx,0,8,00,00,00,00,00,00,00,00,
125135,0000022A,false,Tx,0,2,00,70,00,00,00,00,00,00,
125154,00000172,false,Tx,0,8,85,62,9D,85,62,9D,00,00,
125174,00000094,false,Tx,0,8,80,00,00,00,00,00,03,00,
125195,00000094,false,Tx,0,8,7F,FF,1B,FF,7F,FF,03,E7,
125215,00000230,false,Tx,0,8,00,00,00,00,00,00,00,00,
126370,0000014B,false,Tx,0,8,01,8B,00,00,00,00,00,00,
126390,00000244,false,Tx,0,8,00,00,20,04,00,00,00,00,
129853,000000C5,false,Tx,0,8,20,00,00,00,20,00,00,00,
131055,0000008D,false,Tx,0,8,00,00,00,00,00,70,00,70,
132255,00000088,false,Tx,0,8,00,00,78,00,00,00,00,78,
132305,000000AC,false,Tx,0,8,04,70,78,A8,02,00,00,A6,
132326,0000008F,false,Tx,0,8,00,00,00,00,00,00,00,00,
133501,0000009B,false,Tx,0,8,00,00,00,00,1C,00,00,1C,
133544,00000194,false,Tx,0,8,0F,0F,00,01,00,00,00,00,
133569,0000039A,false,Tx,0,8,00,43,00,00,CD,00,00,00,
133591,000001E5,false,Tx,0,8,46,80,00,68,00,7F,FA,2B,
133613,00000196,false,Tx,0,8,75,30,75,30,20,00,75,2B,
133635,0000019F,false,Tx,0,8,00,00,00,00,00,00,00,00,
134812,0000009D,false,Tx,0,8,B0,0B,80,70,00,05,00,00,
134860,00000394,false,Tx,0,8,00,28,00,00,10,43,0B,70,
134882,0000049A,false,Tx,0,1,00,00,00,00,00,00,00,00,
134902,000002EF,false,Tx,0,8,F8,80,00,00,00,00,00,00,
134924,0000030C,false,Tx,0,8,E9,30,00,00,00,00,00,01,
134947,00000389,false,Tx,0,8,00,00,00,00,00,00,00,00,
134970,00000299,false,Tx,0,8,62,B7,D0,FF,FF,71,00,00,
136144,0000038B,false,Tx,0,8,1B,00,01,00,00,44,03,E8,
136194,000003A3,false,Tx,0,8,00,00,00,00,00,00,00,00,
139662,00000295,false,Tx,0,8,C6,2B,00,02,34,4E,3F,AA,
139710,000000C1,false,Tx,0,8,B0,01,85,46,30,00,00,00,
142046,0000008A,false,Tx,0,8,80,00,00,04,00,02,38,BE,
142086,000000F1,false,Tx,0,8,00,00,00,00,00,00,00,00,
142109,00000165,false,Tx,0,8,00,00,06,A0,E5,7B,05,00,
142131,0000008F,false,Tx,0,8,00,00,00,00,00,00,00,00,
143290,000000DF,false,Tx,0,8,00,00,00,00,00,00,08,00,
143311,000001E5,false,Tx,0,8,46,80,00,78,00,7F,F9,38,
143334,00000196,false,Tx,0,8,00,00,00,00,00,00,00,00,
143356,000001F2,false,Tx,0,2,20,00,00,00,00,00,00,00,
143376,000001F1,false,Tx,0,8,0E,00,00,00,00,00,00,00,
143398,000001F2,false,Tx,0,2,20,00,00,00,00,00,00,00,
143423,000001FD,false,Tx,0,8,00,00,00,00,00,00,00,00,
144599,0000009D,false,Tx,0,8,C0,0C,80,70,00,04,00,00,
144647,00000227,false,Tx,0,8,00,00,00,C0,FF,FA,00,00,
144668,0000022A,false,Tx,0,2,00,70,00,00,00,00,00,00,
144690,00000230,false,Tx,0,8,00,00,00,00,00,00,00,00,
144712,00000232,false,Tx,0,8,00,00,00,00,00,00,00,00,
144734,00000172,false,Tx,0,8,85,62,9D,85,62,9D,00,00,
144756,00000242,false,Tx,0,8,00,00,00,00,00,08,00,00,
145920,00000094,false,Tx,0,8,80,00,2B,FF,80,00,03,D7,
145944,000002A2,false,Tx,0,8,86,00,20,C8,00,84,00,AC,
145967,00000391,false,Tx,0,8,10,01,A0,00,B0,00,48,00,
149443,000003C2,false,Tx,0,8,7F,FF,F9,DF,00,12,05,20,
150637,000001C7,false,Tx,0,8,00,00,00,00,00,10,00,00,
151837,00000088,false,Tx,0,8,00,00,98,00,00,00,00,98,
151883,000000AC,false,Tx,0,8,04,70,98,A8,02,00,00,46,
151911,0000008A,false,Tx,0,8,80,00,00,04,00,02,39,BF,
151938,000000FB,false,Tx,0,8,11,FF,00,30,AB,DB,05,F4,
153117,000001AF,false,Tx,0,8,00,00,00,00,00,00,00,00,
153168,000000AF,false,Tx,0,8,00,00,00,00,00,00,00,00,
153194,00000194,false,Tx,0,8,0F,0F,00,01,00,00,00,00,
153219,000000DF,false,Tx,0,8,00,00,00,00,00,00,08,00,
153247,000001E1,false,Tx,0,7,40,BF,01,00,00,00,00,00,
153274,0000019F,false,Tx,0,8,00,00,00,00,00,00,00,00,
154453,00000196,false,Tx,0,8,75,30,75,30,20,00,75,2B,
154491,0000009D,false,Tx,0,8,D0,0D,80,70,00,03,00,00,
154518,000001E5,false,Tx,0,8,46,80,00,88,00,7F,F8,C9,
154544,00000204,false,Tx,0,8,08,00,00,00,00,00,00,00,
154569,000002F6,false,Tx,0,8,80,00,00,00,00,01,00,00,
155747,00000094,false,Tx,0,8,7F,FF,33,FF,7F,FF,03,CF,
155794,00000099,false,Tx,0,8,A0,86,80,04,00,5D,00,FF,
155819,0000046A,false,Tx,0,8,00,20,00,00,00,40,00,03,
159301,000003C2,false,Tx,0,8,7F,FF,F9,E8,00,12,05,20,
160503,000001C7,false,Tx,0,8,00,00,7F,FF,00,12,00,00,
160552,000001E9,false,Tx,0,8,00,00,00,08,0F,F7,00,00,
161724,0000008A,false,Tx,0,8,7F,FF,00,04,00,02,3A,BC,
161772,000000C7,false,Tx,0,4,00,00,00,00,00,00,00,00,
161797,0000008D,false,Tx,0,8,00,00,00,00,00,A0,00,A0,
162990,00000167,false,Tx,0,8,0C,10,00,00,00,00,00,00,
163036,000000DF,false,Tx,0,8,00,00,00,00,00,00,08,00,
163061,000001E5,false,Tx,0,8,46,80,00,98,00,7F,F7,D6,
163086,00000196,false,Tx,0,8,00,00,00,00,00,00,00,00,
164257,000001F1,false,Tx,0,8,0E,00,00,00,00,00,00,00,
164304,0000009D,false,Tx,0,8,E0,0E,80,70,00,02,00,00,
164330,000001FC,false,Tx,0,8,00,00,00,CC,00,00,40,00,
164355,000001FD,false,Tx,0,8,00,00,00,00,00,00,00,00,
164381,00000214,false,Tx,0,6,02,00,00,00,00,00,00,00,
165543,00000172,false,Tx,0,8,85,62,9D,85,62,9D,00,00,
165568,0000022A,false,Tx,0,2,00,70,00,00,00,00,00,00,
165593,00000099,false,Tx,0,8,A0,87,80,04,00,5D,00,FE,
165619,00000230,false,Tx,0,8,00,00,00,00,00,00,00,00,
165645,0000014B,false,Tx,0,8,01,8B,00,00,00,00,00,00,
165671,00000242,false,Tx,0,8,00,00,00,00,00,08,00,00,
167996,00000418,false,Tx,0,8,00,00,00,00,00,00,00,80,
168042,00000419,false,Tx,0,8,00,00,00,00,00,00,03,4C,
169212,00000171,false,Tx,0,8,00,30,39,B0,87,42,AC,D0,
171552,000000F1,false,Tx,0,8,00,00,00,00,00,00,00,00,
171597,00000166,false,Tx,0,8,00,00,00,00,00,00,00,00,
171627,000001E5,false,Tx,0,8,46,80,00,A8,00,7F,F6,E7,
171658,000000AF,false,Tx,0,8,00,00,00,00,00,00,00,00,
171689,00000088,false,Tx,0,8,00,00,B8,00,00,00,00,B8,
172871,000000C7,false,Tx,0,4,00,00,00,00,00,00,00,00,
172915,0000008D,false,Tx,0,8,00,00,00,00,00,B0,00,B0,
172947,000000FB,false,Tx,0,8,11,FF,00,30,AB,EA,05,F3,
172978,0000008E,false,Tx,0,8,5D,05,04,00,13,88,0B,CC,
173010,0000019C,false,Tx,0,8,06,A0,26,9F,7F,FE,0B,7F,
173044,0000008F,false,Tx,0,8,00,00,00,00,00,00,00,00,
173076,0000014F,false,Tx,0,8,02,E8,00,00,00,00,00,00,
173108,0000009B,false,Tx,0,8,00,00,00,00,2C,00,00,2C,
173138,000001AF,false,Tx,0,8,00,00,00,00,00,00,00,00,
174321,000000DF,false,Tx,0,8,00,00,00,00,00,00,08,00,
174367,00000196,false,Tx,0,8,75,30,75,30,20,00,75,2B,
174396,0000009D,false,Tx,0,8,F0,0F,80,70,00,01,00,00,
175570,00000099,false,Tx,0,8,A0,88,80,04,00,5D,00,F1,
179050,00000163,false,Tx,0,8,40,05,40,02,08,00,02,00,
36668356,00000323,false,Rx,0,8,00,00,00,00,00,00,00,00,
36668368,00000324,false,Rx,0,8,70,46,3B,4A,49,00,00,7B,
36668374,0000033B,false,Rx,0,8,80,00,00,51,00,00,00,00,
36668380,0000033D,false,Rx,0,8,00,00,30,20,00,18,00,00,
36668386,0000039F,false,Rx,0,8,44,71,00,B0,04,7D,08,F4,
36668392,000003A2,false,Rx,0,8,21,67,10,60,03,FF,00,CA,
36668398,000003A4,false,Rx,0,8,00,00,06,00,05,00,00,00,
36668404,000003B7,false,Rx,0,8,00,00,00,00,00,0D,3F,41,
36668410,00000491,false,Rx,0,8,00,00,00,00,00,00,00,00,
180234,0000022A,false,Tx,0,8,05,43,42,01,43,43,43,00,
180262,000003A8,false,Tx,0,8,00,00,00,FF,C0,00,40,00,
181441,000000F1,false,Tx,0,8,00,00,00,00,00,00,00,00,
181486,000000AF,false,Tx,0,8,00,00,08,00,00,E1,F2,00,
182664,0000008F,false,Tx,0,8,00,00,00,00,00,00,00,00,
182711,00000165,false,Tx,0,8,00,00,06,A0,E5,79,07,00,
182745,00000167,false,Tx,0,8,0C,10,00,00,00,00,00,00,
183997,000001E1,false,Tx,0,7,40,BE,02,00,00,00,00,00,
184085,000001F2,false,Tx,0,2,20,00,00,00,00,00,00,00,
184123,000001E5,false,Tx,0,8,46,80,00,B8,00,7F,F5,F4,
184157,0000041F,false,Tx,0,3,02,70,01,00,00,00,00,00,
184182,0000009D,false,Tx,0,8,00,00,80,70,00,00,00,00,
184208,000001F1,false,Tx,0,8,0E,00,00,00,08,74,00,00,
184231,000001F2,false,Tx,0,2,20,00,00,00,00,00,00,00,
185409,000001FD,false,Tx,0,8,00,00,00,00,00,00,00,00,
185457,0000022A,false,Tx,0,2,00,70,00,00,00,00,00,00,
185490,00000299,false,Tx,0,8,62,B7,D0,FF,FF,71,00,00,
185516,00000230,false,Tx,0,8,00,00,00,00,00,00,00,00,
185555,00000094,false,Tx,0,8,7F,FF,4B,FF,7F,FF,03,B7,
185576,00000094,false,Tx,0,8,80,00,00,00,00,00,03,00,
185617,00000099,false,Tx,0,8,A0,89,80,04,00,5D,00,F0,
185635,0000014B,false,Tx,0,8,01,8B,00,00,00,00,00,00,
186793,000003AC,false,Tx,0,8,00,5D,02,22,4B,FF,18,00,
189111,000003C2,false,Tx,0,8,7F,FF,F9,EA,00,12,05,20,
190292,000001C7,false,Tx,0,8,00,00,00,00,00,18,00,00,
191471,00000088,false,Tx,0,8,00,00,D8,00,00,00,00,D8,
192643,00000166,false,Tx,0,8,00,00,00,00,00,00,00,00,
192675,0000008F,false,Tx,0,8,00,00,00,00,00,00,00,00,
192708,000000AF,false,Tx,0,8,00,00,00,00,00,00,00,00,
193887,000000DF,false,Tx,0,8,00,00,00,00,00,00,08,00,
193917,0000019F,false,Tx,0,8,00,00,00,00,00,00,00,00,
193944,000001E5,false,Tx,0,8,46,80,00,C8,00,7F,F4,85,
195122,00000094,false,Tx,0,8,80,00,00,00,00,00,03,00,
196289,0000029C,false,Tx,0,8,28,00,00,00,00,00,00,00,
196317,000002A2,false,Tx,0,8,86,00,20,C8,00,84,00,AC,
197484,000003DE,false,Tx,0,8,01,F2,01,F3,01,F2,01,F5,
198645,00000464,false,Tx,0,8,08,00,08,00,00,00,00,00,
199804,000003C2,false,Tx,0,8,7F,FF,F9,F4,00,12,05,20,
199828,0000046D,false,Tx,0,8,02,AE,02,AE,00,00,01,02,
199853,00000297,false,Tx,0,8,01,03,E0,00,C3,0C,A9,84,
201012,0000046F,false,Tx,0,8,00,00,00,00,00,20,00,00,
202174,000000FB,false,Tx,0,8,11,FF,00,30,AB,F9,05,F2,
202196,0000008D,false,Tx,0,8,00,00,00,00,00,E0,00,E0,
202218,00000166,false,Tx,0,8,00,00,00,00,00,00,00,00,
203378,000000AF,false,Tx,0,8,00,00,00,00,00,00,00,00,
203398,000001F1,false,Tx,0,8,0E,00,00,00,00,00,00,00,
203418,000001FD,false,Tx,0,8,00,00,00,00,00,00,00,00,
204572,00000204,false,Tx,0,8,08,00,00,00,00,00,00,00,
204594,00000227,false,Tx,0,8,00,00,00,F0,FF,F8,80,00,
204616,00000358,false,Tx,0,8,00,00,00,00,00,00,00,00,
205773,00000230,false,Tx,0,8,00,00,00,00,00,00,00,00,
205793,00000094,false,Tx,0,8,80,00,00,00,00,00,03,00,
205813,0000014B,false,Tx,0,8,01,8B,00,00,00,00,00,00,
205833,00000242,false,Tx,0,8,00,00,00,00,00,08,00,00,
205855,000003FC,false,Tx,0,8,1E,3E,00,00,00,00,00,00,
207014,00000540,false,Tx,0,8,00,52,AB,00,00,00,00,00,
207035,0000030B,false,Tx,0,8,00,00,00,00,06,20,06,20,
207073,00000319,false,Tx,0,8,83,29,00,00,2B,AF,00,00,
208229,0000032E,false,Tx,0,8,00,00,00,00,00,00,00,00,
209384,000003C2,false,Tx,0,8,7F,FF,F9,EE,00,12,05,20,
210539,000001C7,false,Tx,0,8,00,00,BF,FE,00,1C,00,00,
210557,000001FC,false,Tx,0,8,00,00,00,B5,00,00,80,00,
211712,000000F1,false,Tx,0,8,00,00,00,00,00,00,00,00,
211730,000000AF,false,Tx,0,8,00,00,00,00,00,00,00,00,
211749,000000AF,false,Tx,0,8,00,00,3C,00,00,11,FF,00,
212906,000000C7,false,Tx,0,4,00,00,00,00,00,00,00,00,
212924,0000019C,false,Tx,0,8,06,A0,26,9F,7F,FE,0F,7F,
212943,000001AF,false,Tx,0,8,00,00,00,00,00,00,00,00,
212961,000000DF,false,Tx,0,8,00,00,00,00,00,00,08,00,
214116,00000194,false,Tx,0,8,0F,0F,00,01,00,00,00,00,
214135,0000009D,false,Tx,0,8,30,03,80,70,00,0D,00,00,
214153,00000196,false,Tx,0,8,75,30,75,30,20,00,75,2B,
214172,0000034A,false,Tx,0,8,00,00,00,00,00,00,00,00,
215324,00000364,false,Tx,0,8,00,00,00,00,00,00,00,32,
215345,00000418,false,Tx,0,8,00,00,00,00,00,00,00,00,
215366,00000094,false,Tx,0,8,80,00,00,00,00,00,03,00,
215384,00000099,false,Tx,0,8,A0,8C,80,04,00,5D,00,F5,
216537,0000014B,false,Tx,0,8,01,8B,00,00,00,00,00,00,
217685,0000046A,false,Tx,0,8,00,20,00,00,00,40,00,03,
217701,00000517,false,Tx,0,8,00,8E,10,00,00,00,00,00,
219986,000003C2,false,Tx,0,8,7F,FF,F9,EB,00,12,05,20,
220005,0000022C,false,Tx,0,8,08,47,82,3C,48,F0,08,F1,
221157,000000F1,false,Tx,0,8,00,00,00,00,00,00,00,00,
221174,00000088,false,Tx,0,8,00,00,08,00,00,00,00,08,
222325,0000008A,false,Tx,0,8,80,00,00,04,00,02,30,B6,
222344,0000008E,false,Tx,0,8,5D,05,04,00,13,88,00,C7,
222361,0000008F,false,Tx,0,8,00,00,00,00,00,00,00,00,
223573,00000169,false,Tx,0,6,3B,19,60,F7,3C,00,00,00,
223590,0000019C,false,Tx,0,8,06,A0,26,9F,7F,FF,00,7F,
223606,00000196,false,Tx,0,8,00,00,00,00,00,00,00,00,
223622,000001E5,false,Tx,0,8,46,80,00,F8,00,7F,F1,B0,
223637,000001F1,false,Tx,0,8,0E,00,00,00,00,00,00,00,
223653,000001F1,false,Tx,0,8,0E,00,00,00,08,74,00,00,
223669,000001F2,false,Tx,0,2,20,00,00,00,00,00,00,00,
224816,0000009D,false,Tx,0,8,40,04,80,70,00,0C,00,00,
224831,000001F2,false,Tx,0,2,20,00,00,00,00,00,00,00,
224846,000001FD,false,Tx,0,8,00,00,00,00,00,00,00,00,
224862,0000022A,false,Tx,0,2,00,70,00,00,00,00,00,00,
224877,00000230,false,Tx,0,8,00,00,00,00,00,00,00,00,
224893,00000172,false,Tx,0,8,85,62,9D,85,62,9D,00,00,
224909,00000242,false,Tx,0,8,00,00,00,00,00,08,00,00,
226056,00000094,false,Tx,0,8,80,00,00,00,00,00,03,00,
226072,0000022B,false,Tx,0,8,12,47,8A,3C,48,F1,08,F0,
229480,000003C2,false,Tx,0,8,7F,FF,F9,E7,00,12,05,20,
230632,000000F1,false,Tx,0,8,00,00,00,00,00,00,00,00,
231781,00000166,false,Tx,0,8,00,00,00,00,00,00,00,00,
231796,000000C7,false,Tx,0,4,00,00,00,00,00,00,00,00,
231810,000000FB,false,Tx,0,8,11,FF,00,30,AB,17,06,00,
232960,0000009B,false,Tx,0,8,00,00,00,00,04,00,00,04,
232975,00000194,false,Tx,0,8,0F,0F,00,01,00,00,00,00,
232993,0000039A,false,Tx,0,8,00,43,00,00,DC,C0,00,00,
233008,000001E5,false,Tx,0,8,46,80,00,08,00,80,00,4E,
234157,000000DF,false,Tx,0,8,00,00,00,00,00,00,08,00,
234172,00000196,false,Tx,0,8,75,30,75,30,20,00,75,2B,
234186,0000019F,false,Tx,0,8,00,00,00,00,00,00,00,00,
234201,000002EF,false,Tx,0,8,F6,A0,00,00,00,00,00,00,
234215,00000394,false,Tx,0,8,00,28,00,00,10,43,0C,77,
234226,0000009D,false,Tx,0,8,50,05,80,70,00,0B,00,00,
234241,0000049A,false,Tx,0,1,00,00,00,00,00,00,00,00,
234254,0000030C,false,Tx,0,8,E9,30,00,00,00,00,00,01,
234268,00000389,false,Tx,0,8,00,00,00,00,00,00,00,00,
235429,00000173,false,Tx,0,8,00,00,C7,C8,0C,D9,0C,D8,
235443,00000094,false,Tx,0,8,80,00,00,00,00,00,03,00,
238850,00000163,false,Tx,0,8,43,05,40,02,08,00,02,00,
239996,000000C5,false,Tx,0,8,10,00,00,00,10,00,00,00,
241147,000000C7,false,Tx,0,4,00,00,00,00,00,00,00,00,
241160,00000088,false,Tx,0,8,00,00,28,00,00,00,00,28,
241174,0000008A,false,Tx,0,8,7F,FF,00,04,00,02,32,B4,
242322,00000165,false,Tx,0,8,00,00,06,A0,E5,76,0A,00,
242336,00000166,false,Tx,0,8,00,00,00,00,00,00,00,00,
242350,00000169,false,Tx,0,6,3B,19,60,F7,3C,00,00,00,
243497,000001E1,false,Tx,0,7,40,C0,00,00,00,00,00,00,
243511,00000196,false,Tx,0,8,00,00,00,00,00,00,00,00,
243525,000001F1,false,Tx,0,8,0E,00,00,00,00,00,00,00,
243538,000001F1,false,Tx,0,8,0E,00,00,00,08,74,00,00,
243552,000001F2,false,Tx,0,2,20,00,00,00,00,00,00,00,
243565,000001F2,false,Tx,0,2,20,00,00,00,00,00,00,00,
243578,000001FD,false,Tx,0,8,00,00,00,00,00,00,00,00,
244727,00000227,false,Tx,0,8,00,00,00,10,FF,FF,80,00,
244740,0000022A,false,Tx,0,2,00,70,00,00,00,00,00,00,
244753,00000230,false,Tx,0,8,00,00,00,00,00,00,00,00,
244767,00000232,false,Tx,0,8,00,00,00,00,00,00,00,00,
244780,00000172,false,Tx,0,8,85,62,9D,85,62,9D,00,00,
244792,00000242,false,Tx,0,8,00,00,00,00,00,08,00,00,
244804,00000094,false,Tx,0,8,80,00,7B,FF,80,00,03,87,
245948,0000014B,false,Tx,0,8,01,8B,00,00,00,00,00,00,
245961,00000391,false,Tx,0,8,10,01,A0,00,B0,00,48,00,
250493,000001C7,false,Tx,0,8,00,00,BF,FE,00,04,00,00,
250506,000003C2,false,Tx,0,8,7F,FF,F9,E4,00,12,05,20,
251650,000000F1,false,Tx,0,8,00,00,00,00,00,00,00,00,
251664,00000088,false,Tx,0,8,00,00,38,00,00,00,00,38,
252827,000000FB,false,Tx,0,8,11,FF,00,30,AB,26,05,FF,
252886,0000008F,false,Tx,0,8,00,00,00,00,00,00,00,00,
252916,0000009B,false,Tx,0,8,00,00,00,00,0C,00,00,0C,
252929,0000014F,false,Tx,0,8,02,28,00,00,00,00,00,00,
252943,000000AF,false,Tx,0,8,00,00,00,00,00,00,00,00,
252958,000001AF,false,Tx,0,8,00,00,00,00,00,00,00,00,
254124,000000DF,false,Tx,0,8,00,00,00,00,00,00,08,00,
254180,00000194,false,Tx,0,8,0F,0F,00,01,00,00,00,00,
254194,0000019F,false,Tx,0,8,00,00,00,00,00,00,00,00,
254215,000001E5,false,Tx,0,8,46,80,00,28,00,7F,FE,6F,
254229,00000196,false,Tx,0,8,75,30,75,30,20,00,75,2B,
255390,000002F6,false,Tx,0,8,80,00,00,00,00,01,00,00,
255444,00000173,false,Tx,0,8,00,00,C7,C8,0C,D9,0C,D8,
255458,00000094,false,Tx,0,8,80,00,03,FF,80,00,03,FF,
255471,0000014B,false,Tx,0,8,01,8B,00,00,00,00,00,00,
260076,00000295,false,Tx,0,8,26,2C,00,02,34,4E,3F,4D,
260125,000000C5,false,Tx,0,8,30,00,00,00,30,00,00,00,
260140,000003C2,false,Tx,0,8,7F,FF,F9,EC,00,12,05,20,
261303,000000AC,false,Tx,0,8,04,70,48,A8,02,00,00,96,
262509,0000008D,false,Tx,0,8,00,00,00,00,00,40,00,40,
262563,000000FB,false,Tx,0,8,11,FF,00,30,AB,26,05,FF,
262578,00000166,false,Tx,0,8,00,00,00,00,00,00,00,00,
263741,000000DF,false,Tx,0,8,00,00,00,00,00,00,08,00,
263799,0000019C,false,Tx,0,8,06,A0,26,9F,7F,FF,04,7F,
263815,000001E5,false,Tx,0,8,46,80,00,38,00,7F,FD,7C,
263834,000001F1,false,Tx,0,8,0E,00,00,00,08,74,00,00,
263848,0000009D,false,Tx,0,8,80,08,80,70,00,08,00,00,
263862,000001F2,false,Tx,0,2,20,00,00,00,00,00,00,00,
265028,000001FD,false,Tx,0,8,00,00,00,00,00,00,00,00,
265084,00000214,false,Tx,0,6,06,00,00,00,00,00,00,00,
265098,00000227,false,Tx,0,8,00,00,00,20,FF,FF,00,00,
265111,00000172,false,Tx,0,8,85,62,9D,85,62,9D,00,00,
265124,00000094,false,Tx,0,8,80,00,00,00,00,00,03,00,
265135,00000099,false,Tx,0,8,A0,81,80,04,00,5D,00,F8,
217540,0000039F,false,Rx,0,8,44,71,00,B0,04,7D,09,F5,
217552,00000323,false,Rx,0,8,00,00,00,00,00,00,00,00,
217558,00000324,false,Rx,0,8,70,46,40,4A,49,00,00,7B,
218005,0000033B,false,Rx,0,8,80,00,00,51,00,00,00,00,
218258,0000033D,false,Rx,0,8,00,00,30,20,00,18,00,00,
218505,000003A2,false,Rx,0,8,21,67,10,64,03,FF,00,CE,
218750,000003A4,false,Rx,0,8,00,00,06,00,05,00,00,00,
218999,000003B7,false,Rx,0,8,00,00,00,00,00,0E,EB,41,
219252,00000491,false,Rx,0,8,00,00,00,00,00,00,00,00,
266282,00000230,false,Tx,0,8,00,00,00,00,00,00,00,00,
266295,00000232,false,Tx,0,8,00,00,00,00,00,00,00,00,
267459,00000418,false,Tx,0,8,00,00,00,00,00,00,00,80,
268684,00000419,false,Tx,0,8,00,00,00,00,00,00,03,3D,
269894,000000C5,false,Tx,0,8,00,00,00,00,00,00,00,00,
271103,000003C2,false,Tx,0,8,7F,FF,F9,F3,00,12,05,20,
271158,000001E1,false,Tx,0,7,40,BF,01,00,00,00,00,00,
272321,000000AF,false,Tx,0,8,00,00,00,00,00,00,00,00,
272373,000000AC,false,Tx,0,8,04,70,58,A8,02,00,00,86,
272389,0000008A,false,Tx,0,8,80,00,00,04,00,02,35,B3,
272404,000000C7,false,Tx,0,4,00,00,00,00,00,00,00,00,
272417,0000008D,false,Tx,0,8,00,00,00,00,00,50,00,50,
272432,000000FB,false,Tx,0,8,11,FF,00,30,AB,35,05,FE,
272447,0000008E,false,Tx,0,8,5D,05,04,00,13,88,05,C2,
272461,0000019C,false,Tx,0,8,06,A0,26,9F,7F,FF,05,7F,
273609,0000008F,false,Tx,0,8,00,00,00,00,00,00,00,00,
273623,0000014F,false,Tx,0,8,02,38,00,00,00,00,00,00,
273638,0000009B,false,Tx,0,8,00,00,00,00,14,00,00,14,
273652,000001AF,false,Tx,0,8,00,00,00,00,00,00,00,00,
273668,000000DF,false,Tx,0,8,00,00,00,00,00,00,08,00,
273681,00000196,false,Tx,0,8,75,30,75,30,20,00,75,2B,
274846,0000009D,false,Tx,0,8,90,09,80,70,00,07,00,00,
274902,00000094,false,Tx,0,8,80,00,00,00,00,00,03,00,
276068,00000391,false,Tx,0,8,10,01,A0,00,B0,00,48,00,
280733,000001C7,false,Tx,0,8,00,00,7F,FF,00,0A,00,00,
280788,000001E9,false,Tx,0,8,00,00,00,08,0F,F6,00,00,
280803,000000AF,false,Tx,0,8,00,00,20,00,00,81,F8,00,
281968,000000FB,false,Tx,0,8,11,FF,00,30,AB,35,05,FE,
282027,00000166,false,Tx,0,8,00,00,00,00,00,00,00,00,
282043,0000008F,false,Tx,0,8,00,00,00,00,00,00,00,00,
283207,00000169,false,Tx,0,6,3B,19,60,F7,3C,00,00,00,
283263,00000196,false,Tx,0,8,00,00,00,00,00,00,00,00,
283282,000001F2,false,Tx,0,2,20,00,00,00,00,00,00,00,
283297,000001F1,false,Tx,0,8,0E,00,00,00,00,00,00,00,
284465,000001FD,false,Tx,0,8,00,00,00,00,00,00,00,00,
284522,000001F2,false,Tx,0,2,20,00,00,00,00,00,00,00,
284538,00000227,false,Tx,0,8,00,00,00,30,FF,FE,80,00,
284552,0000009D,false,Tx,0,8,A0,0A,80,70,00,06,00,00,
284567,0000022A,false,Tx,0,2,00,70,00,00,00,00,00,00,
284585,00000230,false,Tx,0,8,00,00,00,00,00,00,00,00,
284608,00000232,false,Tx,0,8,00,00,00,00,00,00,00,00,
284623,00000299,false,Tx,0,8,62,B7,D0,FF,FF,71,00,00,
285772,00000242,false,Tx,0,8,00,00,00,00,00,08,00,00,
285787,00000172,false,Tx,0,8,85,62,9D,85,62,9D,00,00,
285801,00000094,false,Tx,0,8,80,00,00,00,00,00,03,00,
285816,00000244,false,Tx,0,8,00,00,20,04,00,00,00,00,
286983,000003AC,false,Tx,0,8,00,5D,02,22,4B,FF,18,00,
290478,000003C2,false,Tx,0,8,7F,FF,F9,E9,00,12,05,20,
290530,0000043C,false,Tx,0,1,03,00,00,00,00,00,00,00,
291692,000000AC,false,Tx,0,8,04,70,78,A8,02,00,00,A6,
291747,000000AF,false,Tx,0,8,00,00,1C,00,00,91,F7,00,
292909,0000008E,false,Tx,0,8,5D,05,04,00,13,88,07,C0,
292968,000000AF,false,Tx,0,8,00,00,00,00,00,00,00,00,
292985,00000194,false,Tx,0,8,0F,0F,00,01,00,00,00,00,
294154,000001AF,false,Tx,0,8,00,00,00,00,00,00,00,00,
294203,00000196,false,Tx,0,8,75,30,75,30,20,00,75,2B,
294219,0000009D,false,Tx,0,8,B0,0B,80,70,00,05,00,00,
295371,0000029C,false,Tx,0,8,28,00,00,00,00,00,00,00,
295423,0000039B,false,Tx,0,8,00,00,00,00,00,00,00,00,
296621,0000033F,false,Tx,0,8,00,00,00,00,28,00,00,46,
297828,000003BF,false,Tx,0,8,28,00,30,00,28,00,30,00,
299038,0000046B,false,Tx,0,8,0B,BC,00,F9,05,72,01,48,
299095,00000163,false,Tx,0,8,42,05,40,02,08,00,02,00,
300262,0000046F,false,Tx,0,8,00,00,00,00,00,20,00,00,
300311,00000295,false,Tx,0,8,46,2B,00,02,34,4E,3F,2A,
301475,00000692,false,Tx,0,8,28,00,00,00,00,00,00,00,
301532,000000AF,false,Tx,0,8,00,00,18,00,00,A1,F6,00,
301550,000000FB,false,Tx,0,8,11,FF,00,30,AB,44,05,FD,
302718,00000166,false,Tx,0,8,00,00,00,00,00,00,00,00,
302775,000001E1,false,Tx,0,7,40,BE,02,00,00,00,00,00,
302792,000000DF,false,Tx,0,8,00,00,00,00,00,00,08,00,
303960,000001F1,false,Tx,0,8,0E,00,00,00,08,74,00,00,
304016,0000009D,false,Tx,0,8,C0,0C,80,70,00,04,00,00,
304032,00000353,false,Tx,0,8,00,00,00,00,00,00,00,00,
304065,00000356,false,Tx,0,8,00,00,00,1E,3E,00,00,00,
305231,00000358,false,Tx,0,8,00,00,00,00,00,00,00,00,
305288,0000022A,false,Tx,0,2,00,70,00,00,00,00,00,00,
305303,00000094,false,Tx,0,8,80,00,2B,FF,80,00,03,D7,
305319,00000094,false,Tx,0,8,80,00,00,00,00,00,03,00,
305335,0000014B,false,Tx,0,8,01,8B,00,00,00,00,00,00,
306502,000003BE,false,Tx,0,8,00,42,08,F1,1E,36,00,00,
306559,00000400,false,Tx,0,8,71,40,02,00,00,40,06,00,
307711,000002FD,false,Tx,0,8,FA,00,00,00,00,00,00,00,
307727,0000030B,false,Tx,0,8,00,00,00,00,06,20,06,20,
308896,0000032E,false,Tx,0,8,00,00,00,00,00,00,00,00,
310102,0000034F,false,Tx,0,8,00,00,00,00,00,00,00,00,
310157,00000402,false,Tx,0,8,00,00,00,00,00,05,00,00,
310174,000001FC,false,Tx,0,8,00,00,00,CC,00,00,00,00,
311350,000000F1,false,Tx,0,8,00,00,00,00,00,00,00,00,
311406,000000AF,false,Tx,0,8,00,00,00,00,00,00,00,00,
312574,000000AF,false,Tx,0,8,00,00,14,00,00,B1,F5,00,
312617,000000C7,false,Tx,0,4,00,00,00,00,00,00,00,00,
312633,0000019C,false,Tx,0,8,06,A0,26,9F,7F,FF,09,7F,
313804,0000009B,false,Tx,0,8,00,00,00,00,24,00,00,24,
313859,000001AF,false,Tx,0,8,00,00,00,00,00,00,00,00,
313876,00000194,false,Tx,0,8,0F,0F,00,01,00,00,00,00,
313893,0000019F,false,Tx,0,8,00,00,00,00,00,00,00,00,
313909,0000034A,false,Tx,0,8,00,00,00,00,00,00,00,00,
313926,00000196,false,Tx,0,8,75,30,75,30,20,00,75,2B,
313943,0000009D,false,Tx,0,8,D0,0D,80,70,00,03,00,00,
315111,00000361,false,Tx,0,8,00,00,00,00,00,00,00,00,
315166,0000029B,false,Tx,0,8,80,00,00,00,00,00,00,00,
315183,00000094,false,Tx,0,8,80,00,33,FF,80,00,03,CF,
315200,00000099,false,Tx,0,8,A0,86,80,04,00,5D,00,FF,
316368,00000373,false,Tx,0,8,00,00,00,00,00,00,00,00,
316423,00000376,false,Tx,0,8,00,00,00,00,00,00,00,00,
318739,00000163,false,Tx,0,8,43,05,40,02,08,00,02,00,
319947,00000185,false,Tx,0,4,00,00,00,10,00,00,00,00,
320005,000001C7,false,Tx,0,8,00,00,7F,FF,00,12,00,00,
321173,000000F1,false,Tx,0,8,00,00,00,00,00,00,00,00,
322370,0000008A,false,Tx,0,8,80,00,00,04,00,02,3A,BC,
322422,000000FB,false,Tx,0,8,11,FF,00,30,AB,53,05,FC,
322440,0000008F,false,Tx,0,8,00,00,00,00,00,00,00,00,
323626,000000AF,false,Tx,0,8,00,00,00,00,00,00,00,00,
323679,0000019C,false,Tx,0,8,06,A0,26,9F,7F,FF,0A,7F,
323697,00000196,false,Tx,0,8,00,00,00,00,00,00,00,00,
323731,000001E5,false,Tx,0,8,46,80,00,98,00,7F,F7,D6,
323748,000001F1,false,Tx,0,8,0E,00,00,00,00,00,00,00,
323767,000001F2,false,Tx,0,2,20,00,00,00,00,00,00,00,
323784,000001F1,false,Tx,0,8,0E,00,00,00,08,74,00,00,
324956,0000009D,false,Tx,0,8,E0,0E,80,70,00,02,00,00,
325005,000001F2,false,Tx,0,2,20,00,00,00,00,00,00,00,
325022,000001FD,false,Tx,0,8,00,00,00,00,00,00,00,00,
325040,0000022A,false,Tx,0,2,00,70,00,00,00,00,00,00,
325057,00000172,false,Tx,0,8,85,62,9D,85,62,9D,00,00,
325075,00000230,false,Tx,0,8,00,00,00,00,00,00,00,00,
325092,00000094,false,Tx,0,8,7F,FF,3B,FF,7F,FF,03,C7,
326252,00000242,false,Tx,0,8,00,00,00,00,00,08,00,00,
326273,0000014B,false,Tx,0,8,01,8B,00,00,00,00,00,00,
326292,00000246,false,Tx,0,8,00,00,00,00,00,00,00,00,
329745,000001C7,false,Tx,0,8,00,00,BF,FE,00,14,00,00,
332104,0000008A,false,Tx,0,8,7F,FF,00,04,00,02,3B,BD,
332157,000000C7,false,Tx,0,4,00,00,00,00,00,00,00,00,
332174,0000008D,false,Tx,0,8,00,00,00,00,00,B0,00,B0,
333343,0000014F,false,Tx,0,8,02,68,00,00,00,00,00,00,
333393,0000019C,false,Tx,0,8,06,A0,26,9F,7F,FE,0B,7F,
333411,000001AF,false,Tx,0,8,00,00,00,00,00,00,00,00,
333430,0000039A,false,Tx,0,8,00,43,00,00,EC,80,00,00,
333451,00000196,false,Tx,0,8,75,30,75,30,20,00,75,2B,
334620,000001E1,false,Tx,0,7,40,BD,03,00,00,00,00,00,
334671,0000019F,false,Tx,0,8,00,00,00,00,00,00,00,00,
334689,000001E5,false,Tx,0,8,46,80,00,A8,00,7F,F6,E7,
334713,00000394,false,Tx,0,8,00,28,00,00,10,43,0D,76,
334732,0000049A,false,Tx,0,1,00,00,00,00,00,00,00,00,
334745,0000009D,false,Tx,0,8,F0,0F,80,70,00,01,00,00,
334764,000002EF,false,Tx,0,8,F4,C0,00,00,00,00,00,00,
334782,0000030C,false,Tx,0,8,E9,30,00,00,00,00,00,01,
334800,000003AB,false,Tx,0,8,80,00,00,03,FF,45,00,00,
335967,00000094,false,Tx,0,8,80,00,43,FF,80,00,03,BF,
336020,0000038B,false,Tx,0,8,1B,00,01,00,00,44,03,E8,
339488,000000C1,false,Tx,0,8,B0,01,85,46,30,00,00,00,
340689,000001E9,false,Tx,0,8,00,00,00,08,0F,F6,00,00,
340739,00000227,false,Tx,0,8,00,00,00,60,FF,FD,00,00,
341908,0000008A,false,Tx,0,8,80,00,00,04,00,02,3C,BA,
341958,0000008D,false,Tx,0,8,00,00,00,00,00,C0,00,C0,
343130,0000009B,false,Tx,0,8,00,00,00,00,30,00,00,30,
343182,00000166,false,Tx,0,8,00,00,00,00,00,00,00,00,
343202,00000169,false,Tx,0,6,3B,19,60,F7,3C,00,00,00,
344375,0000019C,false,Tx,0,8,06,A0,26,9F,7F,FF,0C,7F,
344424,000001F1,false,Tx,0,8,0E,00,00,00,00,00,00,00,
344444,000001E5,false,Tx,0,8,46,80,00,B8,00,7F,F5,F4,
344465,000001F2,false,Tx,0,2,20,00,00,00,00,00,00,00,
344484,0000041F,false,Tx,0,3,02,70,01,00,00,00,00,00,
344502,000001F1,false,Tx,0,8,0E,00,00,00,08,74,00,00,
344523,0000009D,false,Tx,0,8,00,00,80,70,00,00,00,00,
344543,000001F2,false,Tx,0,2,20,00,00,00,00,00,00,00,
344561,000001FD,false,Tx,0,8,00,00,00,00,00,00,00,00,
344599,0000022A,false,Tx,0,2,00,70,00,00,00,00,00,00,
344617,00000172,false,Tx,0,8,85,62,9D,85,62,9D,00,00,
345781,00000230,false,Tx,0,8,00,00,00,00,00,00,00,00,
345816,00000094,false,Tx,0,8,80,00,4B,FF,80,00,03,B7,
345849,00000099,false,Tx,0,8,A0,89,80,04,00,5D,00,F0,
345865,000002A2,false,Tx,0,8,86,00,20,C8,00,84,00,AC,
350497,000000C5,false,Tx,0,8,00,00,00,00,00,00,00,00,
350549,000001C7,false,Tx,0,8,00,00,00,00,00,18,00,00,
351717,000000F1,false,Tx,0,8,00,00,00,00,00,00,00,00,
351767,000000AC,false,Tx,0,8,04,70,D8,A8,02,00,00,06,
351788,0000008D,false,Tx,0,8,00,00,00,00,00,D0,00,D0,
352959,000000FB,false,Tx,0,8,11,FF,00,30,AB,71,05,FA,
353010,0000014F,false,Tx,0,8,02,78,00,00,00,00,00,00,
353030,0000009B,false,Tx,0,8,00,00,00,00,34,00,00,34,
353051,000001AF,false,Tx,0,8,00,00,00,00,00,00,00,00,
353070,000000AF,false,Tx,0,8,00,00,00,00,00,00,00,00,
353091,00000194,false,Tx,0,8,0F,0F,00,01,00,00,00,00,
353113,000000DF,false,Tx,0,8,00,00,00,00,00,00,08,00,
354281,000001E5,false,Tx,0,8,46,80,00,C8,00,7F,F4,85,
354329,0000019F,false,Tx,0,8,00,00,00,00,00,00,00,00,
354350,00000196,false,Tx,0,8,75,30,75,30,20,00,75,2B,
354371,0000009D,false,Tx,0,8,10,01,80,70,00,0F,00,00,
354391,000002F6,false,Tx,0,8,80,00,00,00,00,01,00,00,
355556,00000173,false,Tx,0,8,00,00,C7,C8,0C,D9,0C,D8,
355598,00000094,false,Tx,0,8,80,00,00,00,00,00,03,00,
357899,000002B6,false,Tx,0,8,F0,00,00,02,19,0C,86,61,
360236,000000C1,false,Tx,0,8,90,01,85,46,10,00,00,00,
360282,0000017D,false,Tx,0,7,20,20,00,00,00,00,00,00,
361453,000000F1,false,Tx,0,8,00,00,00,00,00,00,00,00,
361494,00000165,false,Tx,0,8,00,00,06,A0,E5,80,00,00,
361518,000000AF,false,Tx,0,8,00,00,00,00,00,00,00,00,
362688,0000008D,false,Tx,0,8,00,00,00,00,00,E0,00,E0,
362730,000000AF,false,Tx,0,8,00,00,00,00,00,00,00,00,
362753,0000019C,false,Tx,0,8,06,A0,26,A0,7F,FF,0E,7F,
363924,000001E1,false,Tx,0,7,40,C0,00,00,00,00,00,00,
363963,000001E5,false,Tx,0,8,46,80,00,D8,00,7F,F3,92,
363986,000001F2,false,Tx,0,2,20,00,00,00,00,00,00,00,
364006,000001F1,false,Tx,0,8,0E,00,00,00,08,74,00,00,
365164,000001FC,false,Tx,0,8,FF,E9,00,B5,00,00,40,00,
365186,000001FD,false,Tx,0,8,00,00,00,00,00,00,00,00,
365210,00000214,false,Tx,0,6,02,00,00,00,00,00,00,00,
365231,00000172,false,Tx,0,8,85,62,9D,85,62,9D,00,00,
365255,00000094,false,Tx,0,8,80,00,5B,FF,80,00,03,A7,
365277,00000094,false,Tx,0,8,80,00,00,00,00,00,03,00,
365300,0000022A,false,Tx,0,2,00,70,00,00,00,00,00,00,
366468,00000230,false,Tx,0,8,00,00,00,00,00,00,00,00,
366508,00000232,false,Tx,0,8,00,00,00,00,00,00,00,00,
367677,0000029B,false,Tx,0,8,80,00,00,00,00,00,00,00,
370033,000000C1,false,Tx,0,8,A0,01,85,46,20,00,00,00,
370074,000000C5,false,Tx,0,8,20,00,00,00,20,00,00,00,
370096,0000044C,false,Tx,0,1,01,00,00,00,00,00,00,00,
371266,000000F1,false,Tx,0,8,00,00,00,00,00,00,00,00,
371313,00000166,false,Tx,0,8,00,00,00,00,00,00,00,00,
371335,000001E5,false,Tx,0,8,46,80,00,E8,00,7F,F2,A3,
372512,00000088,false,Tx,0,8,00,00,F8,00,00,00,00,F8,
372560,000000AF,false,Tx,0,8,00,00,3C,00,00,11,FF,00,
372581,000000C7,false,Tx,0,4,00,00,00,00,00,00,00,00,
372603,0000008D,false,Tx,0,8,00,00,00,00,00,F0,00,F0,
372626,000000FB,false,Tx,0,8,11,FF,00,30,AB,80,05,F9,
372648,0000008E,false,Tx,0,8,5D,05,04,00,13,88,0F,C8,
372670,0000019C,false,Tx,0,8,06,A0,26,9F,7F,FF,0F,7F,
372692,0000008F,false,Tx,0,8,00,00,00,00,00,00,00,00,
372733,0000014F,false,Tx,0,8,02,88,00,00,00,00,00,00,
372753,0000009B,false,Tx,0,8,00,00,00,00,3C,00,00,3C,
373929,000001AF,false,Tx,0,8,00,00,00,00,00,00,00,00,
373977,0000019F,false,Tx,0,8,00,00,00,00,00,00,00,00,
374006,00000196,false,Tx,0,8,75,30,75,30,20,00,75,2B,
329328,0000039F,false,Rx,0,8,44,71,00,B0,04,7D,0A,F6,
329340,00000323,false,Rx,0,8,00,00,00,00,00,00,00,00,
329346,00000324,false,Rx,0,8,70,46,40,4A,49,00,00,7B,
329352,0000033B,false,Rx,0,8,80,00,00,51,00,00,00,00,
329358,0000033D,false,Rx,0,8,00,00,30,20,00,18,00,00,
329364,000003A2,false,Rx,0,8,21,67,10,68,03,FF,00,C2,
329370,000003A4,false,Rx,0,8,00,00,06,00,05,00,00,00,
329376,000003B7,false,Rx,0,8,00,00,00,00,00,00,04,41,
329382,00000491,false,Rx,0,8,00,00,00,00,00,00,00,00,
375167,00000173,false,Tx,0,8,00,00,C7,C8,0C,D9,0C,D8,
376338,0000014B,false,Tx,0,8,01,8B,00,00,00,00,00,00,
379830,00000185,false,Tx,0,4,00,00,00,0E,00,00,00,00,
379878,0000022A,false,Tx,0,8,01,43,43,01,43,43,43,00,
381066,000001E9,false,Tx,0,8,00,00,00,08,0F,F6,00,00,
381106,000000F1,false,Tx,0,8,00,00,00,00,00,00,00,00,
382284,0000008A,false,Tx,0,8,80,00,00,04,00,02,30,B6,
382325,00000165,false,Tx,0,8,00,00,06,A0,E5,7F,01,00,
382351,0000008F,false,Tx,0,8,00,00,00,00,00,00,00,00,
383530,000000DF,false,Tx,0,8,00,00,00,00,00,00,08,00,
383577,000001F1,false,Tx,0,8,0E,00,00,00,08,74,00,00,
383602,000001F2,false,Tx,0,2,20,00,00,00,00,00,00,00,
383626,000001F1,false,Tx,0,8,0E,00,00,00,00,00,00,00,
383651,000001FD,false,Tx,0,8,00,00,00,00,00,00,00,00,
383676,000001F2,false,Tx,0,2,20,00,00,00,00,00,00,00,
384854,00000227,false,Tx,0,8,00,00,00,80,FF,FC,00,00,
384900,0000009D,false,Tx,0,8,40,04,80,70,00,0C,00,00,
384932,0000022A,false,Tx,0,2,00,70,00,00,00,00,00,00,
384955,00000230,false,Tx,0,8,00,00,00,00,00,00,00,00,
384982,00000232,false,Tx,0,8,00,00,00,00,00,00,00,00,
385007,00000299,false,Tx,0,8,62,B7,D0,FF,FF,71,00,00,
385031,00000242,false,Tx,0,8,00,00,00,00,00,08,00,00,
385057,00000094,false,Tx,0,8,80,00,6B,FF,80,00,03,97,
386218,00000094,false,Tx,0,8,80,00,00,00,00,00,03,00,
386244,00000172,false,Tx,0,8,85,62,9D,85,62,9D,00,00,
389717,00000171,false,Tx,0,8,00,30,25,B0,87,42,AC,CC,
389764,000001C7,false,Tx,0,8,00,00,00,00,00,00,00,00,
390940,000000F1,false,Tx,0,8,00,00,00,00,00,00,00,00,
392132,000000FB,false,Tx,0,8,11,FF,00,30,AB,9F,05,F8,
392173,0000008E,false,Tx,0,8,5D,05,04,00,13,88,01,C6,
393348,0000009B,false,Tx,0,8,00,00,00,00,04,00,00,04,
393395,000000DF,false,Tx,0,8,00,00,00,00,00,00,08,00,
393421,00000196,false,Tx,0,8,75,30,75,30,20,00,75,2B,
393447,0000019F,false,Tx,0,8,00,00,00,00,00,00,00,00,
395763,00000173,false,Tx,0,8,00,00,C7,C8,0C,D9,0C,D8,
395789,0000039B,false,Tx,0,8,00,00,00,00,00,00,00,00,
396964,0000039B,false,Tx,0,8,44,43,9D,00,00,00,38,A2,
397020,000003A6,false,Tx,0,8,00,00,00,00,00,00,00,00,
398201,000003E2,false,Tx,0,8,1E,B6,17,A2,63,4D,63,5B,
399405,00000469,false,Tx,0,8,28,00,30,00,28,00,30,00,
399448,00000163,false,Tx,0,8,43,05,40,02,08,00,02,00,
400630,00000295,false,Tx,0,8,96,2B,00,02,34,4E,3F,FA,
400675,00000322,false,Tx,0,8,00,00,00,00,00,00,00,00,
401851,000000F1,false,Tx,0,8,00,00,00,00,00,00,00,00,
401894,000000AC,false,Tx,0,8,04,70,28,A8,02,00,00,F6,
401925,0000008D,false,Tx,0,8,00,00,00,00,00,20,00,20,
403095,0000008F,false,Tx,0,8,00,00,00,00,00,00,00,00,
403126,00000196,false,Tx,0,8,00,00,00,00,00,00,00,00,
404306,000001E5,false,Tx,0,8,46,80,00,18,00,7F,FF,5E,
404349,000001F2,false,Tx,0,2,20,00,00,00,00,00,00,00,
404380,000001FD,false,Tx,0,8,00,00,00,00,00,00,00,00,
404411,00000356,false,Tx,0,8,00,00,00,1E,3E,00,00,00,
405599,00000358,false,Tx,0,8,00,00,00,00,00,00,00,00,
405645,00000094,false,Tx,0,8,80,00,00,00,00,00,03,00,
405674,00000094,false,Tx,0,8,7F,FF,7B,FF,7F,FF,03,87,
405704,00000099,false,Tx,0,8,A0,8F,80,04,00,5D,00,F6,
405733,0000014B,false,Tx,0,8,01,8B,00,00,00,00,00,00,
406917,00000400,false,Tx,0,8,71,40,02,00,00,40,06,00,
406963,00000297,false,Tx,0,8,00,03,00,00,00,00,20,00,
406993,000002FD,false,Tx,0,8,FA,00,00,00,00,00,00,00,
407023,0000030B,false,Tx,0,8,00,00,00,00,06,20,06,20,
409353,0000034C,false,Tx,0,8,00,00,00,00,00,00,00,00,
409396,00000361,false,Tx,0,8,00,00,00,00,00,00,00,00,
410566,0000029B,false,Tx,0,8,3B,CA,86,02,FD,06,00,00,
410597,00000214,false,Tx,0,6,04,00,00,00,00,00,00,00,
410631,00000348,false,Tx,0,8,00,00,00,00,00,00,00,00,
411817,000000AF,false,Tx,0,8,00,00,00,00,00,00,00,00,
411861,000001E5,false,Tx,0,8,46,80,00,28,00,7F,FE,6F,
413040,000000FB,false,Tx,0,8,11,FF,00,30,AB,AE,05,F7,
413083,0000008E,false,Tx,0,8,5D,05,04,00,13,88,03,C4,
413112,0000014F,false,Tx,0,8,02,A8,00,00,00,00,00,00,
413144,000001AF,false,Tx,0,8,00,00,00,00,00,00,00,00,
414324,0000019F,false,Tx,0,8,00,00,00,00,00,00,00,00,
414371,0000034A,false,Tx,0,8,00,00,00,00,00,00,00,00,
414404,00000196,false,Tx,0,8,75,30,75,30,20,00,75,2B,
414435,0000009D,false,Tx,0,8,70,07,80,70,00,09,00,00,
414464,00000364,false,Tx,0,8,00,00,00,00,00,00,00,32,
415714,00000372,false,Tx,0,8,00,00,00,00,00,85,00,00,
415814,00000173,false,Tx,0,8,00,00,C7,C8,0C,D9,0C,D8,
415859,00000094,false,Tx,0,8,80,00,00,00,00,00,03,00,
415875,00000099,false,Tx,0,8,A0,80,80,04,00,5D,00,F9,
415892,00000376,false,Tx,0,8,00,00,00,00,00,00,00,00,
417075,0000047E,false,Tx,0,8,00,00,00,00,00,00,00,00,
420593,00000185,false,Tx,0,4,00,00,00,10,00,00,00,00,
420668,0000022C,false,Tx,0,8,02,47,8A,3C,48,F1,08,F1,
420704,000001E9,false,Tx,0,8,00,00,00,08,0F,F7,00,00,
421875,000000AC,false,Tx,0,8,04,70,48,A8,02,00,00,96,
421939,000000AF,false,Tx,0,8,00,00,28,00,00,61,FA,00,
422030,000000FB,false,Tx,0,8,11,FF,00,30,AB,AE,05,F7,
423225,00000166,false,Tx,0,8,00,00,00,00,00,00,00,00,
424431,000001E1,false,Tx,0,7,40,BE,02,00,00,00,00,00,
424489,000001F1,false,Tx,0,8,0E,00,00,00,00,00,00,00,
424511,000001E5,false,Tx,0,8,46,80,00,38,00,7F,FD,7C,
424536,000001F2,false,Tx,0,2,20,00,00,00,00,00,00,00,
424558,0000041F,false,Tx,0,3,02,70,01,00,00,00,00,00,
424580,000001F1,false,Tx,0,8,0E,00,00,00,08,74,00,00,
424603,0000009D,false,Tx,0,8,80,08,80,70,00,08,00,00,
424625,000001F2,false,Tx,0,2,20,00,00,00,00,00,00,00,
424646,000001FD,false,Tx,0,8,00,00,00,00,00,00,00,00,
424693,0000022A,false,Tx,0,2,00,70,00,00,00,00,00,00,
424713,00000172,false,Tx,0,8,85,62,9D,85,62,9D,00,00,
425872,00000230,false,Tx,0,8,00,00,00,00,00,00,00,00,
425903,00000094,false,Tx,0,8,80,00,0B,FF,80,00,03,F7,
425930,00000094,false,Tx,0,8,80,00,00,00,00,00,03,00,
425947,00000099,false,Tx,0,8,A0,81,80,04,00,5D,00,F8,
425980,0000014B,false,Tx,0,8,01,8B,00,00,00,00,00,00,
426008,00000246,false,Tx,0,8,00,00,00,00,00,00,00,00,
430632,0000022A,false,Tx,0,8,02,43,43,02,43,43,43,00,
431855,000003C2,false,Tx,0,8,7F,FF,F9,EB,00,12,05,20,
431917,000001E5,false,Tx,0,8,46,80,00,48,00,7F,FC,0D,
431939,0000008A,false,Tx,0,8,80,00,00,04,00,02,35,B3,
433110,000000FB,false,Tx,0,8,11,FF,00,30,AB,BD,05,F6,
433167,000001AF,false,Tx,0,8,00,00,00,00,00,00,00,00,
433185,0000039A,false,Tx,0,8,00,43,00,00,FC,40,00,00,
433209,00000194,false,Tx,0,8,0F,0F,00,01,00,00,00,00,
434407,000000DF,false,Tx,0,8,00,00,00,00,00,00,08,00,
434477,000002EF,false,Tx,0,8,F2,E0,00,00,00,00,00,00,
434507,0000019F,false,Tx,0,8,00,00,00,00,00,00,00,00,
434533,00000196,false,Tx,0,8,75,30,75,30,20,00,75,2B,
434567,00000394,false,Tx,0,8,00,28,00,00,10,43,0E,75,
434598,0000030C,false,Tx,0,8,E9,30,00,00,00,00,00,01,
434630,0000049A,false,Tx,0,1,00,00,00,00,00,00,00,00,
434647,0000009D,false,Tx,0,8,90,09,80,70,00,07,00,00,
434679,00000389,false,Tx,0,8,00,00,00,00,00,00,00,00,
434736,0000038B,false,Tx,0,8,1B,00,01,00,00,44,03,E8,
435914,00000094,false,Tx,0,8,80,00,00,00,00,00,03,00,
435960,00000099,false,Tx,0,8,A0,82,80,04,00,5D,00,FB,
439413,000000C1,false,Tx,0,8,90,01,85,46,10,00,00,00,
440602,000001C7,false,Tx,0,8,00,00,7F,FF,00,0A,00,00,
441812,00000088,false,Tx,0,8,00,00,68,00,00,00,00,68,
441847,0000008A,false,Tx,0,8,7F,FF,00,04,00,02,36,B0,
441875,0000008D,false,Tx,0,8,00,00,00,00,00,60,00,60,
441918,00000166,false,Tx,0,8,00,00,00,00,00,00,00,00,
443082,000000AF,false,Tx,0,8,00,00,00,00,00,00,00,00,
443112,000000DF,false,Tx,0,8,00,00,00,00,00,00,08,00,
443143,00000196,false,Tx,0,8,00,00,00,00,00,00,00,00,
443174,000001F2,false,Tx,0,2,20,00,00,00,00,00,00,00,
444339,000001F1,false,Tx,0,8,0E,00,00,00,00,00,00,00,
444370,000001FD,false,Tx,0,8,00,00,00,00,00,00,00,00,
444400,000001F2,false,Tx,0,2,20,00,00,00,00,00,00,00,
444427,00000227,false,Tx,0,8,00,00,00,B0,FF,FA,80,00,
444460,0000009D,false,Tx,0,8,A0,0A,80,70,00,06,00,00,
444489,0000022A,false,Tx,0,2,00,70,00,00,00,00,00,00,
444519,00000230,false,Tx,0,8,00,00,00,00,00,00,00,00,
445689,00000232,false,Tx,0,8,00,00,00,00,00,00,00,00,
445713,00000172,false,Tx,0,8,85,62,9D,85,62,9D,00,00,
445739,00000242,false,Tx,0,8,00,00,00,00,00,08,00,00,
445767,00000094,false,Tx,0,8,80,00,1B,FF,80,00,03,E7,
445795,0000014B,false,Tx,0,8,01,8B,00,00,00,00,00,00,
449235,000000C1,false,Tx,0,8,A0,01,85,46,20,00,00,00,
450394,00000297,false,Tx,0,8,01,03,E0,00,C3,0C,AE,83,
451550,000000F1,false,Tx,0,8,00,00,00,00,00,00,00,00,
451572,00000088,false,Tx,0,8,00,00,78,00,00,00,00,78,
451594,000000AC,false,Tx,0,8,04,70,78,A8,02,00,00,A6,
452754,000000C7,false,Tx,0,4,00,00,00,00,00,00,00,00,
452776,0000019C,false,Tx,0,8,06,A0,26,9F,7F,FF,07,7F,
452798,000001AF,false,Tx,0,8,00,00,00,00,00,00,00,00,
452821,000000AF,false,Tx,0,8,00,00,00,00,00,00,00,00,
453979,00000194,false,Tx,0,8,0F,0F,00,01,00,00,00,00,
454000,000000DF,false,Tx,0,8,00,00,00,00,00,00,08,00,
454023,000001E1,false,Tx,0,7,40,BD,03,00,00,00,00,00,
454045,0000019F,false,Tx,0,8,00,00,00,00,00,00,00,00,
454068,00000196,false,Tx,0,8,75,30,75,30,20,00,75,2B,
454092,000001E5,false,Tx,0,8,46,80,00,68,00,7F,FA,2B,
454117,0000009D,false,Tx,0,8,B0,0B,80,70,00,05,00,00,
455278,00000204,false,Tx,0,8,08,00,00,00,00,00,00,00,
455301,00000173,false,Tx,0,8,00,00,C7,C8,0C,D9,0C,D8,
455321,00000099,false,Tx,0,8,A0,84,80,04,00,5D,00,FD,
456477,000002FD,false,Tx,0,8,FA,00,00,00,00,00,00,00,
456498,00000400,false,Tx,0,8,71,40,02,00,00,40,06,00,
459919,00000295,false,Tx,0,8,C6,2B,00,02,34,4E,3F,AA,
461072,000001E9,false,Tx,0,8,00,00,00,08,0F,F7,00,00,
461090,000001FC,false,Tx,0,8,00,00,00,B5,00,00,C0,00,
462243,000000AF,false,Tx,0,8,00,00,18,00,00,A1,F6,00,
462261,000000FB,false,Tx,0,8,11,FF,00,30,AB,CC,05,F5,
463412,00000167,false,Tx,0,8,0C,10,00,00,00,00,00,00,
463431,0000009B,false,Tx,0,8,00,00,00,00,20,00,00,20,
463451,0000019C,false,Tx,0,8,06,A0,26,9F,7F,FF,08,7F,
463469,00000196,false,Tx,0,8,00,00,00,00,00,00,00,00,
464622,000001F1,false,Tx,0,8,0E,00,00,00,08,74,00,00,
464640,000001F2,false,Tx,0,2,20,00,00,00,00,00,00,00,
464656,000001F2,false,Tx,0,2,20,00,00,00,00,00,00,00,
464673,000001FD,false,Tx,0,8,00,00,00,00,00,00,00,00,
464692,0000009D,false,Tx,0,8,C0,0C,80,70,00,04,00,00,
464710,00000214,false,Tx,0,6,06,00,00,00,00,00,00,00,
464728,00000227,false,Tx,0,8,00,00,00,C0,FF,FA,00,00,
464745,00000172,false,Tx,0,8,85,62,9D,85,62,9D,00,00,
465896,00000094,false,Tx,0,8,80,00,00,00,00,00,03,00,
465913,00000099,false,Tx,0,8,A0,85,80,04,00,5D,00,FC,
465933,00000230,false,Tx,0,8,00,00,00,00,00,00,00,00,
465953,00000244,false,Tx,0,8,00,00,20,04,00,00,00,00,
417283,0000039F,false,Rx,0,8,44,71,00,B0,04,7D,0B,F7,
417530,00000323,false,Rx,0,8,00,00,00,00,00,00,D8,97,
417776,00000324,false,Rx,0,8,70,46,40,4A,49,00,00,7B,
418025,0000033B,false,Rx,0,8,80,00,00,51,00,00,00,00,
418277,0000033D,false,Rx,0,8,00,00,30,20,00,18,00,00,
418523,000003A2,false,Rx,0,8,21,67,10,6C,03,FF,00,C6,
418770,000003A4,false,Rx,0,8,00,00,06,00,05,00,00,00,
419016,000003B7,false,Rx,0,8,00,00,00,00,00,01,48,41,
419269,00000491,false,Rx,0,8,00,00,00,00,00,00,00,00,
469373,000000C1,false,Tx,0,8,80,01,85,46,00,00,00,00,
470527,000003BA,false,Tx,0,8,03,07,44,64,00,00,00,00,
470547,000001C7,false,Tx,0,8,00,00,00,00,00,10,00,00,
471697,00000166,false,Tx,0,8,00,00,00,00,00,00,00,00,
471715,000003C2,false,Tx,0,8,7F,FF,F9,EF,00,12,05,20,
471733,000001E5,false,Tx,0,8,46,80,00,88,00,7F,F8,C9,
471750,000000AC,false,Tx,0,8,04,70,98,A8,02,00,00,46,
471767,000000AF,false,Tx,0,8,00,00,14,00,00,B1,F5,00,
472916,0000008A,false,Tx,0,8,80,00,00,04,00,02,39,BF,
472933,000000C7,false,Tx,0,4,00,00,00,00,00,00,00,00,
472949,0000008D,false,Tx,0,8,00,00,00,00,00,90,00,90,
472965,000000FB,false,Tx,0,8,11,FF,00,30,AB,DB,05,F4,
472982,0000008E,false,Tx,0,8,5D,05,04,00,13,88,09,CE,
472998,0000019C,false,Tx,0,8,06,A0,26,9F,7F,FF,09,7F,
473015,0000008F,false,Tx,0,8,00,00,00,00,00,00,00,00,
473032,0000014F,false,Tx,0,8,02,D8,00,00,00,00,00,00,
473048,0000009B,false,Tx,0,8,00,00,00,00,24,00,00,24,
473065,000001AF,false,Tx,0,8,00,00,00,00,00,00,00,00,
474212,0000019F,false,Tx,0,8,00,00,00,00,00,00,00,00,
474228,0000009D,false,Tx,0,8,D0,0D,80,70,00,03,00,00,
475375,00000094,false,Tx,0,8,80,00,00,00,00,00,03,00,
476523,00000391,false,Tx,0,8,10,01,A0,00,B0,00,48,00,
481075,000003A8,false,Tx,0,8,00,00,00,FF,C0,00,40,00,
481091,000001E9,false,Tx,0,8,00,00,00,08,0F,F7,00,00,
481105,000000F1,false,Tx,0,8,00,00,00,00,00,00,00,00,
482254,00000165,false,Tx,0,8,00,00,06,A0,E5,7A,06,00,
482269,00000169,false,Tx,0,6,3B,19,60,F7,3C,00,00,00,
482283,0000009B,false,Tx,0,8,00,00,00,00,28,00,00,28,
483433,000001E1,false,Tx,0,7,40,C0,00,00,00,00,00,00,
483447,000001F2,false,Tx,0,2,20,00,00,00,00,00,00,00,
483462,000001F2,false,Tx,0,2,20,00,00,00,00,00,00,00,
484607,000001FD,false,Tx,0,8,00,00,00,00,00,00,00,00,
484622,000003C2,false,Tx,0,8,7F,FF,F9,D8,00,12,05,20,
484637,00000227,false,Tx,0,8,00,00,00,D0,FF,F9,80,00,
484651,0000009D,false,Tx,0,8,E0,0E,80,70,00,02,00,00,
484665,0000022A,false,Tx,0,2,00,70,00,00,00,00,00,00,
484679,00000230,false,Tx,0,8,00,00,00,00,00,00,00,00,
484694,00000299,false,Tx,0,8,62,B7,D0,FF,FF,71,00,00,
485843,00000232,false,Tx,0,8,00,00,00,00,00,00,00,00,
485857,00000172,false,Tx,0,8,85,62,9D,85,62,9D,00,00,
485872,00000094,false,Tx,0,8,80,00,00,00,00,00,03,00,
485886,00000094,false,Tx,0,8,7F,FF,3B,FF,7F,FF,03,C7,
485901,00000242,false,Tx,0,8,00,00,00,00,00,08,00,00,
485916,00000244,false,Tx,0,8,00,00,20,04,00,00,00,00,
489326,000000C1,false,Tx,0,8,A0,01,85,46,20,00,00,00,
490473,00000293,false,Tx,0,8,8C,00,B3,26,21,40,00,00,
491619,000000F1,false,Tx,0,8,00,00,00,00,00,00,00,00,
491634,000000AF,false,Tx,0,8,00,00,0C,00,00,D1,F3,00,
492778,0000008F,false,Tx,0,8,00,00,00,00,00,00,00,00,
492792,0000014F,false,Tx,0,8,02,E8,00,00,00,00,00,00,
493938,00000194,false,Tx,0,8,0F,0F,00,01,00,00,00,00,
493952,000001AF,false,Tx,0,8,00,00,00,00,00,00,00,00,
493966,0000019F,false,Tx,0,8,00,00,00,00,00,00,00,00,
493979,000001E5,false,Tx,0,8,46,80,00,A8,00,7F,F6,E7,
495127,000003C2,false,Tx,0,8,7F,FF,F9,DF,00,12,05,20,
495141,00000173,false,Tx,0,8,00,00,C7,C8,0C,D9,0C,D8,
495155,00000094,false,Tx,0,8,7F,FF,43,FF,7F,FF,03,BF,
496298,000002A2,false,Tx,0,8,86,00,20,C8,00,84,00,AC,
497441,00000396,false,Tx,0,8,44,6E,B4,28,C0,4E,4D,4D,
498584,000003E2,false,Tx,0,8,1E,B6,17,A2,63,4D,63,5B,
498597,00000469,false,Tx,0,8,28,00,30,00,28,00,30,00,
499740,0000046F,false,Tx,0,8,00,00,00,00,00,20,00,00,
499753,000000C5,false,Tx,0,8,30,00,00,00,30,00,00,00,
500900,00000322,false,Tx,0,8,00,00,00,00,00,00,00,00,
500914,00000692,false,Tx,0,8,28,00,00,00,00,00,00,00,
502059,00000165,false,Tx,0,8,00,00,06,A0,E5,79,07,00,
502073,0000008E,false,Tx,0,8,5D,05,04,00,13,88,0C,CB,
503238,0000009B,false,Tx,0,8,00,00,00,00,30,00,00,30,
503291,000000DF,false,Tx,0,8,00,00,00,00,00,00,08,00,
504460,000001F2,false,Tx,0,2,20,00,00,00,00,00,00,00,
504494,00000204,false,Tx,0,8,08,00,00,00,00,00,00,00,
504520,0000021C,false,Tx,0,8,00,00,00,00,00,00,00,00,
504534,00000356,false,Tx,0,8,00,00,00,1E,3E,00,00,00,
504549,00000358,false,Tx,0,8,00,00,00,00,00,00,00,00,
505717,00000172,false,Tx,0,8,85,62,9D,85,62,9D,00,00,
505774,00000099,false,Tx,0,8,A0,89,80,04,00,5D,00,F0,
505787,00000232,false,Tx,0,8,00,00,00,00,00,00,00,00,
505801,0000014B,false,Tx,0,8,01,8B,00,00,00,00,00,00,
505815,00000244,false,Tx,0,8,00,00,20,04,00,00,00,00,
506982,0000041F,false,Tx,0,3,02,70,01,00,00,00,00,00,
507039,000002F6,false,Tx,0,8,80,00,00,00,00,01,00,00,
507055,000002FD,false,Tx,0,8,FA,00,00,00,00,00,00,00,
508208,0000031B,false,Tx,0,8,00,00,B0,18,00,00,00,00,
508226,0000032E,false,Tx,0,8,00,00,00,00,00,00,00,00,
510528,000000C1,false,Tx,0,8,80,01,85,46,00,00,00,00,
510558,000001FC,false,Tx,0,8,00,00,00,B5,00,00,00,00,
511725,00000348,false,Tx,0,8,00,00,00,00,00,00,00,00,
511757,000000AF,false,Tx,0,8,00,00,00,00,00,00,00,00,
511788,000003C2,false,Tx,0,8,7F,FF,F9,E4,00,12,05,20,
512947,000000C7,false,Tx,0,4,00,00,00,00,00,00,00,00,
512976,0000008D,false,Tx,0,8,00,00,00,00,00,D0,00,D0,
513001,0000014F,false,Tx,0,8,02,F8,00,00,00,00,00,00,
513012,0000009B,false,Tx,0,8,00,00,00,00,34,00,00,34,
514170,000001AF,false,Tx,0,8,00,00,00,00,00,00,00,00,
514227,00000194,false,Tx,0,8,0F,0F,00,01,00,00,00,00,
514254,000001E5,false,Tx,0,8,46,80,00,C8,00,7F,F4,85,
514269,0000019F,false,Tx,0,8,00,00,00,00,00,00,00,00,
514283,00000196,false,Tx,0,8,75,30,75,30,20,00,75,2B,
514297,0000009D,false,Tx,0,8,10,01,80,70,00,0F,00,00,
514311,0000034A,false,Tx,0,8,00,00,00,00,00,00,00,00,
515490,00000418,false,Tx,0,8,00,00,00,00,00,00,00,00,
515543,00000094,false,Tx,0,8,80,00,00,00,00,00,03,00,
515562,00000094,false,Tx,0,8,80,00,53,FF,80,00,03,AF,
515577,00000373,false,Tx,0,8,00,00,00,00,00,00,00,00,
519040,00000163,false,Tx,0,8,41,05,40,02,08,00,02,00,
520253,000000C1,false,Tx,0,8,90,01,85,46,10,00,00,00,
520309,0000022C,false,Tx,0,8,04,47,8A,3C,48,F1,08,F1,
521472,00000232,false,Tx,0,8,00,00,00,00,00,00,00,00,
522682,000000C7,false,Tx,0,4,00,00,00,00,00,00,00,00,
522740,0000008D,false,Tx,0,8,00,00,00,00,00,E0,00,E0,
522754,0000008E,false,Tx,0,8,5D,05,04,00,13,88,0E,C9,
523926,000000DF,false,Tx,0,8,00,00,00,00,00,00,08,00,
523978,0000019C,false,Tx,0,8,06,A0,26,9F,7F,FF,0E,7F,
523993,00000196,false,Tx,0,8,00,00,00,00,00,00,00,00,
524008,000001E5,false,Tx,0,8,46,80,00,D8,00,7F,F3,92,
524022,000001F1,false,Tx,0,8,0E,00,00,00,00,00,00,00,
524036,000001F2,false,Tx,0,2,20,00,00,00,00,00,00,00,
524049,000001F1,false,Tx,0,8,0E,00,00,00,08,74,00,00,
524065,000001F2,false,Tx,0,2,20,00,00,00,00,00,00,00,
524079,000003C2,false,Tx,0,8,7F,FF,F9,E9,00,12,05,20,
525243,0000009D,false,Tx,0,8,20,02,80,70,00,0E,00,00,
525296,000001FD,false,Tx,0,8,00,00,00,00,00,00,00,00,
525311,0000022A,false,Tx,0,2,00,70,00,00,00,00,00,00,
525324,00000172,false,Tx,0,8,85,62,9D,85,62,9D,00,00,
525336,00000230,false,Tx,0,8,00,00,00,00,00,00,00,00,
525351,00000094,false,Tx,0,8,80,00,5C,00,80,00,03,5F,
525382,0000014B,false,Tx,0,8,01,8B,00,00,00,00,00,00,
525396,00000244,false,Tx,0,8,00,00,20,04,00,00,00,00,
530007,00000171,false,Tx,0,8,00,30,01,B0,87,42,AC,E8,
530065,000002A2,false,Tx,0,8,86,86,20,00,40,84,00,AC,
532379,000001AF,false,Tx,0,8,00,00,00,00,00,00,00,00,
532430,0000008D,false,Tx,0,8,00,00,00,00,00,F0,00,F0,
532452,000000C7,false,Tx,0,4,00,00,00,00,00,00,00,00,
532466,0000008F,false,Tx,0,8,00,00,00,00,00,00,00,00,
533632,000000DF,false,Tx,0,8,00,00,00,00,00,00,08,00,
533686,00000194,false,Tx,0,8,0F,0F,00,01,00,00,00,00,
533702,000001E5,false,Tx,0,8,46,80,00,E8,00,7F,F2,A3,
533716,0000039A,false,Tx,0,8,00,43,00,00,00,00,00,00,
533729,00000196,false,Tx,0,8,75,30,75,30,20,00,75,2B,
533745,0000019F,false,Tx,0,8,00,00,00,00,00,00,00,00,
534907,000002EF,false,Tx,0,8,00,00,00,00,00,00,00,00,
534963,000003C2,false,Tx,0,8,7F,FF,F9,E8,00,12,05,20,
534978,0000009D,false,Tx,0,8,30,03,80,70,00,0D,00,00,
535001,00000394,false,Tx,0,8,00,28,00,00,10,43,0F,74,
535016,0000049A,false,Tx,0,1,00,00,00,00,00,00,00,00,
535030,0000030C,false,Tx,0,8,E9,30,00,00,00,00,00,01,
535045,00000173,false,Tx,0,8,00,00,C7,C8,0C,D9,0C,D8,
536209,0000038B,false,Tx,0,8,1B,00,01,00,00,44,03,E8,
536266,000003A3,false,Tx,0,8,00,00,00,00,00,00,00,00,
517503,0000039F,false,Rx,0,8,44,71,00,B0,04,7D,0C,F0,
517752,00000323,false,Rx,0,8,00,00,00,00,00,00,D8,97,
517999,00000324,false,Rx,0,8,70,46,40,4A,49,00,00,7B,
518251,0000033B,false,Rx,0,8,80,00,00,51,00,00,00,00,
518496,0000033D,false,Rx,0,8,00,00,30,20,00,18,00,00,
518743,000003A2,false,Rx,0,8,21,67,10,70,03,FF,00,DA,
518991,000003A4,false,Rx,0,8,00,00,06,00,05,00,00,00,
519256,000003B7,false,Rx,0,8,00,00,00,00,00,02,9C,41,
519527,00000491,false,Rx,0,8,00,00,00,00,00,00,00,00,
539713,00000185,false,Tx,0,4,00,00,00,0E,00,00,00,00,
540917,00000232,false,Tx,0,8,00,00,00,00,00,00,00,00,
540968,000003AC,false,Tx,0,8,00,00,02,22,06,2B,4E,3F,
542141,000000AF,false,Tx,0,8,00,00,38,00,00,21,FE,00,
542192,000000F1,false,Tx,0,8,00,00,00,00,00,00,00,00,
543341,000000AF,false,Tx,0,8,00,00,00,00,00,00,00,00,
543356,00000167,false,Tx,0,8,0C,10,00,00,00,00,00,00,
543372,00000196,false,Tx,0,8,00,00,00,00,00,00,00,00,
543389,000001F1,false,Tx,0,8,0E,00,00,00,00,00,00,00,
544554,000001E1,false,Tx,0,7,40,BE,02,00,00,00,00,00,
544611,000001F2,false,Tx,0,2,20,00,00,00,00,00,00,00,
544627,000001E5,false,Tx,0,8,46,80,00,F8,00,7F,F1,B0,
544642,000003C2,false,Tx,0,8,7F,FF,F9,E6,00,12,05,20,
544658,0000009D,false,Tx,0,8,40,04,80,70,00,0C,00,00,
544673,000001F1,false,Tx,0,8,0E,00,00,00,08,74,00,00,
544689,000001F2,false,Tx,0,2,20,00,00,00,00,00,00,00,
545844,000001FD,false,Tx,0,8,00,00,00,00,00,00,00,00,
545891,00000172,false,Tx,0,8,85,62,9D,85,62,9D,00,00,
545907,00000094,false,Tx,0,8,80,00,00,00,00,00,03,00,
545942,00000094,false,Tx,0,8,7F,FF,6B,FF,7F,FF,03,97,
545959,0000014B,false,Tx,0,8,01,8B,00,00,00,00,00,00,
548277,000002E7,false,Tx,0,8,08,00,00,00,00,00,0C,04,
549478,000000C1,false,Tx,0,8,80,01,85,46,00,00,00,00,
550686,000001C7,false,Tx,0,8,00,00,00,00,00,00,00,00,
551892,000001E5,false,Tx,0,8,46,80,00,08,00,80,00,4E,
551944,0000008A,false,Tx,0,8,7F,FF,00,04,00,02,31,B7,
551961,000000AF,false,Tx,0,8,00,00,34,00,00,31,FD,00,
553129,000000FB,false,Tx,0,8,11,FF,00,30,AB,17,06,00,
553185,0000014F,false,Tx,0,8,02,18,00,00,00,00,00,00,
553202,000000AF,false,Tx,0,8,00,00,00,00,00,00,00,00,
553218,000001AF,false,Tx,0,8,00,00,00,00,00,00,00,00,
553234,000000DF,false,Tx,0,8,00,00,00,00,00,00,08,00,
553250,00000194,false,Tx,0,8,0F,0F,00,01,00,00,00,00,
554419,000003C2,false,Tx,0,8,7F,FF,F9,E0,00,12,05,20,
554473,00000204,false,Tx,0,8,08,00,00,00,00,00,00,00,
554489,0000019F,false,Tx,0,8,00,00,00,00,00,00,00,00,
554505,00000196,false,Tx,0,8,75,30,75,30,20,00,75,30,
554521,0000021C,false,Tx,0,8,00,00,00,00,00,00,00,00,
554536,0000009D,false,Tx,0,8,50,05,80,70,00,0B,00,00,
555704,000002FD,false,Tx,0,8,FA,00,00,00,00,00,00,00,
555759,0000014B,false,Tx,0,8,01,8B,00,00,00,00,00,00,
555775,0000046A,false,Tx,0,8,00,20,00,00,00,40,00,03,
559238,00000163,false,Tx,0,8,43,05,40,02,08,00,02,00,
560447,0000017D,false,Tx,0,7,20,20,00,00,00,00,00,00,
561652,0000008A,false,Tx,0,8,80,00,00,04,00,02,32,B4,
561708,000000AF,false,Tx,0,8,00,00,30,00,00,41,FC,00,
561726,0000008D,false,Tx,0,8,00,00,00,00,00,20,00,20,
562910,00000167,false,Tx,0,8,0C,10,00,00,00,00,00,00,
562961,0000009B,false,Tx,0,8,00,00,00,00,08,00,00,08,
562978,000000DF,false,Tx,0,8,00,00,00,00,00,00,08,00,
564142,00000196,false,Tx,0,8,00,00,00,00,00,00,00,00,
564188,000001F2,false,Tx,0,2,20,00,00,00,00,00,00,00,
564205,000001FC,false,Tx,0,8,00,00,00,CC,00,00,40,00,
564223,000003C2,false,Tx,0,8,7F,FF,F9,E4,00,12,05,20,
564240,000001FD,false,Tx,0,8,00,00,00,00,00,00,00,00,
564258,0000009D,false,Tx,0,8,60,06,80,70,00,0A,00,00,
565430,00000214,false,Tx,0,6,02,00,00,00,00,00,00,00,
565484,00000227,false,Tx,0,8,00,00,00,10,FF,FF,80,00,
565501,00000172,false,Tx,0,8,85,62,9D,85,62,9D,00,00,
565518,00000094,false,Tx,0,8,80,00,00,00,00,00,03,00,
565535,00000099,false,Tx,0,8,A0,8F,80,04,00,5D,00,F6,
566698,00000242,false,Tx,0,8,00,00,00,00,00,08,00,00,
566742,00000244,false,Tx,0,8,00,00,20,04,00,00,00,00,
567921,00000353,false,Tx,0,8,00,00,00,00,00,00,00,00,
570278,000003BA,false,Tx,0,8,03,07,12,64,00,00,00,00,
570333,0000022C,false,Tx,0,8,05,47,8A,3C,48,F1,08,F1,
571504,000000F1,false,Tx,0,8,00,00,00,00,00,00,00,00,
571555,000000AF,false,Tx,0,8,00,00,00,00,00,00,00,00,
572723,00000088,false,Tx,0,8,00,00,38,00,00,00,00,38,
572768,000000AF,false,Tx,0,8,00,00,2C,00,00,51,FB,00,
572786,000000C7,false,Tx,0,4,00,00,00,00,00,00,00,00,
572804,000000FB,false,Tx,0,8,11,FF,00,30,AB,26,05,FF,
572823,0000008E,false,Tx,0,8,5D,05,04,00,13,88,03,C4,
572841,0000019C,false,Tx,0,8,06,A0,26,9F,7F,FF,03,7F,
572860,0000008F,false,Tx,0,8,00,00,00,00,00,00,00,00,
572878,0000014F,false,Tx,0,8,02,28,00,00,00,00,00,00,
574050,0000009B,false,Tx,0,8,00,00,00,00,0C,00,00,0C,
574100,000001AF,false,Tx,0,8,00,00,00,00,00,00,00,00,
574118,000003C2,false,Tx,0,8,7F,FF,F9,EA,00,12,05,20,
574137,00000194,false,Tx,0,8,0F,0F,00,01,00,00,00,00,
574156,000000DF,false,Tx,0,8,00,00,00,00,00,00,08,00,
574175,00000196,false,Tx,0,8,75,30,75,30,20,00,75,2B,
575345,00000173,false,Tx,0,8,00,00,C7,C8,0C,D9,0C,D8,
578853,00000163,false,Tx,0,8,40,05,40,02,08,00,02,00,
580057,000000C1,false,Tx,0,8,B0,01,85,46,30,00,00,00,
580109,0000022A,false,Tx,0,8,05,43,42,05,43,43,42,00,
581277,000000C7,false,Tx,0,4,00,00,00,00,00,00,00,00,
581327,000000F1,false,Tx,0,8,00,00,00,00,00,00,00,00,
582499,00000165,false,Tx,0,8,00,00,06,A0,E5,75,0B,00,
582549,00000167,false,Tx,0,8,0C,10,00,00,00,00,00,00,
582567,00000169,false,Tx,0,6,3B,19,60,F7,3C,00,00,00,
583732,000000DF,false,Tx,0,8,00,00,00,00,00,00,08,00,
583784,000001F1,false,Tx,0,8,0E,00,00,00,00,00,00,00,
583802,000001FD,false,Tx,0,8,00,00,00,00,00,00,00,00,
583820,000001F2,false,Tx,0,2,20,00,00,00,00,00,00,00,
583838,00000227,false,Tx,0,8,00,00,00,20,FF,FF,00,00,
583858,000003C2,false,Tx,0,8,7F,FF,F9,E9,00,12,05,20,
583917,0000022A,false,Tx,0,2,00,70,00,00,00,00,00,00,
583933,0000041F,false,Tx,0,3,02,70,01,00,00,00,00,00,
585103,0000009D,false,Tx,0,8,80,08,80,70,00,08,00,00,
585153,00000230,false,Tx,0,8,00,00,00,00,00,00,00,00,
585172,00000232,false,Tx,0,8,00,00,00,00,00,00,00,00,
585191,00000299,false,Tx,0,8,62,B7,D0,FF,FF,71,00,00,
585209,00000242,false,Tx,0,8,00,00,00,00,00,08,00,00,
585227,00000172,false,Tx,0,8,85,62,9D,85,62,9D,00,00,
586398,00000099,false,Tx,0,8,A0,81,80,04,00,5D,00,F8,
586450,00000246,false,Tx,0,8,00,00,00,00,00,00,00,00,
586468,00000334,false,Tx,0,8,00,00,00,00,00,00,08,00,
589934,000000C5,false,Tx,0,8,00,00,00,00,00,00,00,00,
592292,000000AF,false,Tx,0,8,00,00,24,00,00,71,F9,00,
592342,000000C7,false,Tx,0,4,00,00,00,00,00,00,00,00,
592362,0000008E,false,Tx,0,8,5D,05,04,00,13,88,05,C2,
593533,0000019C,false,Tx,0,8,06,A0,26,9F,7F,FE,05,7F,
593578,000000AF,false,Tx,0,8,00,00,00,00,00,00,00,00,
593598,000000DF,false,Tx,0,8,00,00,00,00,00,00,08,00,
595921,00000094,false,Tx,0,8,80,00,00,00,00,00,03,00,
595970,00000094,false,Tx,0,8,7F,FF,13,FF,7F,FF,03,EF,
595990,0000029C,false,Tx,0,8,28,00,00,00,00,00,00,00,
597178,000003A6,false,Tx,0,8,00,00,00,00,00,00,00,00,
598376,000003DE,false,Tx,0,8,01,F2,01,F3,01,F2,01,F5,
598427,00000468,false,Tx,0,8,28,00,30,00,28,00,30,00,
599601,0000046D,false,Tx,0,8,02,B6,02,B6,00,00,01,02,
600793,00000297,false,Tx,0,8,01,03,E0,00,C3,0C,A1,8C,
600813,000001C7,false,Tx,0,8,00,00,7F,FF,00,0A,00,00,
600839,000000AC,false,Tx,0,8,04,70,68,A8,02,00,00,B6,
602010,000000F1,false,Tx,0,8,00,00,00,00,00,00,00,00,
603213,0000008F,false,Tx,0,8,00,00,00,00,00,00,00,00,
603264,00000167,false,Tx,0,8,0C,10,00,00,00,00,00,00,
603284,000000AF,false,Tx,0,8,00,00,00,00,00,00,00,00,
604450,000001F1,false,Tx,0,8,0E,00,00,00,08,74,00,00,
604469,00000204,false,Tx,0,8,08,00,00,00,00,00,00,00,
604490,00000353,false,Tx,0,8,00,00,00,00,00,00,00,00,
604510,0000021C,false,Tx,0,8,00,00,00,00,00,00,00,00,
605680,00000172,false,Tx,0,8,85,62,9D,85,62,9D,00,00,
605730,0000022A,false,Tx,0,2,00,70,00,00,00,00,00,00,
605751,00000094,false,Tx,0,8,80,00,00,00,00,00,03,00,
605772,00000099,false,Tx,0,8,A0,83,80,04,00,5D,00,FA,
605795,0000014B,false,Tx,0,8,01,8B,00,00,00,00,00,00,
606968,00000242,false,Tx,0,8,00,00,00,00,00,08,00,00,
607017,00000246,false,Tx,0,8,00,00,00,00,00,00,00,00,
607038,000002F6,false,Tx,0,8,80,00,00,00,00,01,00,00,
607079,000002FD,false,Tx,0,8,FA,00,00,00,00,00,00,00,
608250,00000319,false,Tx,0,8,83,24,00,00,2B,AF,00,00,
609445,0000034C,false,Tx,0,8,00,00,00,00,00,00,00,00,
610645,000001C7,false,Tx,0,8,00,00,BF,FE,00,0C,00,00,
610693,00000402,false,Tx,0,8,00,00,00,00,00,05,00,00,
611866,000000F1,false,Tx,0,8,00,00,00,00,00,00,00,00,
611914,000001E5,false,Tx,0,8,46,80,00,68,00,7F,FA,2B,
611936,000000AC,false,Tx,0,8,04,70,78,A8,02,00,00,A6,
613111,000000C7,false,Tx,0,4,00,00,00,00,00,00,00,00,
613157,0000019C,false,Tx,0,8,06,A0,26,9F,7F,FF,07,7F,
613179,0000014F,false,Tx,0,8,02,48,00,00,00,00,00,00,
613202,000003C2,false,Tx,0,8,7F,FF,F9,E6,00,12,05,20,
614377,000000DF,false,Tx,0,8,00,00,00,00,00,00,08,00,
614426,0000034A,false,Tx,0,8,00,00,00,00,00,00,00,00,
614462,0000019F,false,Tx,0,8,00,00,00,00,00,00,00,00,
614485,00000196,false,Tx,0,8,75,30,75,30,20,00,75,2B,
614507,00000361,false,Tx,0,8,00,00,00,00,00,00,00,00,
614529,0000009D,false,Tx,0,8,B0,0B,80,70,00,05,00,00,
615701,00000364,false,Tx,0,8,00,00,00,00,00,00,00,32,
615748,00000418,false,Tx,0,8,00,00,00,00,00,00,00,00,
615770,00000094,false,Tx,0,8,80,00,23,FF,80,00,03,DF,
615792,0000014B,false,Tx,0,8,01,8B,00,00,00,00,00,00,
616967,00000379,false,Tx,0,8,84,00,00,85,00,00,00,00,
617017,00000541,false,Tx,0,8,18,03,0B,0D,02,4D,00,00,
620495,000000C5,false,Tx,0,8,30,00,00,00,30,00,00,00,
621696,00000232,false,Tx,0,8,00,00,00,00,00,00,00,00,
621744,000000F1,false,Tx,0,8,00,00,00,00,00,00,00,00,
622927,000000C7,false,Tx,0,4,00,00,00,00,00,00,00,00,
622973,00000165,false,Tx,0,8,00,00,06,A0,E5,73,0D,00,
622994,00000166,false,Tx,0,8,00,00,00,00,00,00,00,00,
623013,00000169,false,Tx,0,6,3B,19,60,F7,3C,00,00,00,
624188,00000196,false,Tx,0,8,00,00,00,00,00,00,00,00,
624232,000001E5,false,Tx,0,8,46,80,00,78,00,7F,F9,38,
624254,000001F1,false,Tx,0,8,0E,00,00,00,00,00,00,00,
624275,000001F2,false,Tx,0,2,20,00,00,00,00,00,00,00,
624296,000001F1,false,Tx,0,8,0E,00,00,00,08,74,00,00,
624318,000001F2,false,Tx,0,2,20,00,00,00,00,00,00,00,
624338,000003C2,false,Tx,0,8,7F,FF,F9,EC,00,12,05,20,
624360,000001FD,false,Tx,0,8,00,00,00,00,00,00,00,00,
624383,0000022A,false,Tx,0,2,00,70,00,00,00,00,00,00,
624422,00000230,false,Tx,0,8,00,00,00,00,00,00,00,00,
625598,00000172,false,Tx,0,8,85,62,9D,85,62,9D,00,00,
625643,00000242,false,Tx,0,8,00,00,00,00,00,08,00,00,
625665,00000094,false,Tx,0,8,80,00,2B,FF,80,00,03,D7,
625688,00000094,false,Tx,0,8,80,00,00,00,00,00,03,00,
625711,00000244,false,Tx,0,8,00,00,20,04,00,00,00,00,
630334,000000C1,false,Tx,0,8,80,01,85,46,00,00,00,00,
631537,000000F1,false,Tx,0,8,00,00,00,00,00,00,00,00,
631584,00000166,false,Tx,0,8,00,00,00,00,00,00,00,00,
631609,000000AF,false,Tx,0,8,00,00,14,00,00,B1,F5,00,
632787,0000008D,false,Tx,0,8,00,00,00,00,00,90,00,90,
632834,0000019C,false,Tx,0,8,06,A0,26,9F,7F,FF,09,7F,
634012,00000194,false,Tx,0,8,0F,0F,00,01,00,00,00,00,
634058,000001E1,false,Tx,0,7,40,BF,01,00,00,00,00,00,
634090,000000DF,false,Tx,0,8,00,00,00,00,00,00,08,00,
634115,00000196,false,Tx,0,8,75,30,75,30,20,00,75,2B,
634142,000003C2,false,Tx,0,8,7F,FF,F9,EA,00,12,05,20,
634168,000001E5,false,Tx,0,8,46,80,00,88,00,7F,F8,C9,
634194,0000019F,false,Tx,0,8,00,00,00,00,00,00,00,00,
634219,000002EF,false,Tx,0,8,FE,20,00,00,00,00,00,00,
635395,00000394,false,Tx,0,8,00,28,00,00,10,43,00,7B,
635441,0000030C,false,Tx,0,8,E9,30,00,00,00,00,00,01,
635465,0000049A,false,Tx,0,1,00,00,00,00,00,00,00,00,
635489,0000009D,false,Tx,0,8,D0,0D,80,70,00,03,00,00,
635516,00000389,false,Tx,0,8,00,00,00,00,00,00,00,00,
635541,00000173,false,Tx,0,8,00,00,C7,C8,0C,D9,0C,D8,
636718,000003A3,false,Tx,0,8,00,00,00,00,00,00,00,00,
640214,000000C5,false,Tx,0,8,10,00,00,00,10,00,00,00,
641416,000000C7,false,Tx,0,4,00,00,00,00,00,00,00,00,
641460,00000088,false,Tx,0,8,00,00,A8,00,00,00,00,A8,
641485,000000F1,false,Tx,0,8,00,00,00,00,00,00,00,00,
642660,0000008E,false,Tx,0,8,5D,05,04,00,13,88,0A,CD,
642708,00000166,false,Tx,0,8,00,00,00,00,00,00,00,00,
642739,000000AF,false,Tx,0,8,00,00,00,00,00,00,00,00,
643917,00000196,false,Tx,0,8,00,00,00,00,00,00,00,00,
643958,000001F2,false,Tx,0,2,20,00,00,00,00,00,00,00,
643981,000001F1,false,Tx,0,8,0E,00,00,00,00,00,00,00,
644007,000001FD,false,Tx,0,8,00,00,00,00,00,00,00,00,
644033,000001F2,false,Tx,0,2,20,00,00,00,00,00,00,00,
644062,00000227,false,Tx,0,8,00,00,00,50,FF,FD,80,00,
644086,000003C2,false,Tx,0,8,7F,FF,F9,E0,00,12,05,20,
644113,0000022A,false,Tx,0,2,00,70,00,00,00,00,00,00,
645288,00000230,false,Tx,0,8,00,00,00,00,00,00,00,00,
645329,0000009D,false,Tx,0,8,E0,0E,80,70,00,02,00,00,
645355,00000232,false,Tx,0,8,00,00,00,00,00,00,00,00,
645380,00000172,false,Tx,0,8,85,62,9D,85,62,9D,00,00,
645405,00000242,false,Tx,0,8,00,00,00,00,00,08,00,00,
645431,000002A2,false,Tx,0,8,86,00,20,C8,00,84,00,AC,
645456,00000094,false,Tx,0,8,80,00,3B,FF,80,00,03,C7,
646648,0000014B,false,Tx,0,8,01,8B,00,00,00,00,00,00,
650146,00000171,false,Tx,0,8,00,30,19,B0,87,42,AC,F0,
650193,000001C7,false,Tx,0,8,00,00,BF,FE,00,14,00,00,
651374,00000088,false,Tx,0,8,00,00,B8,00,00,00,00,B8,
652590,0000008A,false,Tx,0,8,80,00,00,04,00,02,3B,BD,
652633,0000008E,false,Tx,0,8,5D,05,04,00,13,88,0B,CC,
652666,0000019C,false,Tx,0,8,06,A0,26,9F,7F,FF,0B,7F,
652694,0000009B,false,Tx,0,8,00,00,00,00,2C,00,00,2C,
653877,000001AF,false,Tx,0,8,00,00,00,00,00,00,00,00,
653920,00000194,false,Tx,0,8,0F,0F,00,01,00,00,00,00,
653950,000000DF,false,Tx,0,8,00,00,00,00,00,00,08,00,
653981,000001E5,false,Tx,0,8,46,80,00,A8,00,7F,F6,E7,
654011,000003C2,false,Tx,0,8,7F,FF,F9,E6,00,12,05,20,
654042,00000196,false,Tx,0,8,75,30,75,30,20,00,75,2B,
654075,0000019F,false,Tx,0,8,00,00,00,00,00,00,00,00,
654105,00000204,false,Tx,0,8,08,00,00,00,00,00,00,00,
655287,0000021C,false,Tx,0,8,00,00,00,00,00,00,00,00,
655333,0000009D,false,Tx,0,8,F0,0F,80,70,00,01,00,00,
655363,00000173,false,Tx,0,8,00,00,C7,C8,0C,D9,0C,D8,
655393,000002FD,false,Tx,0,8,FA,00,00,00,00,00,00,00,
658892,00000163,false,Tx,0,8,40,05,40,02,08,00,02,00,
660090,000000C1,false,Tx,0,8,B0,01,85,46,30,00,00,00,
660133,0000017D,false,Tx,0,7,20,20,00,00,00,00,00,00,
661410,000001FC,false,Tx,0,8,00,00,00,B5,00,00,C0,00,
662723,000000FB,false,Tx,0,8,11,FF,00,30,AB,62,05,FB,
662798,0000008E,false,Tx,0,8,5D,05,04,00,13,88,0C,CB,
662826,0000008F,false,Tx,0,8,00,00,00,00,00,00,00,00,
664016,000000DF,false,Tx,0,8,00,00,00,00,00,00,08,00,
664082,0000019C,false,Tx,0,8,06,A0,26,9F,7F,FE,0C,7F,
664104,000001F1,false,Tx,0,8,0E,00,00,00,00,00,00,00,
664124,000001F2,false,Tx,0,2,20,00,00,00,00,00,00,00,
664154,000001F1,false,Tx,0,8,0E,00,00,00,08,74,00,00,
664172,000001F2,false,Tx,0,2,20,00,00,00,00,00,00,00,
665345,0000009D,false,Tx,0,8,00,00,80,70,00,00,00,00,
665400,000001FD,false,Tx,0,8,00,00,00,00,00,00,00,00,
665423,00000214,false,Tx,0,6,06,00,00,00,00,00,00,00,
665448,00000172,false,Tx,0,8,85,62,9D,85,62,9D,00,00,
665472,00000227,false,Tx,0,8,00,00,00,60,FF,FD,00,00,
665496,00000094,false,Tx,0,8,80,00,00,00,00,00,03,00,
665519,00000099,false,Tx,0,8,A0,89,80,04,00,5D,00,F0,
666744,00000232,false,Tx,0,8,00,00,00,00,00,00,00,00,
666789,00000242,false,Tx,0,8,00,00,00,00,00,08,00,00,
667954,00000348,false,Tx,0,8,00,00,00,00,00,00,00,00,
670293,000003BA,false,Tx,0,8,03,07,29,64,00,00,00,00,
671491,000000F1,false,Tx,0,8,00,00,00,00,00,00,00,00,
671537,00000166,false,Tx,0,8,00,00,00,00,00,00,00,00,
671566,000001E5,false,Tx,0,8,46,80,00,C8,00,7F,F4,85,
671599,000000AF,false,Tx,0,8,00,00,00,00,00,00,00,00,
672775,0000008A,false,Tx,0,8,80,00,00,04,00,02,3D,BB,
672820,000000C7,false,Tx,0,4,00,00,00,00,00,00,00,00,
672907,0000008D,false,Tx,0,8,00,00,00,00,00,D0,00,D0,
672957,000000FB,false,Tx,0,8,11,FF,00,30,AB,71,05,FA,
673013,0000008E,false,Tx,0,8,5D,05,04,00,13,88,0D,CA,
673038,0000019C,false,Tx,0,8,06,A0,26,9F,7F,FF,0D,7F,
673061,0000008F,false,Tx,0,8,00,00,00,00,00,00,00,00,
673084,0000014F,false,Tx,0,8,02,78,00,00,00,00,00,00,
674277,0000009B,false,Tx,0,8,00,00,00,00,34,00,00,34,
674334,000001AF,false,Tx,0,8,00,00,00,00,00,00,00,00,
674364,000003C2,false,Tx,0,8,7F,FF,F9,E9,00,12,05,20,
674393,00000194,false,Tx,0,8,0F,0F,00,01,00,00,00,00,
674417,000000DF,false,Tx,0,8,00,00,00,00,00,00,08,00,
674440,0000009D,false,Tx,0,8,10,01,80,70,00,0F,00,00,
676761,00000391,false,Tx,0,8,10,01,A0,00,B0,00,48,00,
679112,00000163,false,Tx,0,8,41,05,40,02,08,00,02,00,
679161,0000022A,false,Tx,0,8,01,43,43,07,42,43,43,00,
681478,000000AF,false,Tx,0,8,00,00,00,00,00,00,00,00,
682677,0000008D,false,Tx,0,8,00,00,00,00,00,E0,00,E0,
682711,00000165,false,Tx,0,8,00,00,06,A0,E5,80,00,00,
682733,0000008E,false,Tx,0,8,5D,05,04,00,13,88,0E,C9,
682766,0000019C,false,Tx,0,8,06,A0,26,9F,7F,FE,0E,7F,
682790,000000AF,false,Tx,0,8,00,00,00,00,00,00,00,00,
683974,000001F2,false,Tx,0,2,20,00,00,00,00,00,00,00,
684025,000001F1,false,Tx,0,8,0E,00,00,00,00,00,00,00,
684053,000001FD,false,Tx,0,8,00,00,00,00,00,00,00,00,
684077,000001F2,false,Tx,0,2,20,00,00,00,00,00,00,00,
684098,00000227,false,Tx,0,8,00,00,00,70,FF,FC,80,00,
684119,000003C2,false,Tx,0,8,7F,FF,F9,E9,00,12,05,20,
684145,0000022A,false,Tx,0,2,00,70,00,00,00,00,00,00,
685352,00000230,false,Tx,0,8,00,00,00,00,00,00,00,00,
685391,0000009D,false,Tx,0,8,20,02,80,70,00,0E,00,00,
685421,00000232,false,Tx,0,8,00,00,00,00,00,00,00,00,
685448,00000299,false,Tx,0,8,62,B7,D0,FF,FF,71,00,00,
685474,00000242,false,Tx,0,8,00,00,00,00,00,08,00,00,
685499,00000172,false,Tx,0,8,85,62,9D,85,62,9D,00,00,
685531,00000094,false,Tx,0,8,80,00,00,00,00,00,03,00,
686706,00000334,false,Tx,0,8,00,00,00,00,00,00,08,00,
686757,000003AC,false,Tx,0,8,00,5D,02,22,4B,FF,18,00,
690218,000000C5,false,Tx,0,8,20,00,00,00,20,00,00,00,
691409,000000F1,false,Tx,0,8,00,00,00,00,00,00,00,00,
692585,000000FB,false,Tx,0,8,11,FF,00,30,AB,80,05,F9,
692619,0000008F,false,Tx,0,8,00,00,00,00,00,00,00,00,
692649,0000014F,false,Tx,0,8,02,88,00,00,00,00,00,00,
693817,00000196,false,Tx,0,8,75,30,75,30,20,00,75,2B,
693853,000001E1,false,Tx,0,7,40,BD,03,00,00,00,00,00,
695018,0000009D,false,Tx,0,8,30,03,80,70,00,0D,00,00,
695043,00000173,false,Tx,0,8,00,00,C7,C8,0C,D9,0C,D8,
696207,0000029C,false,Tx,0,8,28,00,00,00,00,00,00,00,
696234,000002A2,false,Tx,0,8,86,00,20,C8,00,84,00,AC,
697400,000003A6,false,Tx,0,8,00,00,00,00,00,00,00,00,
698565,000003E2,false,Tx,0,8,1E,B6,17,A2,63,4D,63,5B,
699733,0000046B,false,Tx,0,8,0B,BC,00,F9,05,70,01,48,
699763,0000046D,false,Tx,0,8,02,B8,02,B8,00,00,01,02,
699788,00000295,false,Tx,0,8,86,2B,00,02,34,4E,3F,EA,
700951,000001E9,false,Tx,0,8,00,00,00,08,0F,F7,00,00,
702107,000000AC,false,Tx,0,8,04,70,08,A8,02,00,00,D6,
702128,0000008A,false,Tx,0,8,80,00,00,04,00,02,30,B6,
702150,0000008D,false,Tx,0,8,00,00,00,00,00,00,00,00,
703306,00000167,false,Tx,0,8,0C,10,00,00,00,00,00,00,
703328,00000169,false,Tx,0,6,3B,19,60,F7,3C,00,00,00,
704485,000001E5,false,Tx,0,8,46,80,00,F8,00,7F,F1,B0,
632104,0000039F,false,Rx,0,8,44,71,00,B0,04,7D,0D,F1,
632116,00000323,false,Rx,0,8,00,00,00,00,00,00,D8,97,
632122,00000324,false,Rx,0,8,70,46,40,4A,49,00,00,7B,
632128,0000033B,false,Rx,0,8,80,00,00,51,00,00,00,00,
632134,0000033D,false,Rx,0,8,00,00,30,20,00,18,00,00,
632140,000003A2,false,Rx,0,8,21,67,10,74,03,FF,00,DE,
632146,000003A4,false,Rx,0,8,00,00,06,00,05,00,00,00,
632152,000003B7,false,Rx,0,8,00,00,00,00,00,03,D0,41,
632158,00000491,false,Rx,0,8,00,00,00,00,00,00,00,00,
704507,000001F1,false,Tx,0,8,0E,00,00,00,08,74,00,00,
704615,00000356,false,Tx,0,8,00,00,00,1E,3E,00,00,00,
705775,00000204,false,Tx,0,8,08,00,00,00,00,00,00,00,
705797,00000358,false,Tx,0,8,00,00,00,00,00,00,00,00,
705818,00000094,false,Tx,0,8,80,00,00,00,00,00,03,00,
705840,00000094,false,Tx,0,8,7F,FF,6B,FF,7F,FF,03,97,
705866,00000099,false,Tx,0,8,A0,8D,80,04,00,5D,00,F4,
705888,0000014B,false,Tx,0,8,01,8B,00,00,00,00,00,00,
707044,000003FC,false,Tx,0,8,1E,3E,00,00,00,00,00,00,
707066,00000297,false,Tx,0,8,00,03,00,00,00,00,20,00,
707086,000002F6,false,Tx,0,8,80,00,00,00,00,01,00,00,
708236,00000319,false,Tx,0,8,83,23,00,00,2B,B0,00,00,
709393,0000034F,false,Tx,0,8,00,00,00,00,00,00,00,00,
709415,00000361,false,Tx,0,8,00,00,00,00,00,00,00,00,
710568,0000029B,false,Tx,0,8,3B,CA,86,02,FD,06,00,00,
711724,000000F1,false,Tx,0,8,00,00,00,00,00,00,00,00,
711744,00000348,false,Tx,0,8,00,00,00,00,00,00,00,00,
711765,00000088,false,Tx,0,8,00,00,18,00,00,00,00,18,
712922,0000008A,false,Tx,0,8,7F,FF,00,04,00,02,31,B7,
712941,0000008F,false,Tx,0,8,00,00,00,00,00,00,00,00,
714096,000003C2,false,Tx,0,8,7F,FF,F9,E8,00,12,05,20,
714114,000001AF,false,Tx,0,8,00,00,00,00,00,00,00,00,
714131,000000DF,false,Tx,0,8,00,00,00,00,00,00,08,00,
714149,00000194,false,Tx,0,8,0F,0F,00,01,00,00,00,00,
714167,0000019F,false,Tx,0,8,00,00,00,00,00,00,00,00,
714185,0000034A,false,Tx,0,8,00,00,00,00,00,00,00,00,
714203,00000196,false,Tx,0,8,75,30,75,30,20,00,75,2B,
715353,00000364,false,Tx,0,8,00,00,00,00,00,00,00,32,
715372,0000009D,false,Tx,0,8,50,05,80,70,00,0B,00,00,
715391,0000029B,false,Tx,0,8,80,00,00,00,00,00,00,00,
715409,00000094,false,Tx,0,8,80,00,00,00,00,00,03,00,
716561,00000376,false,Tx,0,8,00,00,00,00,00,00,00,00,
716579,0000014B,false,Tx,0,8,01,8B,00,00,00,00,00,00,
716597,0000046A,false,Tx,0,8,00,20,00,00,00,40,00,03,
720015,000000C5,false,Tx,0,8,10,00,00,00,10,00,00,00,
721170,00000232,false,Tx,0,8,00,00,00,00,00,00,00,00,
721188,000000F1,false,Tx,0,8,00,00,00,00,00,00,00,00,
722338,000000AF,false,Tx,0,8,00,00,30,00,00,41,FC,00,
722355,0000008E,false,Tx,0,8,5D,05,04,00,13,88,02,C5,
722372,00000165,false,Tx,0,8,00,00,06,A0,E5,7E,02,00,
723520,00000169,false,Tx,0,6,3B,19,60,F7,3C,00,00,00,
723537,000001E1,false,Tx,0,7,40,C0,00,00,00,00,00,00,
724685,000001F1,false,Tx,0,8,0E,00,00,00,00,00,00,00,
724700,000001E5,false,Tx,0,8,46,80,00,18,00,7F,FF,5E,
724717,000001F2,false,Tx,0,2,20,00,00,00,00,00,00,00,
724731,000003C2,false,Tx,0,8,7F,FF,F9,E3,00,12,05,20,
724747,000001F1,false,Tx,0,8,0E,00,00,00,08,74,00,00,
724764,0000009D,false,Tx,0,8,60,06,80,70,00,0A,00,00,
724779,000001F2,false,Tx,0,2,20,00,00,00,00,00,00,00,
724794,000001FD,false,Tx,0,8,00,00,00,00,00,00,00,00,
724809,00000172,false,Tx,0,8,85,62,9D,85,62,9D,00,00,
725957,0000022A,false,Tx,0,2,00,70,00,00,00,00,00,00,
725972,00000094,false,Tx,0,8,7F,FF,7B,FF,7F,FF,03,87,
725987,00000094,false,Tx,0,8,80,00,00,00,00,00,03,00,
726003,00000099,false,Tx,0,8,A0,8F,80,04,00,5D,00,F6,
726020,00000230,false,Tx,0,8,00,00,00,00,00,00,00,00,
726035,00000244,false,Tx,0,8,00,00,20,04,00,00,00,00,
730579,000002A2,false,Tx,0,8,86,86,20,00,40,84,00,AC,
731728,000000F1,false,Tx,0,8,00,00,00,00,00,00,00,00,
731744,000000AC,false,Tx,0,8,04,70,38,A8,02,00,00,E6,
732894,000000C7,false,Tx,0,4,00,00,00,00,00,00,00,00,
732909,000000FB,false,Tx,0,8,11,FF,00,30,AB,AE,05,F7,
732924,000002EF,false,Tx,0,8,FC,40,00,00,00,00,00,00,
732939,000001AF,false,Tx,0,8,00,00,00,00,00,00,00,00,
734088,000000DF,false,Tx,0,8,00,00,00,00,00,00,08,00,
734104,000001E5,false,Tx,0,8,46,80,00,28,00,7F,FE,6F,
734118,0000039A,false,Tx,0,8,00,43,00,00,2F,80,00,00,
734133,00000196,false,Tx,0,8,75,30,75,30,20,00,75,2B,
734148,0000019F,false,Tx,0,8,00,00,00,00,00,00,00,00,
734166,000003C2,false,Tx,0,8,7F,FF,F9,E5,00,12,05,20,
734180,0000030C,false,Tx,0,8,E9,30,00,00,00,00,00,01,
734209,00000394,false,Tx,0,8,00,28,00,00,10,43,01,7A,
735358,0000049A,false,Tx,0,1,00,00,00,00,00,00,00,00,
735374,0000009D,false,Tx,0,8,70,07,80,70,00,09,00,00,
735390,00000389,false,Tx,0,8,00,00,00,00,00,00,00,00,
735406,000003AB,false,Tx,0,8,80,00,00,03,FF,45,00,00,
736555,000003A3,false,Tx,0,8,00,00,00,00,00,00,00,00,
739985,000000C1,false,Tx,0,8,B0,01,85,46,30,00,00,00,
741195,000000AF,false,Tx,0,8,00,00,28,00,00,61,FA,00,
741261,000000C7,false,Tx,0,4,00,00,00,00,00,00,00,00,
742423,0000008A,false,Tx,0,8,7F,FF,00,04,00,02,34,B2,
742455,00000166,false,Tx,0,8,00,00,00,00,00,00,00,00,
742488,00000167,false,Tx,0,8,0C,10,00,00,00,00,00,00,
743663,0000019C,false,Tx,0,8,06,A0,26,9F,7F,FE,04,7F,
743721,000001F2,false,Tx,0,2,20,00,00,00,00,00,00,00,
743734,000001F1,false,Tx,0,8,0E,00,00,00,00,00,00,00,
743749,000001FD,false,Tx,0,8,00,00,00,00,00,00,00,00,
743766,000001F2,false,Tx,0,2,20,00,00,00,00,00,00,00,
744937,00000227,false,Tx,0,8,00,00,00,A0,FF,FB,00,00,
744992,000003C2,false,Tx,0,8,7F,FF,F9,EA,00,12,05,20,
745009,0000022A,false,Tx,0,2,00,70,00,00,00,00,00,00,
745023,0000041F,false,Tx,0,3,02,70,01,00,00,00,00,00,
745037,00000230,false,Tx,0,8,00,00,00,00,00,00,00,00,
745053,0000009D,false,Tx,0,8,80,08,80,70,00,08,00,00,
745068,00000232,false,Tx,0,8,00,00,00,00,00,00,00,00,
745083,00000172,false,Tx,0,8,85,62,9D,85,62,9D,00,00,
745098,00000242,false,Tx,0,8,00,00,00,00,00,08,00,00,
745114,000002A2,false,Tx,0,8,86,00,20,C8,00,84,00,AC,
746274,00000094,false,Tx,0,8,80,00,00,00,00,00,03,00,
746304,00000391,false,Tx,0,8,10,01,A0,00,B0,00,48,00,
746333,000003AC,false,Tx,0,8,00,00,02,22,06,2B,4E,3F,
750889,00000171,false,Tx,0,8,00,30,2D,B0,87,42,AC,C4,
752075,00000166,false,Tx,0,8,00,00,00,00,00,00,00,00,
752134,0000008A,false,Tx,0,8,7F,FF,00,04,00,02,35,B3,
752160,000000AF,false,Tx,0,8,00,00,24,00,00,71,F9,00,
752177,0000008E,false,Tx,0,8,5D,05,04,00,13,88,05,C2,
753348,0000009B,false,Tx,0,8,00,00,00,00,14,00,00,14,
753402,000000DF,false,Tx,0,8,00,00,00,00,00,00,08,00,
753418,00000194,false,Tx,0,8,0F,0F,00,01,00,00,00,00,
753433,000003C2,false,Tx,0,8,7F,FF,F9,E8,00,12,05,20,
753448,000001E1,false,Tx,0,7,40,BF,01,00,00,00,00,00,
754610,00000196,false,Tx,0,8,75,30,75,30,20,00,75,2B,
754643,0000019F,false,Tx,0,8,00,00,00,00,00,00,00,00,
754670,000001E5,false,Tx,0,8,46,80,00,48,00,7F,FC,0D,
754689,00000204,false,Tx,0,8,08,00,00,00,00,00,00,00,
754704,0000009D,false,Tx,0,8,90,09,80,70,00,07,00,00,
754719,0000021C,false,Tx,0,8,00,00,00,00,00,00,00,00,
755871,00000297,false,Tx,0,8,00,03,00,00,00,00,20,00,
755894,0000014B,false,Tx,0,8,01,8B,00,00,00,00,00,00,
755910,000002FD,false,Tx,0,8,FA,00,00,00,00,00,00,00,
757076,000002B6,false,Tx,0,8,30,00,00,02,19,0C,86,A1,
760573,000000C5,false,Tx,0,8,10,00,00,00,10,00,00,00,
761787,000000AC,false,Tx,0,8,04,70,68,A8,02,00,00,B6,
761851,00000088,false,Tx,0,8,00,00,68,00,00,00,00,68,
761877,000000C7,false,Tx,0,4,00,00,00,00,00,00,00,00,
763037,0000008F,false,Tx,0,8,00,00,00,00,00,00,00,00,
763074,00000166,false,Tx,0,8,00,00,00,00,00,00,00,00,
763100,00000169,false,Tx,0,6,3B,19,60,F7,3C,00,00,00,
764267,00000196,false,Tx,0,8,00,00,00,00,00,00,00,00,
764321,000001E5,false,Tx,0,8,46,80,00,58,00,7F,FB,1A,
764337,000001F1,false,Tx,0,8,0E,00,00,00,08,74,00,00,
764353,000001F2,false,Tx,0,2,20,00,00,00,00,00,00,00,
764369,000003C2,false,Tx,0,8,7F,FF,F9,EE,00,12,05,20,
764385,000001FD,false,Tx,0,8,00,00,00,00,00,00,00,00,
764400,00000214,false,Tx,0,6,02,00,00,00,00,00,00,00,
764433,0000009D,false,Tx,0,8,A0,0A,80,70,00,06,00,00,
765598,00000227,false,Tx,0,8,00,00,00,B0,FF,FA,80,00,
765650,0000022A,false,Tx,0,2,00,70,00,00,00,00,00,00,
765665,00000094,false,Tx,0,8,7F,FF,1B,FF,7F,FF,03,E7,
765681,00000094,false,Tx,0,8,80,00,00,00,00,00,03,00,
765696,00000230,false,Tx,0,8,00,00,00,00,00,00,00,00,
766853,00000348,false,Tx,0,8,00,00,00,00,00,00,00,00,
768037,0000034A,false,Tx,0,8,00,00,00,00,00,00,00,00,
768095,00000419,false,Tx,0,8,00,00,00,00,00,00,03,E2,
770424,0000022C,false,Tx,0,8,09,47,8A,3C,48,F1,08,F1,
771632,00000166,false,Tx,0,8,00,00,00,00,00,00,00,00,
771691,000001E5,false,Tx,0,8,46,80,00,68,00,7F,FA,2B,
771708,000000AF,false,Tx,0,8,00,00,00,00,00,00,00,00,
772879,000000AF,false,Tx,0,8,00,00,1C,00,00,91,F7,00,
772929,0000008A,false,Tx,0,8,7F,FF,00,04,00,02,37,B1,
772947,0000008D,false,Tx,0,8,00,00,00,00,00,70,00,70,
772964,000000FB,false,Tx,0,8,11,FF,00,30,AB,CC,05,F5,
772981,0000008E,false,Tx,0,8,5D,05,04,00,13,88,07,C0,
772998,0000019C,false,Tx,0,8,06,A0,26,9F,7F,FE,07,7F,
773015,0000008F,false,Tx,0,8,00,00,00,00,00,00,00,00,
773032,0000014F,false,Tx,0,8,02,C8,00,00,00,00,00,00,
774200,0000009B,false,Tx,0,8,00,00,00,00,1C,00,00,1C,
774252,000001AF,false,Tx,0,8,00,00,00,00,00,00,00,00,
774275,000000DF,false,Tx,0,8,00,00,00,00,00,00,08,00,
774292,000003C2,false,Tx,0,8,7F,FF,F9,EA,00,12,05,20,
775447,00000173,false,Tx,0,8,00,00,C7,C8,0C,DA,0C,D8,
775466,0000022B,false,Tx,0,8,09,47,8A,3C,48,F1,08,F1,
775485,00000099,false,Tx,0,8,A0,84,80,04,00,5D,00,FD,
780105,00000295,false,Tx,0,8,C6,2B,00,02,34,4E,3F,AA,
781320,00000227,false,Tx,0,8,00,00,00,C0,FF,FA,00,00,
781376,000000AC,false,Tx,0,8,04,70,88,A8,02,00,00,56,
782548,000000F1,false,Tx,0,8,00,00,00,00,00,00,00,00,
782608,00000165,false,Tx,0,8,00,00,06,A0,E5,7B,05,00,
782625,00000166,false,Tx,0,8,00,00,00,00,00,00,00,00,
783778,00000169,false,Tx,0,6,3B,19,60,F7,3C,00,00,00,
783795,000001E1,false,Tx,0,7,40,BE,02,00,00,00,00,00,
783812,000001F2,false,Tx,0,2,20,00,00,00,00,00,00,00,
783828,000001F1,false,Tx,0,8,0E,00,00,00,08,74,00,00,
783845,000001F2,false,Tx,0,2,20,00,00,00,00,00,00,00,
783861,000003C2,false,Tx,0,8,7F,FF,F9,E7,00,12,05,20,
785028,000001FD,false,Tx,0,8,00,00,00,00,00,00,00,00,
785082,0000022A,false,Tx,0,2,00,70,00,00,00,00,00,00,
785098,0000009D,false,Tx,0,8,C0,0C,80,70,00,04,00,00,
785114,00000230,false,Tx,0,8,00,00,00,00,00,00,00,00,
785131,00000299,false,Tx,0,8,62,B7,D0,FF,FF,71,00,00,
785148,00000232,false,Tx,0,8,00,00,00,00,00,00,00,00,
785165,00000172,false,Tx,0,8,85,62,9D,85,62,9D,00,00,
786327,00000094,false,Tx,0,8,80,00,00,00,00,00,03,00,
786377,00000094,false,Tx,0,8,80,00,2B,FF,80,00,03,D7,
786396,00000242,false,Tx,0,8,00,00,00,00,00,08,00,00,
786414,00000246,false,Tx,0,8,00,00,00,00,00,00,00,00,
740701,0000039F,false,Rx,0,8,44,71,00,B0,04,7D,0E,F2,
740714,00000323,false,Rx,0,8,00,00,00,00,00,00,D8,97,
740720,00000324,false,Rx,0,8,70,46,3B,4A,49,00,00,7B,
740726,0000033B,false,Rx,0,8,80,00,00,51,00,00,00,00,
740732,0000033D,false,Rx,0,8,00,00,30,20,00,18,00,00,
740738,000003A2,false,Rx,0,8,21,67,10,78,03,FF,00,D2,
740744,000003A4,false,Rx,0,8,00,00,06,00,05,00,00,00,
740750,000003B7,false,Rx,0,8,00,00,00,00,00,04,29,41,
740756,00000491,false,Rx,0,8,00,00,00,00,00,00,00,00,
791007,00000171,false,Tx,0,8,00,30,35,B0,87,42,AC,DC,
791059,000001C7,false,Tx,0,8,00,00,00,00,00,10,00,00,
792218,00000088,false,Tx,0,8,00,00,98,00,00,00,00,98,
792239,000000AF,false,Tx,0,8,00,00,14,00,00,B1,F5,00,
793409,0000009B,false,Tx,0,8,00,00,00,00,24,00,00,24,
793461,0000014F,false,Tx,0,8,02,D8,00,00,00,00,00,00,
793480,000001AF,false,Tx,0,8,00,00,00,00,00,00,00,00,
794652,00000196,false,Tx,0,8,75,30,75,30,20,00,75,2B,
794709,0000009D,false,Tx,0,8,D0,0D,80,70,00,03,00,00,
795870,00000094,false,Tx,0,8,80,00,00,00,00,00,03,00,
795906,0000014B,false,Tx,0,8,01,8B,00,00,00,00,00,00,
798230,000003BF,false,Tx,0,8,28,00,30,00,28,00,30,00,
798286,000003C2,false,Tx,0,8,7F,FF,F9,E5,00,12,05,20,
798304,00000464,false,Tx,0,8,08,00,08,00,00,00,00,00,
799474,0000046B,false,Tx,0,8,0B,BD,00,F9,05,71,01,48,
800671,000001C7,false,Tx,0,8,00,00,7F,FF,00,12,00,00,
800705,00000297,false,Tx,0,8,01,03,E0,00,C3,0C,A5,88,
800727,000000AC,false,Tx,0,8,04,70,A8,A8,02,00,00,76,
801894,000000F1,false,Tx,0,8,00,00,00,00,00,00,00,00,
803094,00000166,false,Tx,0,8,00,00,00,00,00,00,00,00,
803144,0000008F,false,Tx,0,8,00,00,00,00,00,00,00,00,
803162,0000019C,false,Tx,0,8,06,A0,26,9F,7F,FF,0A,7F,
804322,00000196,false,Tx,0,8,00,00,00,00,00,00,00,00,
804353,00000336,false,Tx,0,8,00,00,00,00,00,00,00,00,
804378,0000021C,false,Tx,0,8,00,00,00,00,00,00,00,00,
805555,0000009D,false,Tx,0,8,E0,0E,80,70,00,02,00,00,
805602,00000172,false,Tx,0,8,85,62,9D,85,62,9D,00,00,
805622,00000230,false,Tx,0,8,00,00,00,00,00,00,00,00,
805642,00000094,false,Tx,0,8,80,00,00,00,00,00,03,00,
805662,00000232,false,Tx,0,8,00,00,00,00,00,00,00,00,
805700,000003BE,false,Tx,0,8,00,43,08,F1,21,39,00,00,
806875,00000244,false,Tx,0,8,00,00,20,04,00,00,00,00,
806924,00000297,false,Tx,0,8,00,03,00,00,00,00,20,00,
806945,000002F6,false,Tx,0,8,80,00,00,00,00,01,00,00,
808105,0000031A,false,Tx,0,8,0A,20,00,37,57,42,90,4E,
808125,0000031B,false,Tx,0,8,00,00,B0,18,00,00,00,00,
809292,0000034C,false,Tx,0,8,00,00,00,00,00,00,00,00,
810482,000000C5,false,Tx,0,8,20,00,00,00,20,00,00,00,
811684,000000F1,false,Tx,0,8,00,00,00,00,00,00,00,00,
811733,00000166,false,Tx,0,8,00,00,00,00,00,00,00,00,
