Time Stamp,ID,Extended,Dir,Bus,LEN,D1,D2,D3,D4,D5,D6,D7,D8
89928871,0000039F,false,Rx,0,8,49,71,00,00,04,89,0A,BF,
89929127,00000323,false,Rx,0,8,00,00,00,00,00,00,D7,63,
89929374,00000324,false,Rx,0,8,70,44,DD,54,4F,00,00,7B,
89929619,0000033B,false,Rx,0,8,00,00,00,5B,00,00,00,00,
89929871,0000033D,false,Rx,0,8,00,00,10,20,00,18,00,00,
89930124,000003A2,false,Rx,0,8,21,60,10,68,03,FF,00,C5,
89930371,000003A4,false,Rx,0,8,00,00,07,00,02,00,00,00,
89930632,000003B7,false,Rx,0,8,00,00,00,00,00,03,CD,40,
89930901,00000491,false,Rx,0,8,00,00,00,00,00,00,00,00,
89938671,0000019C,false,Rx,0,8,06,A0,26,00,00,00,00,7F,
89938918,000001F1,false,Rx,0,8,0E,00,00,00,00,00,20,00,
89939172,00000297,false,Rx,0,8,00,03,00,00,00,00,20,00,
89939418,000002A6,false,Rx,0,8,01,00,00,00,00,00,00,00,
89939665,0000033F,false,Rx,0,8,00,00,00,00,28,00,00,48,
90029463,0000039F,false,Rx,0,8,49,71,00,00,04,89,0B,BE,
90029710,00000323,false,Rx,0,8,00,00,00,00,00,00,D7,63,
90029959,00000324,false,Rx,0,8,70,44,DD,54,4F,00,00,7B,
90030212,0000033B,false,Rx,0,8,00,00,00,5B,00,00,00,00,
90030458,0000033D,false,Rx,0,8,00,00,10,20,00,18,00,00,
90030705,000003A2,false,Rx,0,8,21,60,10,6C,03,FF,00,C1,
90030953,000003A4,false,Rx,0,8,00,00,07,00,02,00,00,00,
90031204,000003B7,false,Rx,0,8,00,00,00,00,00,04,34,40,
90031450,00000491,false,Rx,0,8,00,00,00,00,00,00,00,00,
90038636,0000019C,false,Rx,0,8,06,A0,26,00,00,00,00,7F,
90038883,000001F1,false,Rx,0,8,0E,00,00,00,00,00,20,00,
90039137,00000297,false,Rx,0,8,00,03,00,00,00,00,20,00,
90039382,000002A6,false,Rx,0,8,01,00,00,00,00,00,00,00,
90039629,0000033F,false,Rx,0,8,00,00,00,00,28,00,00,48,
225765,0000039F,false,Rx,0,8,4A,71,00,00,04,89,0C,BA,
226026,00000323,false,Rx,0,8,00,00,00,00,00,00,D7,63,
226272,00000324,false,Rx,0,8,70,44,D9,54,4F,00,00,7B,
226518,0000033B,false,Rx,0,8,00,00,00,5B,00,00,00,00,
226765,0000033D,false,Rx,0,8,00,00,10,20,00,18,00,00,
227021,000003A2,false,Rx,0,8,21,60,10,70,03,FF,00,DD,
227268,000003A4,false,Rx,0,8,00,00,07,00,02,00,00,00,
227514,000003B7,false,Rx,0,8,00,00,00,00,00,05,78,40,
227760,00000491,false,Rx,0,8,00,00,00,00,00,00,00,00,
234750,0000019C,false,Rx,0,8,06,A0,26,00,00,00,00,7F,
235005,000001F1,false,Rx,0,8,0E,00,00,00,00,00,20,00,
235251,00000297,false,Rx,0,8,00,03,00,00,00,00,20,00,
235497,000002A6,false,Rx,0,8,00,00,00,00,00,00,00,00,
235744,0000033F,false,Rx,0,8,00,00,00,00,28,00,00,48,
325914,0000039F,false,Rx,0,8,4A,71,00,00,04,89,0D,BB,
326170,00000323,false,Rx,0,8,00,00,00,00,00,00,C1,51,
326416,00000324,false,Rx,0,8,70,44,DD,54,4F,00,00,7B,
326662,0000033B,false,Rx,0,8,00,00,00,5B,00,00,00,00,
326915,0000033D,false,Rx,0,8,00,00,10,20,00,18,00,00,
327169,000003A2,false,Rx,0,8,21,60,10,74,03,FF,00,D9,
327415,000003A4,false,Rx,0,8,00,00,07,00,02,00,00,00,
327660,000003B7,false,Rx,0,8,00,00,00,00,00,06,AC,40,
327907,00000491,false,Rx,0,8,00,00,00,00,00,00,00,00,
334707,0000019C,false,Rx,0,8,06,A0,26,00,00,00,00,7F,
334954,000001F1,false,Rx,0,8,0E,00,00,00,00,00,20,00,
335208,00000297,false,Rx,0,8,00,03,00,00,00,00,20,00,
335453,000002A6,false,Rx,0,8,01,00,00,00,00,00,00,00,
335700,0000033F,false,Rx,0,8,00,00,00,00,28,00,00,48,
426391,0000039F,false,Rx,0,8,4A,71,00,00,04,89,0E,B8,
426642,00000323,false,Rx,0,8,00,00,00,00,00,00,C1,51,
426889,00000324,false,Rx,0,8,70,44,C9,54,4F,00,00,7B,
427142,0000033B,false,Rx,0,8,00,00,00,5B,00,00,00,00,
427388,0000033D,false,Rx,0,8,00,00,10,20,00,18,00,00,
427634,000003A2,false,Rx,0,8,21,60,10,78,03,FF,00,D5,
427881,000003A4,false,Rx,0,8,00,00,07,00,02,00,00,00,
428134,000003B7,false,Rx,0,8,00,00,00,00,00,07,E0,40,
428380,00000491,false,Rx,0,8,00,00,00,00,00,00,00,00,
434740,0000019C,false,Rx,0,8,06,A0,26,00,00,00,00,7F,
434996,000001F1,false,Rx,0,8,0E,00,00,00,00,00,20,00,
435241,00000297,false,Rx,0,8,00,03,00,00,00,00,20,00,
435509,000002A6,false,Rx,0,8,00,00,00,00,00,00,00,00,
435756,0000033F,false,Rx,0,8,00,00,00,00,28,00,00,48,
526687,0000039F,false,Rx,0,8,4A,71,00,00,04,89,0F,B9,
526937,00000323,false,Rx,0,8,00,00,00,00,00,00,C1,51,
527189,00000324,false,Rx,0,8,70,44,D9,54,4F,00,00,7B,
527435,0000033B,false,Rx,0,8,00,00,00,5B,00,00,00,00,
527681,0000033D,false,Rx,0,8,00,00,10,20,00,18,00,00,
527930,000003A2,false,Rx,0,8,21,60,10,7C,03,FF,00,D1,
528182,000003A4,false,Rx,0,8,00,00,07,00,02,00,00,00,
528429,000003B7,false,Rx,0,8,00,00,00,00,00,08,43,40,
528674,00000491,false,Rx,0,8,00,00,00,00,00,00,00,00,
534707,0000019C,false,Rx,0,8,06,A0,26,00,00,00,00,7F,
534956,000001F1,false,Rx,0,8,0E,00,00,00,00,00,20,00,
535209,00000297,false,Rx,0,8,00,03,00,00,00,00,20,00,
535453,000002A6,false,Rx,0,8,00,00,00,00,00,00,00,00,
535700,0000033F,false,Rx,0,8,00,00,00,00,28,00,00,48,
627043,0000039F,false,Rx,0,8,4A,71,00,00,04,89,00,B6,
627292,00000323,false,Rx,0,8,00,00,00,00,00,00,C1,51,
627535,00000324,false,Rx,0,8,70,44,DD,54,4F,00,00,7B,
627782,0000033B,false,Rx,0,8,00,00,00,5B,00,00,00,00,
628035,0000033D,false,Rx,0,8,00,00,10,20,00,18,00,00,
628281,000003A2,false,Rx,0,8,21,60,10,40,03,FF,00,ED,
628526,000003A4,false,Rx,0,8,00,00,07,00,02,00,00,00,
628773,000003B7,false,Rx,0,8,00,00,00,00,00,09,0F,40,
629028,00000491,false,Rx,0,8,00,00,00,00,00,00,00,00,
634700,0000019C,false,Rx,0,8,06,A0,26,00,00,00,00,7F,
634947,000001F1,false,Rx,0,8,0E,00,00,00,00,00,20,00,
635201,00000297,false,Rx,0,8,00,03,00,00,00,00,20,00,
635446,000002A6,false,Rx,0,8,00,00,00,00,00,00,00,00,
635692,0000033F,false,Rx,0,8,00,00,00,00,28,00,00,48,
726954,0000039F,false,Rx,0,8,4A,71,00,00,04,89,01,B7,
727244,00000323,false,Rx,0,8,00,00,00,00,00,00,C1,51,
727253,00000324,false,Rx,0,8,70,44,E2,54,4F,00,00,7B,
727495,0000033B,false,Rx,0,8,00,00,00,5B,00,00,00,00,
727742,0000033D,false,Rx,0,8,00,00,10,20,00,18,00,00,
727995,000003A2,false,Rx,0,8,21,60,10,44,03,FF,00,E9,
728240,000003A4,false,Rx,0,8,00,00,07,00,02,00,00,00,
728486,000003B7,false,Rx,0,8,00,00,00,00,00,0A,DB,40,
728731,00000491,false,Rx,0,8,00,00,00,00,00,00,00,00,
734761,0000019C,false,Rx,0,8,06,A0,26,00,00,00,00,7F,
735020,000001F1,false,Rx,0,8,0E,00,00,00,00,00,20,00,
735264,00000297,false,Rx,0,8,00,03,00,00,00,00,20,00,
735511,000002A6,false,Rx,0,8,01,00,00,00,00,00,00,00,
735757,0000033F,false,Rx,0,8,00,00,00,00,28,00,00,48,
827452,0000039F,false,Rx,0,8,4A,71,00,00,04,89,02,B4,
827700,00000323,false,Rx,0,8,00,00,00,00,00,00,00,00,
827949,00000324,false,Rx,0,8,70,44,E2,54,4F,00,00,7B,
828201,0000033B,false,Rx,0,8,00,00,00,5B,00,00,00,00,
828447,0000033D,false,Rx,0,8,00,00,10,20,00,18,00,00,
828692,000003A2,false,Rx,0,8,21,60,10,48,03,FF,00,E5,
828941,000003A4,false,Rx,0,8,00,00,07,00,02,00,00,00,
828992,000003B7,false,Rx,0,8,00,00,00,00,00,0B,97,40,
829423,00000491,false,Rx,0,8,00,00,00,00,00,00,00,00,
834742,0000019C,false,Rx,0,8,06,A0,26,00,00,00,00,7F,
835003,000001F1,false,Rx,0,8,0E,00,00,00,00,00,20,00,
835248,00000297,false,Rx,0,8,00,03,00,00,00,00,20,00,
835495,000002A6,false,Rx,0,8,00,00,00,00,00,00,00,00,
835756,0000033F,false,Rx,0,8,00,00,00,00,28,00,00,48,
927686,0000039F,false,Rx,0,8,4A,71,00,00,04,89,03,B5,
927937,00000323,false,Rx,0,8,00,00,00,00,00,00,00,00,
928190,00000324,false,Rx,0,8,70,44,CE,54,4F,00,00,7B,
928437,0000033B,false,Rx,0,8,00,00,00,5B,00,00,00,00,
928682,0000033D,false,Rx,0,8,00,00,10,20,00,18,00,00,
928931,000003A2,false,Rx,0,8,21,60,10,4C,03,FF,00,E1,
929183,000003A4,false,Rx,0,8,00,00,07,00,02,00,00,00,
929430,000003B7,false,Rx,0,8,00,00,00,00,00,0C,6E,40,
929676,00000491,false,Rx,0,8,00,00,00,00,00,00,00,00,
934597,0000019C,false,Rx,0,8,06,A0,26,00,00,00,00,7F,
934850,000001F1,false,Rx,0,8,0E,00,00,00,00,00,20,00,
935102,00000297,false,Rx,0,8,00,03,00,00,00,00,20,00,
935347,000002A6,false,Rx,0,8,01,00,00,00,00,00,00,00,
935594,0000033F,false,Rx,0,8,00,00,00,00,28,00,00,48,
1028222,0000039F,false,Rx,0,8,4A,71,00,00,04,89,04,B2,
1028469,00000323,false,Rx,0,8,00,00,00,00,00,00,00,00,
1028715,00000324,false,Rx,0,8,70,44,C9,54,4F,00,00,7B,
1028973,0000033B,false,Rx,0,8,00,00,00,5B,00,00,00,00,
1029220,0000033D,false,Rx,0,8,00,00,10,20,00,18,00,00,
1029465,000003A2,false,Rx,0,8,21,60,10,50,03,FF,00,FD,
1029711,000003A4,false,Rx,0,8,00,00,07,00,02,00,00,00,
1029961,000003B7,false,Rx,0,8,00,00,00,00,00,0D,22,40,
1030214,00000491,false,Rx,0,8,00,00,00,00,00,00,00,00,
1034698,0000019C,false,Rx,0,8,06,A0,26,00,00,00,00,7F,
1034951,000001F1,false,Rx,0,8,0E,00,00,00,00,00,20,00,
1035221,00000297,false,Rx,0,8,00,03,00,00,00,00,20,00,
1035486,000002A6,false,Rx,0,8,01,00,00,00,00,00,00,00,
1035756,0000033F,false,Rx,0,8,00,00,00,00,28,00,00,48,
1128080,0000039F,false,Rx,0,8,4A,71,00,00,04,89,05,B3,
1128329,00000323,false,Rx,0,8,00,00,00,00,00,00,00,00,
1128574,00000324,false,Rx,0,8,70,44,CE,54,4F,00,00,7B,
1128820,0000033B,false,Rx,0,8,00,00,00,5B,00,00,00,00,
1129071,0000033D,false,Rx,0,8,00,00,10,20,00,18,00,00,
1129317,000003A2,false,Rx,0,8,21,60,10,54,03,FF,00,F9,
1129562,000003A4,false,Rx,0,8,00,00,07,00,02,00,00,00,
1129809,000003B7,false,Rx,0,8,00,00,00,00,00,0E,F6,40,
1130063,00000491,false,Rx,0,8,00,00,00,00,00,00,00,00,
1134743,0000019C,false,Rx,0,8,06,A0,26,00,00,00,00,7F,
1135004,000001F1,false,Rx,0,8,0E,00,00,00,00,00,20,00,
1135249,00000297,false,Rx,0,8,00,03,00,00,00,00,20,00,
1135496,000002A6,false,Rx,0,8,00,00,00,00,00,00,00,00,
1135742,0000033F,false,Rx,0,8,00,00,00,00,28,00,00,48,
1228403,0000039F,false,Rx,0,8,4A,71,00,00,04,89,06,B0,
1228653,00000323,false,Rx,0,8,00,00,00,00,00,00,00,00,
1228900,00000324,false,Rx,0,8,70,44,DD,54,4F,00,00,7B,
1229153,0000033B,false,Rx,0,8,00,00,00,5B,00,00,00,00,
1229399,0000033D,false,Rx,0,8,00,00,10,20,00,18,00,00,
1229645,000003A2,false,Rx,0,8,21,60,10,58,03,FF,00,F5,
1229892,000003A4,false,Rx,0,8,00,00,07,00,02,00,00,00,
1230137,000003B7,false,Rx,0,8,00,00,00,00,00,00,19,40,
1230391,00000491,false,Rx,0,8,00,00,00,00,00,00,00,00,
1234687,0000019C,false,Rx,0,8,06,A0,26,00,00,00,00,7F,
1234932,000001F1,false,Rx,0,8,0E,00,00,00,00,00,20,00,
1235184,00000297,false,Rx,0,8,00,03,00,00,00,00,20,00,
1235431,000002A6,false,Rx,0,8,01,00,00,00,00,00,00,00,
1235676,0000033F,false,Rx,0,8,00,00,00,00,28,00,00,48,
1329067,0000039F,false,Rx,0,8,4A,71,00,00,04,89,07,B1,
1329314,00000323,false,Rx,0,8,00,00,00,00,00,00,D8,97,
1329561,00000324,false,Rx,0,8,70,44,D3,54,4F,00,00,7B,
1329806,0000033B,false,Rx,0,8,00,00,00,5B,00,00,00,00,
1330064,0000033D,false,Rx,0,8,00,00,10,20,00,18,00,00,
1330309,000003A2,false,Rx,0,8,21,60,10,5C,03,FF,00,F1,
1330555,000003A4,false,Rx,0,8,00,00,07,00,02,00,00,00,
1330801,000003B7,false,Rx,0,8,00,00,00,00,00,01,55,40,
1331059,00000491,false,Rx,0,8,00,00,00,00,00,00,00,00,
1334771,0000019C,false,Rx,0,8,06,A0,26,00,00,00,00,7F,
1335024,000001F1,false,Rx,0,8,0E,00,00,00,00,00,20,00,
1335269,00000297,false,Rx,0,8,00,03,00,00,00,00,20,00,
1335516,000002A6,false,Rx,0,8,01,00,00,00,00,00,00,00,
1335761,0000033F,false,Rx,0,8,00,00,00,00,28,00,00,48,
1429571,0000039F,false,Rx,0,8,4A,71,00,00,04,89,08,BE,
1429589,00000323,false,Rx,0,8,00,00,00,00,00,00,D8,97,
1429847,00000324,false,Rx,0,8,70,44,D3,54,4F,00,00,7B,
1430100,0000033B,false,Rx,0,8,00,00,00,5B,00,00,00,00,
1430347,0000033D,false,Rx,0,8,00,00,10,20,00,18,00,00,
1430601,000003A2,false,Rx,0,8,21,60,10,60,03,FF,00,CD,
1430858,000003A4,false,Rx,0,8,00,00,07,00,02,00,00,00,
1431111,000003B7,false,Rx,0,8,00,00,00,00,00,02,81,40,
1431357,00000491,false,Rx,0,8,00,00,00,00,00,00,00,00,
1434687,0000019C,false,Rx,0,8,06,A0,26,00,00,00,00,7F,
1434932,000001F1,false,Rx,0,8,0E,00,00,00,00,00,20,00,
1435184,00000297,false,Rx,0,8,00,03,00,00,00,00,20,00,
1435438,000002A6,false,Rx,0,8,01,00,00,00,00,00,00,00,
1435705,0000033F,false,Rx,0,8,00,00,00,00,28,00,00,48,
1529650,0000039F,false,Rx,0,8,4A,71,00,00,04,89,09,BF,
1529899,00000323,false,Rx,0,8,00,00,00,00,00,00,D8,97,
1530152,00000324,false,Rx,0,8,70,44,CE,54,4F,00,00,7B,
1530398,0000033B,false,Rx,0,8,00,00,00,5B,00,00,00,00,
1530645,0000033D,false,Rx,0,8,00,00,10,20,00,18,00,00,
1530893,000003A2,false,Rx,0,8,21,60,10,64,03,FF,00,C9,
1531147,000003A4,false,Rx,0,8,00,00,07,00,02,00,00,00,
1531392,000003B7,false,Rx,0,8,00,00,00,00,00,03,CD,40,
1531639,00000491,false,Rx,0,8,00,00,00,00,00,00,00,00,
1534776,0000019C,false,Rx,0,8,06,A0,26,00,00,00,00,7F,
1535030,000001F1,false,Rx,0,8,0E,00,00,00,00,00,20,00,
1535276,00000297,false,Rx,0,8,00,03,00,00,00,00,20,00,
1535522,000002A6,false,Rx,0,8,01,00,00,00,00,00,00,00,
1535768,0000033F,false,Rx,0,8,00,00,00,00,28,00,00,48,
1629715,0000039F,false,Rx,0,8,4A,71,00,00,04,89,0A,BC,
1629971,00000323,false,Rx,0,8,00,00,00,00,00,00,D8,97,
1630216,00000324,false,Rx,0,8,70,44,DD,54,4F,00,00,7B,
1630461,0000033B,false,Rx,0,8,00,00,00,5B,00,00,00,00,
1630708,0000033D,false,Rx,0,8,00,00,10,20,00,18,00,00,
1630752,000003A2,false,Rx,0,8,21,60,10,68,03,FF,00,C5,
1631187,000003A4,false,Rx,0,8,00,00,07,00,02,00,00,00,
1631432,000003B7,false,Rx,0,8,00,00,00,00,00,04,34,40,
1631679,00000491,false,Rx,0,8,00,00,00,00,00,00,00,00,
1634625,0000019C,false,Rx,0,8,06,A0,26,00,00,00,00,7F,
1634872,000001F1,false,Rx,0,8,0E,00,00,00,00,00,20,00,
1635125,00000297,false,Rx,0,8,00,03,00,00,00,00,20,00,
1635371,000002A6,false,Rx,0,8,01,00,00,00,00,00,00,00,
1635617,0000033F,false,Rx,0,8,00,00,00,00,28,00,00,48,
1730149,0000039F,false,Rx,0,8,4A,71,00,00,04,89,0B,BD,
1730398,00000323,false,Rx,0,8,00,00,00,00,00,00,D8,97,
1730644,00000324,false,Rx,0,8,70,44,E7,54,4F,00,00,7B,
1730891,0000033B,false,Rx,0,8,00,00,00,5B,00,00,00,00,
1731144,0000033D,false,Rx,0,8,00,00,10,20,00,18,00,00,
1731389,000003A2,false,Rx,0,8,21,60,10,6C,03,FF,00,C1,
1731635,000003A4,false,Rx,0,8,00,00,07,00,02,00,00,00,
1731882,000003B7,false,Rx,0,8,00,00,00,00,00,05,78,40,
1732134,00000491,false,Rx,0,8,00,00,00,00,00,00,00,00,
1734689,0000019C,false,Rx,0,8,06,A0,26,00,00,00,00,7F,
1734936,000001F1,false,Rx,0,8,0E,00,00,00,00,00,20,00,
1735188,00000297,false,Rx,0,8,00,03,00,00,00,00,20,00,
1735434,000002A6,false,Rx,0,8,01,00,00,00,00,00,00,00,
1735680,0000033F,false,Rx,0,8,00,00,00,00,28,00,00,48,
1830488,0000039F,false,Rx,0,8,4A,71,00,00,04,89,0C,BA,
1830737,00000323,false,Rx,0,8,00,00,00,00,00,00,D7,63,
1830993,00000324,false,Rx,0,8,70,44,E2,54,4F,00,00,7B,
1831240,0000033B,false,Rx,0,8,00,00,00,5B,00,00,00,00,
1831486,0000033D,false,Rx,0,8,00,00,10,20,00,18,00,00,
1831730,000003A2,false,Rx,0,8,21,60,10,70,03,FF,00,DD,
1832021,000003A4,false,Rx,0,8,00,00,07,00,02,00,00,00,
1832031,000003B7,false,Rx,0,8,00,00,00,00,00,06,AC,40,
1832272,00000491,false,Rx,0,8,00,00,00,00,00,00,00,00,
1834635,0000019C,false,Rx,0,8,06,A0,26,00,00,00,00,7F,
1834882,000001F1,false,Rx,0,8,0E,00,00,00,00,00,20,00,
1835136,00000297,false,Rx,0,8,00,03,00,00,00,00,20,00,
1835381,000002A6,false,Rx,0,8,01,00,00,00,00,00,00,00,
1835628,0000033F,false,Rx,0,8,00,00,00,00,28,00,00,48,
1930785,0000039F,false,Rx,0,8,4A,71,00,00,04,89,0D,BB,
1931043,00000323,false,Rx,0,8,00,00,00,00,00,00,D7,63,
1931288,00000324,false,Rx,0,8,70,44,DD,54,4F,00,00,7B,
1931535,0000033B,false,Rx,0,8,00,00,00,5B,00,00,00,00,
1931781,0000033D,false,Rx,0,8,00,00,10,20,00,18,00,00,
1932037,000003A2,false,Rx,0,8,21,60,10,74,03,FF,00,D9,
1932282,000003A4,false,Rx,0,8,00,00,07,00,02,00,00,00,
1932529,000003B7,false,Rx,0,8,00,00,00,00,00,07,E0,40,
1932775,00000491,false,Rx,0,8,00,00,00,00,00,00,00,00,
1934757,0000019C,false,Rx,0,8,06,A0,26,00,00,00,00,7F,
1935013,000001F1,false,Rx,0,8,0E,00,00,00,00,00,20,00,
1935256,00000297,false,Rx,0,8,00,03,00,00,00,00,20,00,
1935503,000002A6,false,Rx,0,8,00,00,00,00,00,00,00,00,
1935749,0000033F,false,Rx,0,8,00,00,00,00,28,00,00,48,
2031225,0000039F,false,Rx,0,8,4A,71,00,00,04,89,0E,B8,
2031475,00000323,false,Rx,0,8,00,00,00,00,00,00,D7,63,
2031721,00000324,false,Rx,0,8,70,44,D9,54,4F,00,00,7B,
2031975,0000033B,false,Rx,0,8,00,00,00,5B,00,00,00,00,
2032220,0000033D,false,Rx,0,8,00,00,10,20,00,18,00,00,
2032467,000003A2,false,Rx,0,8,21,60,10,78,03,FF,00,D5,
2032712,000003A4,false,Rx,0,8,00,00,07,00,02,00,00,00,
2032961,000003B7,false,Rx,0,8,00,00,00,00,00,08,43,40,
2033213,00000491,false,Rx,0,8,00,00,00,00,00,00,00,00,
2034649,0000019C,false,Rx,0,8,06,A0,26,00,00,00,00,7F,
2034897,000001F1,false,Rx,0,8,0E,00,00,00,00,00,20,00,
2035150,00000297,false,Rx,0,8,00,03,00,00,00,00,20,00,
2035396,000002A6,false,Rx,0,8,00,00,00,00,00,00,00,00,
2035643,0000033F,false,Rx,0,8,00,00,00,00,28,00,00,48,
2131561,0000039F,false,Rx,0,8,4A,71,00,00,04,89,0F,B9,
2131810,00000323,false,Rx,0,8,00,00,00,00,00,00,D7,63,
2132057,00000324,false,Rx,0,8,70,44,E7,54,4F,00,00,7B,
2132312,0000033B,false,Rx,0,8,00,00,00,5B,00,00,00,00,
2132557,0000033D,false,Rx,0,8,00,00,10,20,00,18,00,00,
2132804,000003A2,false,Rx,0,8,21,60,10,7C,03,FF,00,D1,
2133058,000003A4,false,Rx,0,8,00,00,07,00,02,00,00,00,
2133305,000003B7,false,Rx,0,8,00,00,00,00,00,09,0F,40,
2133550,00000491,false,Rx,0,8,00,00,00,00,00,00,00,00,
2134762,0000019C,false,Rx,0,8,06,A0,26,00,00,00,00,7F,
2135017,000001F1,false,Rx,0,8,0E,00,00,00,00,00,20,00,
2135262,00000297,false,Rx,0,8,00,03,00,00,00,00,20,00,
2135509,000002A6,false,Rx,0,8,01,00,00,00,00,00,00,00,
2135754,0000033F,false,Rx,0,8,00,00,00,00,28,00,00,48,
2231449,0000039F,false,Rx,0,8,4A,71,00,00,04,89,00,B6,
2231699,00000323,false,Rx,0,8,00,00,00,00,00,00,D7,63,
2231950,00000324,false,Rx,0,8,70,44,DD,54,4F,00,00,7B,
2233784,0000033B,false,Rx,0,8,00,00,00,5B,00,00,00,00,
2233799,0000033D,false,Rx,0,8,00,00,10,20,00,18,00,00,
2233805,000003A2,false,Rx,0,8,21,60,10,40,03,FF,00,ED,
2233811,000003A4,false,Rx,0,8,00,00,07,00,02,00,00,00,
2233817,000003B7,false,Rx,0,8,00,00,00,00,00,0A,DB,40,
2233824,00000491,false,Rx,0,8,00,00,00,00,00,00,00,00,
2234684,0000019C,false,Rx,0,8,06,A0,26,00,00,00,00,7F,
2234932,000001F1,false,Rx,0,8,0E,00,00,00,00,00,20,00,
2235185,00000297,false,Rx,0,8,00,03,00,00,00,00,20,00,
2235431,000002A6,false,Rx,0,8,01,00,00,00,00,00,00,00,
2235678,0000033F,false,Rx,0,8,00,00,00,00,28,00,00,48,
2331935,0000039F,false,Rx,0,8,4A,71,00,00,04,89,01,B7,
2332192,00000323,false,Rx,0,8,00,00,00,00,00,00,C1,51,
2332438,00000324,false,Rx,0,8,70,44,F2,54,4F,00,00,7B,
2334687,0000033B,false,Rx,0,8,00,00,00,5B,00,00,00,00,
2334702,0000033D,false,Rx,0,8,00,00,10,20,00,18,00,00,
2334708,000003A2,false,Rx,0,8,21,61,10,44,03,FF,00,E8,
2334714,000003A4,false,Rx,0,8,00,00,07,00,02,00,00,00,
2334720,000003B7,false,Rx,0,8,00,00,00,00,00,0B,97,40,
2334726,00000491,false,Rx,0,8,00,00,00,00,00,00,00,00,
2334732,0000019C,false,Rx,0,8,06,A0,26,00,00,00,00,7F,
2335019,000001F1,false,Rx,0,8,0E,00,00,00,00,00,20,00,
2335323,00000297,false,Rx,0,8,00,03,00,00,00,00,20,00,
2335334,000002A6,false,Rx,0,8,01,00,00,00,00,00,00,00,
2335590,0000033F,false,Rx,0,8,00,00,00,00,28,00,00,48,
2432034,0000039F,false,Rx,0,8,4A,71,00,00,04,89,02,B4,
2432284,00000323,false,Rx,0,8,00,00,00,00,00,00,C1,51,
2432530,00000324,false,Rx,0,8,70,44,F2,54,4F,00,00,7B,
2432777,0000033B,false,Rx,0,8,00,00,00,5B,00,00,00,00,
2434620,0000033D,false,Rx,0,8,00,00,10,20,00,18,00,00,
2434632,000003A2,false,Rx,0,8,21,61,10,48,03,FF,00,E4,
2434638,000003A4,false,Rx,0,8,00,00,07,00,02,00,00,00,
2434644,000003B7,false,Rx,0,8,00,00,00,00,00,0C,6E,40,
2434650,00000491,false,Rx,0,8,00,00,00,00,00,00,00,00,
2434656,0000019C,false,Rx,0,8,06,A0,26,00,00,00,00,7F,
2434915,000001F1,false,Rx,0,8,0E,00,00,00,00,00,20,00,
2435194,00000297,false,Rx,0,8,00,03,00,00,00,00,20,00,
2435441,000002A6,false,Rx,0,8,01,00,00,00,00,00,00,00,
2435686,0000033F,false,Rx,0,8,00,00,00,00,28,00,00,48,
2532444,0000039F,false,Rx,0,8,4A,71,00,00,04,89,03,B5,
2532691,00000323,false,Rx,0,8,00,00,00,00,00,00,C1,51,
2532941,00000324,false,Rx,0,8,70,44,F6,54,4F,00,00,7B,
2533193,0000033B,false,Rx,0,8,00,00,00,5B,00,00,00,00,
2533439,0000033D,false,Rx,0,8,00,00,10,20,00,18,00,00,
2535771,000003A2,false,Rx,0,8,21,61,10,4C,03,FF,00,E0,
2535786,000003A4,false,Rx,0,8,00,00,07,00,02,00,00,00,
2535792,000003B7,false,Rx,0,8,00,00,00,00,00,0D,22,40,
2535798,00000491,false,Rx,0,8,00,00,00,00,00,00,00,00,
2535804,0000019C,false,Rx,0,8,06,A0,26,00,00,00,00,7F,
2535810,000001F1,false,Rx,0,8,0E,00,00,00,00,00,20,00,
2535816,00000297,false,Rx,0,8,00,03,00,00,00,00,20,00,
2535822,000002A6,false,Rx,0,8,01,00,00,00,00,00,00,00,
2535829,0000033F,false,Rx,0,8,00,00,00,00,28,00,00,48,
2632658,0000039F,false,Rx,0,8,4A,71,00,00,04,89,04,B2,
2632908,00000323,false,Rx,0,8,00,00,00,00,00,00,C1,51,
2633161,00000324,false,Rx,0,8,70,44,E7,54,4F,00,00,7B,
2633408,0000033B,false,Rx,0,8,00,00,00,5B,00,00,00,00,
2633653,0000033D,false,Rx,0,8,00,00,10,20,00,18,00,00,
2633907,000003A2,false,Rx,0,8,21,60,10,50,03,FF,00,FD,
2636476,000003A4,false,Rx,0,8,00,00,07,00,02,00,00,00,
2636492,000003B7,false,Rx,0,8,00,00,00,00,00,0E,F6,40,
2636498,00000491,false,Rx,0,8,00,00,00,00,00,00,00,00,
2636504,0000019C,false,Rx,0,8,06,A0,26,00,00,00,00,7F,
2636510,000001F1,false,Rx,0,8,0E,00,00,00,00,00,20,00,
2636516,00000297,false,Rx,0,8,00,03,00,00,00,00,20,00,
2636522,000002A6,false,Rx,0,8,01,00,00,00,00,00,00,00,
2636528,0000033F,false,Rx,0,8,00,00,00,00,28,00,00,48,
2733174,0000039F,false,Rx,0,8,4A,71,00,00,04,89,05,B3,
2733423,00000323,false,Rx,0,8,00,00,00,00,00,00,C1,51,
2733668,00000324,false,Rx,0,8,70,44,D3,54,4F,00,00,7B,
2733916,0000033B,false,Rx,0,8,00,00,00,5B,00,00,00,00,
2734169,0000033D,false,Rx,0,8,00,00,10,20,00,18,00,00,
2734416,000003A2,false,Rx,0,8,21,60,10,54,03,FF,00,F9,
2736187,0000019C,false,Rx,0,8,06,A0,26,00,00,00,00,7F,
2736202,000001F1,false,Rx,0,8,0E,00,00,00,00,00,20,00,
2736209,00000297,false,Rx,0,8,00,03,00,00,00,00,20,00,
2736215,000002A6,false,Rx,0,8,01,00,00,00,00,00,00,00,
2736221,0000033F,false,Rx,0,8,00,00,00,00,28,00,00,48,
2736227,000003A4,false,Rx,0,8,00,00,07,00,02,00,00,00,
2736233,000003B7,false,Rx,0,8,00,00,00,00,00,00,19,40,
2736515,00000491,false,Rx,0,8,00,00,00,00,00,00,00,00,
2833515,0000039F,false,Rx,0,8,4A,71,00,00,04,89,06,B0,
2833763,00000323,false,Rx,0,8,00,00,00,00,00,00,00,00,
2834016,00000324,false,Rx,0,8,70,44,EC,54,4F,00,00,7B,
2834262,0000033B,false,Rx,0,8,00,00,00,5B,00,00,00,00,
2834509,0000033D,false,Rx,0,8,00,00,10,20,00,18,00,00,
2834754,0000019C,false,Rx,0,8,06,A0,26,00,00,00,00,7F,
2835008,000001F1,false,Rx,0,8,0E,00,00,00,00,00,20,00,
2837359,00000297,false,Rx,0,8,00,03,00,00,00,00,20,00,
2837374,000002A6,false,Rx,0,8,00,00,00,00,00,00,00,00,
2837381,0000033F,false,Rx,0,8,00,00,00,00,28,00,00,48,
2837387,000003A2,false,Rx,0,8,21,60,10,58,03,FF,00,F5,
2837393,000003A4,false,Rx,0,8,00,00,07,00,02,00,00,00,
2837399,000003B7,false,Rx,0,8,00,00,00,00,00,01,55,40,
2837405,00000491,false,Rx,0,8,00,00,00,00,00,00,00,00,
2933941,0000039F,false,Rx,0,8,4A,71,00,00,04,89,07,B1,
2934196,00000323,false,Rx,0,8,00,00,00,00,00,00,00,00,
2934441,00000324,false,Rx,0,8,70,44,E7,54,4F,00,00,7B,
2934688,0000033B,false,Rx,0,8,00,00,00,5B,00,00,00,00,
2934938,0000019C,false,Rx,0,8,06,A0,26,00,00,00,00,7F,
2935191,000001F1,false,Rx,0,8,0E,00,00,00,00,00,20,00,
2935436,00000297,false,Rx,0,8,00,03,00,00,00,00,20,00,
2937772,000002A6,false,Rx,0,8,00,00,00,00,00,00,00,00,
2937787,0000033D,false,Rx,0,8,00,00,10,20,00,18,00,00,
2937793,0000033F,false,Rx,0,8,00,00,00,00,28,00,00,48,
2937799,000003A2,false,Rx,0,8,21,60,10,5C,03,FF,00,F1,
2937805,000003A4,false,Rx,0,8,00,00,07,00,02,00,00,00,
2937811,000003B7,false,Rx,0,8,00,00,00,00,00,02,81,40,
2937817,00000491,false,Rx,0,8,00,00,00,00,00,00,00,00,
3034281,0000039F,false,Rx,0,8,4A,71,00,00,04,89,08,BE,
3034531,00000323,false,Rx,0,8,00,00,00,00,00,00,00,00,
3034776,0000019C,false,Rx,0,8,06,A0,26,00,00,00,00,7F,
3035034,000001F1,false,Rx,0,8,0E,00,00,00,00,00,20,00,
3035278,00000297,false,Rx,0,8,00,03,00,00,00,00,20,00,
3035524,000002A6,false,Rx,0,8,01,00,00,00,00,00,00,00,
3035770,00000324,false,Rx,0,8,70,44,E2,54,4F,00,00,7B,
3036025,0000033B,false,Rx,0,8,00,00,00,5B,00,00,00,00,
3038376,0000033D,false,Rx,0,8,00,00,10,20,00,18,00,00,
3038391,0000033F,false,Rx,0,8,00,00,00,00,28,00,00,48,
3038397,000003A2,false,Rx,0,8,21,60,10,60,03,FF,00,CD,
3038403,000003A4,false,Rx,0,8,00,00,07,00,02,00,00,00,
3038409,000003B7,false,Rx,0,8,00,00,00,00,00,03,CD,40,
3038415,00000491,false,Rx,0,8,00,00,00,00,00,00,00,00,
3134460,0000039F,false,Rx,0,8,4A,71,00,00,04,89,09,BF,
3134709,0000019C,false,Rx,0,8,06,A0,26,00,00,00,00,7F,
3134956,000001F1,false,Rx,0,8,0E,00,00,00,00,00,20,00,
3135207,00000297,false,Rx,0,8,00,03,00,00,00,00,20,00,
3135453,000002A6,false,Rx,0,8,00,00,00,00,00,00,00,00,
3135700,00000323,false,Rx,0,8,00,00,00,00,00,00,00,00,
3135948,00000324,false,Rx,0,8,70,44,D3,54,4F,00,00,7B,
3136201,0000033B,false,Rx,0,8,00,00,00,5B,00,00,00,00,
3136447,0000033D,false,Rx,0,8,00,00,10,20,00,18,00,00,
3136694,0000033F,false,Rx,0,8,00,00,00,00,28,00,00,48,
3139010,000003A2,false,Rx,0,8,21,60,10,64,03,FF,00,C9,
3139025,000003A4,false,Rx,0,8,00,00,07,00,02,00,00,00,
3139031,000003B7,false,Rx,0,8,00,00,00,00,00,04,34,40,
3139037,00000491,false,Rx,0,8,00,00,00,00,00,00,00,00,
3234579,0000019C,false,Rx,0,8,06,A0,26,00,00,00,00,7F,
3234829,000001F1,false,Rx,0,8,0E,00,00,00,00,00,20,00,
3235082,00000297,false,Rx,0,8,00,03,00,00,00,00,20,00,
3235328,000002A6,false,Rx,0,8,01,00,00,00,00,00,00,00,
3235574,00000323,false,Rx,0,8,00,00,00,00,00,00,00,00,
3235820,00000324,false,Rx,0,8,70,44,D3,54,4F,00,00,7B,
3236073,0000033B,false,Rx,0,8,00,00,00,5B,00,00,00,00,
3236320,0000033D,false,Rx,0,8,00,00,10,20,00,18,00,00,
3236566,0000033F,false,Rx,0,8,00,00,00,00,28,00,00,48,
3236813,0000039F,false,Rx,0,8,4A,71,00,00,04,89,0A,BC,
3237065,000003A2,false,Rx,0,8,21,60,10,68,03,FF,00,C5,
3237312,000003A4,false,Rx,0,8,00,00,07,00,02,00,00,00,
3238975,000003B7,false,Rx,0,8,00,00,00,00,00,05,78,40,
3238987,00000491,false,Rx,0,8,00,00,00,00,00,00,00,00,
3334737,0000019C,false,Rx,0,8,06,A0,26,00,00,00,00,7F,
3334994,000001F1,false,Rx,0,8,0E,00,00,00,00,00,20,00,
3335241,00000297,false,Rx,0,8,00,03,00,00,00,00,20,00,
3335485,000002A6,false,Rx,0,8,01,00,00,00,00,00,00,00,
3335732,00000323,false,Rx,0,8,00,00,00,00,00,00,D8,97,
3335987,00000324,false,Rx,0,8,70,44,E2,54,4F,00,00,7B,
3336286,0000033B,false,Rx,0,8,00,00,00,5B,00,00,00,00,
3336298,0000033D,false,Rx,0,8,00,00,10,20,00,18,00,00,
3336551,0000033F,false,Rx,0,8,00,00,00,00,28,00,00,48,
3336818,0000039F,false,Rx,0,8,4A,71,00,00,04,89,0B,BD,
3337068,000003A2,false,Rx,0,8,21,60,10,6C,03,FF,00,C1,
3337314,000003A4,false,Rx,0,8,00,00,07,00,02,00,00,00,
3337560,000003B7,false,Rx,0,8,00,00,00,00,00,06,AC,40,
3337807,00000491,false,Rx,0,8,00,00,00,00,00,00,00,00,
3434678,0000019C,false,Rx,0,8,06,A0,26,00,00,00,00,7F,
3434930,000001F1,false,Rx,0,8,0E,00,00,00,00,00,20,00,
3435184,00000297,false,Rx,0,8,00,03,00,00,00,00,20,00,
3435429,000002A6,false,Rx,0,8,01,00,00,00,00,00,00,00,
3435675,00000323,false,Rx,0,8,00,00,00,00,00,00,D8,97,
3435922,00000324,false,Rx,0,8,70,44,E7,54,4F,00,00,7B,
3436176,0000033B,false,Rx,0,8,00,00,00,5B,00,00,00,00,
3436421,0000033D,false,Rx,0,8,00,00,10,20,00,18,00,00,
3436668,0000033F,false,Rx,0,8,00,00,00,00,28,00,00,48,
3436916,0000039F,false,Rx,0,8,4A,71,00,00,04,89,0C,BA,
3437164,000003A2,false,Rx,0,8,21,60,10,70,03,FF,00,DD,
3437409,000003A4,false,Rx,0,8,00,00,07,00,02,00,00,00,
3437656,000003B7,false,Rx,0,8,00,00,00,00,00,07,E0,40,
3437902,00000491,false,Rx,0,8,00,00,00,00,00,00,00,00,
3534664,0000019C,false,Rx,0,8,06,A0,26,00,00,00,00,7F,
3534916,000001F1,false,Rx,0,8,0E,00,00,00,00,00,20,00,
3535170,00000297,false,Rx,0,8,00,03,00,00,00,00,20,00,
3535432,000002A6,false,Rx,0,8,01,00,00,00,00,00,00,00,
3535697,0000033F,false,Rx,0,8,00,00,00,00,28,00,00,48,
3535974,0000039F,false,Rx,0,8,4A,71,00,00,04,89,0D,BB,
3536221,00000323,false,Rx,0,8,00,00,00,00,00,00,D8,97,
3536466,00000324,false,Rx,0,8,70,44,DD,54,4F,00,00,7B,
3536712,0000033B,false,Rx,0,8,00,00,00,5B,00,00,00,00,
3536959,0000033D,false,Rx,0,8,00,00,10,20,00,18,00,00,
3537004,000003A2,false,Rx,0,8,21,60,10,74,03,FF,00,D9,
3537438,000003A4,false,Rx,0,8,00,00,07,00,02,00,00,00,
3537685,000003B7,false,Rx,0,8,00,00,00,00,00,08,43,40,
3537934,00000491,false,Rx,0,8,00,00,00,00,00,00,00,00,
3634750,0000019C,false,Rx,0,8,06,A0,26,00,00,00,00,7F,
3635007,000001F1,false,Rx,0,8,0E,00,00,00,00,00,20,00,
3635251,00000297,false,Rx,0,8,00,03,00,00,00,00,20,00,
3635497,000002A6,false,Rx,0,8,00,00,00,00,00,00,00,00,
3635743,0000033F,false,Rx,0,8,00,00,00,00,28,00,00,48,
3636036,00000323,false,Rx,0,8,00,00,00,00,00,00,D8,97,
3636046,00000324,false,Rx,0,8,70,44,C4,54,4F,00,00,7B,
3636480,0000033B,false,Rx,0,8,00,00,00,5B,00,00,00,00,
3636759,0000033D,false,Rx,0,8,00,00,10,20,00,18,00,00,
3636769,0000039F,false,Rx,0,8,4A,71,00,00,04,89,0E,B8,
3637016,000003A2,false,Rx,0,8,21,60,10,78,03,FF,00,D5,
3637262,000003A4,false,Rx,0,8,00,00,07,00,02,00,00,00,
3637509,000003B7,false,Rx,0,8,00,00,00,00,00,09,0F,40,
3637775,00000491,false,Rx,0,8,00,00,00,00,00,00,00,00,
3734713,0000019C,false,Rx,0,8,06,A0,26,00,00,00,00,7F,
3734971,000001F1,false,Rx,0,8,0E,00,00,00,00,00,20,00,
3735218,00000297,false,Rx,0,8,00,03,00,00,00,00,20,00,
3735463,000002A6,false,Rx,0,8,01,00,00,00,00,00,00,00,
3735710,0000033F,false,Rx,0,8,00,00,00,00,28,00,00,48,
3735956,0000039F,false,Rx,0,8,4A,71,00,00,04,89,0F,B9,
3736209,00000323,false,Rx,0,8,00,00,00,00,00,00,D8,97,
3736454,00000324,false,Rx,0,8,70,44,D9,54,4F,00,00,7B,
3736701,0000033B,false,Rx,0,8,00,00,00,5B,00,00,00,00,
3736951,0000033D,false,Rx,0,8,00,00,10,20,00,18,00,00,
3737204,000003A2,false,Rx,0,8,21,60,10,7C,03,FF,00,D1,
3737449,000003A4,false,Rx,0,8,00,00,07,00,02,00,00,00,
3737695,000003B7,false,Rx,0,8,00,00,00,00,00,0A,DB,40,
3737942,00000491,false,Rx,0,8,00,00,00,00,00,00,00,00,
3834737,0000019C,false,Rx,0,8,06,A0,26,00,00,00,00,7F,
3834994,000001F1,false,Rx,0,8,0E,00,00,00,00,00,20,00,
3835240,00000297,false,Rx,0,8,00,03,00,00,00,00,20,00,
3835487,000002A6,false,Rx,0,8,01,00,00,00,00,00,00,00,
3835732,0000033F,false,Rx,0,8,00,00,00,00,28,00,00,48,
3836369,0000039F,false,Rx,0,8,4A,71,00,00,04,89,00,B6,
3836615,00000323,false,Rx,0,8,00,00,00,00,00,00,D7,63,
3836863,00000324,false,Rx,0,8,70,44,E2,54,4F,00,00,7B,
3837114,0000033B,false,Rx,0,8,00,00,00,5B,00,00,00,00,
3837360,0000033D,false,Rx,0,8,00,00,10,20,00,18,00,00,
3837404,000003A2,false,Rx,0,8,21,60,10,40,03,FF,00,ED,
3837840,000003A4,false,Rx,0,8,00,00,07,00,02,00,00,00,
3838093,000003B7,false,Rx,0,8,00,00,00,00,00,0B,97,40,
3838339,00000491,false,Rx,0,8,00,00,00,00,00,00,00,00,
3934627,0000019C,false,Rx,0,8,06,A0,26,00,00,00,00,7F,
3934880,000001F1,false,Rx,0,8,0E,00,00,00,00,00,20,00,
3935132,00000297,false,Rx,0,8,00,03,00,00,00,00,20,00,
3935378,000002A6,false,Rx,0,8,00,00,00,00,00,00,00,00,
3935625,0000033F,false,Rx,0,8,00,00,00,00,28,00,00,48,
3936835,0000039F,false,Rx,0,8,4A,71,00,00,04,89,01,B7,
3937082,00000323,false,Rx,0,8,00,00,00,00,00,00,D7,63,
3937328,00000324,false,Rx,0,8,70,44,E7,54,4F,00,00,7B,
3937574,0000033B,false,Rx,0,8,00,00,00,5B,00,00,00,00,
3937821,0000033D,false,Rx,0,8,00,00,10,20,00,18,00,00,
3938073,000003A2,false,Rx,0,8,21,60,10,44,03,FF,00,E9,
3938320,000003A4,false,Rx,0,8,00,00,07,00,02,00,00,00,
3938565,000003B7,false,Rx,0,8,00,00,00,00,00,0C,6E,40,
3938812,00000491,false,Rx,0,8,00,00,00,00,00,00,00,00,
4034722,0000019C,false,Rx,0,8,06,A0,26,00,00,00,00,7F,
4034978,000001F1,false,Rx,0,8,0E,00,00,00,00,00,20,00,
4035224,00000297,false,Rx,0,8,00,03,00,00,00,00,20,00,
4035470,000002A6,false,Rx,0,8,01,00,00,00,00,00,00,00,
4035716,0000033F,false,Rx,0,8,00,00,00,00,28,00,00,48,
4037128,0000039F,false,Rx,0,8,4A,71,00,00,04,89,02,B4,
4037373,00000323,false,Rx,0,8,00,00,00,00,00,00,D7,63,
4037619,00000324,false,Rx,0,8,70,44,C9,54,4F,00,00,7B,
4037869,0000033B,false,Rx,0,8,00,00,00,5B,00,00,00,00,
4038122,0000033D,false,Rx,0,8,00,00,10,20,00,18,00,00,
4038367,000003A2,false,Rx,0,8,21,60,10,48,03,FF,00,E5,
4038614,000003A4,false,Rx,0,8,00,00,07,00,02,00,00,00,
4038862,000003B7,false,Rx,0,8,00,00,00,00,00,0D,22,40,
4039115,00000491,false,Rx,0,8,00,00,00,00,00,00,00,00,
4134687,0000019C,false,Rx,0,8,06,A0,26,00,00,00,00,7F,
4134938,000001F1,false,Rx,0,8,0E,00,00,00,00,00,20,00,
4135190,00000297,false,Rx,0,8,00,03,00,00,00,00,20,00,
4135435,000002A6,false,Rx,0,8,01,00,00,00,00,00,00,00,
4135682,0000033F,false,Rx,0,8,00,00,00,00,28,00,00,48,
4137473,0000039F,false,Rx,0,8,4A,71,00,00,04,89,03,B5,
4137719,00000323,false,Rx,0,8,00,00,00,00,00,00,D7,63,
4137974,00000324,false,Rx,0,8,70,44,CE,54,4F,00,00,7B,
4138221,0000033B,false,Rx,0,8,00,00,00,5B,00,00,00,00,
4138466,0000033D,false,Rx,0,8,00,00,10,20,00,18,00,00,
4138713,000003A2,false,Rx,0,8,21,60,10,4C,03,FF,00,E1,
4138971,000003A4,false,Rx,0,8,00,00,07,00,02,00,00,00,
4139218,000003B7,false,Rx,0,8,00,00,00,00,00,0E,F6,40,
4139461,00000491,false,Rx,0,8,00,00,00,00,00,00,00,00,
4234700,0000019C,false,Rx,0,8,06,A0,26,00,00,00,00,7F,
4234952,000001F1,false,Rx,0,8,0E,00,00,00,00,00,20,00,
4235204,00000297,false,Rx,0,8,00,03,00,00,00,00,20,00,
4235450,000002A6,false,Rx,0,8,00,00,00,00,00,00,00,00,
4235694,0000033F,false,Rx,0,8,00,00,00,00,28,00,00,48,
4237871,0000039F,false,Rx,0,8,4A,71,00,00,04,89,04,B2,
4238122,00000323,false,Rx,0,8,00,00,00,00,00,00,D7,63,
4238368,00000324,false,Rx,0,8,70,44,D3,54,4F,00,00,7B,
4238614,0000033B,false,Rx,0,8,00,00,00,5B,00,00,00,00,
4238863,0000033D,false,Rx,0,8,00,00,10,20,00,18,00,00,
4239115,000003A2,false,Rx,0,8,21,60,10,50,03,FF,00,FD,
4239361,000003A4,false,Rx,0,8,00,00,07,00,02,00,00,00,
4239607,000003B7,false,Rx,0,8,00,00,00,00,00,00,19,40,
4239855,00000491,false,Rx,0,8,00,00,00,00,00,00,00,00,
4334750,0000019C,false,Rx,0,8,06,A0,26,00,00,00,00,7F,
4335007,000001F1,false,Rx,0,8,0E,00,00,00,00,00,20,00,
4335252,00000297,false,Rx,0,8,00,03,00,00,00,00,20,00,
4335497,000002A6,false,Rx,0,8,00,00,00,00,00,00,00,00,
4335744,0000033F,false,Rx,0,8,00,00,00,00,28,00,00,48,
4338307,0000039F,false,Rx,0,8,4A,71,00,00,04,89,05,B3,
4338553,00000323,false,Rx,0,8,00,00,00,00,00,00,C1,51,
4338799,00000324,false,Rx,0,8,70,44,D9,54,4F,00,00,7B,
4339056,0000033B,false,Rx,0,8,00,00,00,5B,00,00,00,00,
4339302,0000033D,false,Rx,0,8,00,00,10,20,00,18,00,00,
4339548,000003A2,false,Rx,0,8,21,60,10,54,03,FF,00,F9,
4339794,000003A4,false,Rx,0,8,00,00,07,00,02,00,00,00,
4340049,000003B7,false,Rx,0,8,00,00,00,00,00,01,55,40,
4340293,00000491,false,Rx,0,8,00,00,00,00,00,00,00,00,
4434638,0000019C,false,Rx,0,8,06,A0,26,00,00,00,00,7F,
4434888,000001F1,false,Rx,0,8,0E,00,00,00,00,00,20,00,
4435142,00000297,false,Rx,0,8,00,03,00,00,00,00,20,00,
4435387,000002A6,false,Rx,0,8,01,00,00,00,00,00,00,00,
4435633,0000033F,false,Rx,0,8,00,00,00,00,28,00,00,48,
4438389,0000039F,false,Rx,0,8,4A,71,00,00,04,89,06,B0,
4438634,00000323,false,Rx,0,8,00,00,00,00,00,00,C1,51,
4438883,00000324,false,Rx,0,8,70,44,D9,54,4F,00,00,7B,
4439136,0000033B,false,Rx,0,8,00,00,00,5B,00,00,00,00,
4439383,0000033D,false,Rx,0,8,00,00,10,20,00,18,00,00,
4439628,000003A2,false,Rx,0,8,21,60,10,58,03,FF,00,F5,
4439878,000003A4,false,Rx,0,8,00,00,07,00,02,00,00,00,
4440129,000003B7,false,Rx,0,8,00,00,00,00,00,02,81,40,
4440376,00000491,false,Rx,0,8,00,00,00,00,00,00,00,00,
4534714,0000019C,false,Rx,0,8,06,A0,26,00,00,00,00,7F,
4534971,000001F1,false,Rx,0,8,0E,00,00,00,00,00,20,00,
4535216,00000297,false,Rx,0,8,00,03,00,00,00,00,20,00,
4535463,000002A6,false,Rx,0,8,01,00,00,00,00,00,00,00,
4535709,0000033F,false,Rx,0,8,00,00,00,00,28,00,00,48,
4538850,0000039F,false,Rx,0,8,4A,71,00,00,04,89,07,B1,
4539104,00000323,false,Rx,0,8,00,00,00,00,00,00,C1,51,
4539349,00000324,false,Rx,0,8,70,44,D3,54,4F,00,00,7B,
4539596,0000033B,false,Rx,0,8,00,00,00,5B,00,00,00,00,
4539844,0000033D,false,Rx,0,8,00,00,10,20,00,18,00,00,
4540098,000003A2,false,Rx,0,8,21,60,10,5C,03,FF,00,F1,
4540344,000003A4,false,Rx,0,8,00,00,07,00,02,00,00,00,
4540590,000003B7,false,Rx,0,8,00,00,00,00,00,03,CD,40,
4540840,00000491,false,Rx,0,8,00,00,00,00,00,00,00,00,
4634625,0000019C,false,Rx,0,8,06,A0,26,00,00,00,00,7F,
4634878,000001F1,false,Rx,0,8,0E,00,00,00,00,00,20,00,
4635131,00000297,false,Rx,0,8,00,03,00,00,00,00,20,00,
4635377,000002A6,false,Rx,0,8,01,00,00,00,00,00,00,00,
4635623,0000033F,false,Rx,0,8,00,00,00,00,28,00,00,48,
4638761,0000039F,false,Rx,0,8,4A,71,00,00,04,89,08,BE,
4639018,00000323,false,Rx,0,8,00,00,00,00,00,00,C1,51,
4639264,00000324,false,Rx,0,8,70,44,E2,54,4F,00,00,7B,
4639510,0000033B,false,Rx,0,8,00,00,00,5B,00,00,00,00,
4639756,0000033D,false,Rx,0,8,00,00,10,20,00,18,00,00,
4640010,000003A2,false,Rx,0,8,21,60,10,60,03,FF,00,CD,
4640256,000003A4,false,Rx,0,8,00,00,07,00,02,00,00,00,
4640502,000003B7,false,Rx,0,8,00,00,00,00,00,04,34,40,
4640748,00000491,false,Rx,0,8,00,00,00,00,00,00,00,00,
4734572,0000019C,false,Rx,0,8,06,A0,26,00,00,00,00,7F,
4734821,000001F1,false,Rx,0,8,0E,00,00,00,00,00,20,00,
4735075,00000297,false,Rx,0,8,00,03,00,00,00,00,20,00,
4735321,000002A6,false,Rx,0,8,01,00,00,00,00,00,00,00,
4735567,0000033F,false,Rx,0,8,00,00,00,00,28,00,00,48,
4739482,0000039F,false,Rx,0,8,4A,71,00,00,04,89,09,BF,
4739727,00000323,false,Rx,0,8,00,00,00,00,00,00,C1,51,
4739984,00000324,false,Rx,0,8,70,44,D9,54,4F,00,00,7B,
4740229,0000033B,false,Rx,0,8,00,00,00,5B,00,00,00,00,
4740475,0000033D,false,Rx,0,8,00,00,10,20,00,18,00,00,
4740720,000003A2,false,Rx,0,8,21,60,10,64,03,FF,00,C9,
4740974,000003A4,false,Rx,0,8,00,00,07,00,02,00,00,00,
4741220,000003B7,false,Rx,0,8,00,00,00,00,00,05,78,40,
4741491,00000491,false,Rx,0,8,00,00,00,00,00,00,00,00,
4834653,0000019C,false,Rx,0,8,06,A0,26,00,00,00,00,7F,
4834904,000001F1,false,Rx,0,8,0E,00,00,00,00,00,20,00,
4835156,00000297,false,Rx,0,8,00,03,00,00,00,00,20,00,
4835402,000002A6,false,Rx,0,8,01,00,00,00,00,00,00,00,
4835648,0000033F,false,Rx,0,8,00,00,00,00,28,00,00,48,
4839751,0000039F,false,Rx,0,8,4A,71,00,00,04,89,0A,BC,
4840007,00000323,false,Rx,0,8,00,00,00,00,00,00,00,00,
4840254,00000324,false,Rx,0,8,70,44,D3,54,4F,00,00,7B,
4840499,0000033B,false,Rx,0,8,00,00,00,5B,00,00,00,00,
4840746,0000033D,false,Rx,0,8,00,00,10,20,00,18,00,00,
4841003,000003A2,false,Rx,0,8,21,60,10,68,03,FF,00,C5,
4841250,000003A4,false,Rx,0,8,00,00,07,00,02,00,00,00,
4841495,000003B7,false,Rx,0,8,00,00,00,00,00,06,AC,40,
4841742,00000491,false,Rx,0,8,00,00,00,00,00,00,00,00,
4934726,0000019C,false,Rx,0,8,06,A0,26,00,00,00,00,7F,
4934986,000001F1,false,Rx,0,8,0E,00,00,00,00,00,20,00,
4935230,00000297,false,Rx,0,8,00,03,00,00,00,00,20,00,
4935477,000002A6,false,Rx,0,8,01,00,00,00,00,00,00,00,
4935722,0000033F,false,Rx,0,8,00,00,00,00,28,00,00,48,
4939633,0000039F,false,Rx,0,8,4A,71,00,00,04,89,0B,BD,
4939881,00000323,false,Rx,0,8,00,00,00,00,00,00,00,00,
4940133,00000324,false,Rx,0,8,70,44,D3,54,4F,00,00,7B,
4940379,0000033B,false,Rx,0,8,00,00,00,5B,00,00,00,00,
4940624,0000033D,false,Rx,0,8,00,00,10,20,00,18,00,00,
4940873,000003A2,false,Rx,0,8,21,60,10,6C,03,FF,00,C1,
4941125,000003A4,false,Rx,0,8,00,00,07,00,02,00,00,00,
4941372,000003B7,false,Rx,0,8,00,00,00,00,00,07,E0,40,
4941617,00000491,false,Rx,0,8,00,00,00,00,00,00,00,00,
5034625,0000019C,false,Rx,0,8,06,A0,26,00,00,00,00,7F,
5034894,000001F1,false,Rx,0,8,0E,00,00,00,00,00,20,00,
5035162,00000297,false,Rx,0,8,00,03,00,00,00,00,20,00,
5035408,000002A6,false,Rx,0,8,01,00,00,00,00,00,00,00,
5035654,0000033F,false,Rx,0,8,00,00,00,00,28,00,00,48,
5040149,0000039F,false,Rx,0,8,4A,71,00,00,04,89,0C,BA,
5040394,00000323,false,Rx,0,8,00,00,00,00,00,00,00,00,
5040641,00000324,false,Rx,0,8,70,44,D9,54,4F,00,00,7B,
5040888,0000033B,false,Rx,0,8,00,00,00,5B,00,00,00,00,
5041141,0000033D,false,Rx,0,8,00,00,10,20,00,18,00,00,
5041387,000003A2,false,Rx,0,8,21,60,10,70,03,FF,00,DD,
5041633,000003A4,false,Rx,0,8,00,00,07,00,02,00,00,00,
5041880,000003B7,false,Rx,0,8,00,00,00,00,00,08,43,40,
5042133,00000491,false,Rx,0,8,00,00,00,00,00,00,00,00,
5134593,0000019C,false,Rx,0,8,06,A0,26,00,00,00,00,7F,
5134847,000001F1,false,Rx,0,8,0E,00,00,00,00,00,20,00,
5135100,00000297,false,Rx,0,8,00,03,00,00,00,00,20,00,
5135346,000002A6,false,Rx,0,8,00,00,00,00,00,00,00,00,
5135592,0000033F,false,Rx,0,8,00,00,00,00,28,00,00,48,
5140468,0000039F,false,Rx,0,8,4A,71,00,00,04,89,0D,BB,
5140714,00000323,false,Rx,0,8,00,00,00,00,00,00,00,00,
5140963,00000324,false,Rx,0,8,70,44,EC,54,4F,00,00,7B,
5141215,0000033B,false,Rx,0,8,00,00,00,5B,00,00,00,00,
5141462,0000033D,false,Rx,0,8,00,00,10,20,00,18,00,00,
5141707,000003A2,false,Rx,0,8,21,60,10,74,03,FF,00,D9,
5141957,000003A4,false,Rx,0,8,00,00,07,00,02,00,00,00,
5142209,000003B7,false,Rx,0,8,00,00,00,00,00,09,0F,40,
5142456,00000491,false,Rx,0,8,00,00,00,00,00,00,00,00,
5234750,0000019C,false,Rx,0,8,06,A0,26,00,00,00,00,7F,
5235012,000001F1,false,Rx,0,8,0E,00,00,00,00,00,20,00,
5235055,00000297,false,Rx,0,8,00,03,00,00,00,00,20,00,
5235488,000002A6,false,Rx,0,8,01,00,00,00,00,00,00,00,
5235734,0000033F,false,Rx,0,8,00,00,00,00,28,00,00,48,
5240807,0000039F,false,Rx,0,8,4A,71,00,00,04,89,0E,B8,
5241064,00000323,false,Rx,0,8,00,00,00,00,00,00,00,00,
5241309,00000324,false,Rx,0,8,70,44,CE,54,4F,00,00,7B,
5241556,0000033B,false,Rx,0,8,00,00,00,5B,00,00,00,00,
5241802,0000033D,false,Rx,0,8,00,00,10,20,00,18,00,00,
5242059,000003A2,false,Rx,0,8,21,60,10,78,03,FF,00,D5,
5242304,000003A4,false,Rx,0,8,00,00,07,00,02,00,00,00,
5242551,000003B7,false,Rx,0,8,00,00,00,00,00,0A,DB,40,
5242797,00000491,false,Rx,0,8,00,00,00,00,00,00,00,00,
5334604,0000019C,false,Rx,0,8,06,A0,26,00,00,00,00,7F,
5334853,000001F1,false,Rx,0,8,0E,00,00,00,00,00,20,00,
5335107,00000297,false,Rx,0,8,00,03,00,00,00,00,20,00,
5335353,000002A6,false,Rx,0,8,00,00,00,00,00,00,00,00,
5335600,0000033F,false,Rx,0,8,00,00,00,00,28,00,00,48,
5341438,0000039F,false,Rx,0,8,4A,71,00,00,04,89,0F,B9,
5341683,00000323,false,Rx,0,8,00,00,00,00,00,00,D8,97,
5341931,00000324,false,Rx,0,8,70,44,D9,54,4F,00,00,7B,
5342183,0000033B,false,Rx,0,8,00,00,00,5B,00,00,00,00,
5342429,0000033D,false,Rx,0,8,00,00,10,20,00,18,00,00,
5342674,000003A2,false,Rx,0,8,21,60,10,7C,03,FF,00,D1,
5342922,000003A4,false,Rx,0,8,00,00,07,00,02,00,00,00,
5343166,000003B7,false,Rx,0,8,00,00,00,00,00,0B,97,40,
5343421,00000491,false,Rx,0,8,00,00,00,00,00,00,00,00,
5434609,0000019C,false,Rx,0,8,06,A0,26,00,00,00,00,7F,
5434882,000001F1,false,Rx,0,8,0E,00,00,00,00,00,20,00,
5435158,00000297,false,Rx,0,8,00,03,00,00,00,00,20,00,
5435404,000002A6,false,Rx,0,8,01,00,00,00,00,00,00,00,
5435649,0000033F,false,Rx,0,8,00,00,00,00,28,00,00,48,
5441486,0000039F,false,Rx,0,8,4A,71,00,00,04,89,00,B6,
5441732,00000323,false,Rx,0,8,00,00,00,00,00,00,D8,97,
5441984,00000324,false,Rx,0,8,70,44,D3,54,4F,00,00,7B,
5442231,0000033B,false,Rx,0,8,00,00,00,5B,00,00,00,00,
5442476,0000033D,false,Rx,0,8,00,00,10,20,00,18,00,00,
5442722,000003A2,false,Rx,0,8,21,60,10,40,03,FF,00,ED,
5442981,000003A4,false,Rx,0,8,00,00,07,00,02,00,00,00,
5443261,000003B7,false,Rx,0,8,00,00,00,00,00,0C,6E,40,
5443308,00000491,false,Rx,0,8,00,00,00,00,00,00,00,00,
5534559,0000019C,false,Rx,0,8,06,A0,26,00,00,00,00,7F,
5534807,000001F1,false,Rx,0,8,0E,00,00,00,00,00,20,00,
5535064,00000297,false,Rx,0,8,00,03,00,00,00,00,20,00,
5535311,000002A6,false,Rx,0,8,01,00,00,00,00,00,00,00,
5535556,0000033F,false,Rx,0,8,00,00,00,00,28,00,00,48,
5541979,0000039F,false,Rx,0,8,4A,71,00,00,04,89,01,B7,
5542224,00000323,false,Rx,0,8,00,00,00,00,00,00,D8,97,
5542471,00000324,false,Rx,0,8,70,44,E7,54,4F,00,00,7B,
5542716,0000033B,false,Rx,0,8,00,00,00,5B,00,00,00,00,
5542974,0000033D,false,Rx,0,8,00,00,10,20,00,18,00,00,
5543220,000003A2,false,Rx,0,8,21,60,10,44,03,FF,00,E9,
5543466,000003A4,false,Rx,0,8,00,00,07,00,02,00,00,00,
5543712,000003B7,false,Rx,0,8,00,00,00,00,00,0D,22,40,
5543960,00000491,false,Rx,0,8,00,00,00,00,00,00,00,00,
5634727,0000019C,false,Rx,0,8,06,A0,26,00,00,00,00,7F,
5634984,000001F1,false,Rx,0,8,0E,00,00,00,00,00,20,00,
5635231,00000297,false,Rx,0,8,00,03,00,00,00,00,20,00,
5635476,000002A6,false,Rx,0,8,01,00,00,00,00,00,00,00,
5635722,0000033F,false,Rx,0,8,00,00,00,00,28,00,00,48,
5642331,0000039F,false,Rx,0,8,4A,71,00,00,04,89,02,B4,
5642575,00000323,false,Rx,0,8,00,00,00,00,00,00,D8,97,
5642822,00000324,false,Rx,0,8,70,44,E7,54,4F,00,00,7B,
5643075,0000033B,false,Rx,0,8,00,00,00,5B,00,00,00,00,
5643321,0000033D,false,Rx,0,8,00,00,10,20,00,18,00,00,
5643567,000003A2,false,Rx,0,8,21,60,10,48,03,FF,00,E5,
5643813,000003A4,false,Rx,0,8,00,00,07,00,02,00,00,00,
5644066,000003B7,false,Rx,0,8,00,00,00,00,00,0E,F6,40,
5644313,00000491,false,Rx,0,8,00,00,00,00,00,00,00,00,
5734559,0000019C,false,Rx,0,8,06,A0,26,00,00,00,00,7F,
5734807,000001F1,false,Rx,0,8,0E,00,00,00,00,00,20,00,
5735064,00000297,false,Rx,0,8,00,03,00,00,00,00,20,00,
5735309,000002A6,false,Rx,0,8,00,00,00,00,00,00,00,00,
5735555,0000033F,false,Rx,0,8,00,00,00,00,28,00,00,48,
5742171,0000039F,false,Rx,0,8,4A,71,00,00,04,89,03,B5,
5742416,00000323,false,Rx,0,8,00,00,00,00,00,00,D8,97,
5742662,00000324,false,Rx,0,8,70,44,D3,54,4F,00,00,7B,
5742908,0000033B,false,Rx,0,8,00,00,00,5B,00,00,00,00,
5743161,0000033D,false,Rx,0,8,00,00,10,20,00,18,00,00,
5743407,000003A2,false,Rx,0,8,21,60,10,4C,03,FF,00,E1,
5743654,000003A4,false,Rx,0,8,00,00,07,00,02,00,00,00,
5743900,000003B7,false,Rx,0,8,00,00,00,00,00,00,19,40,
5744149,00000491,false,Rx,0,8,00,00,00,00,00,00,00,00,
5834743,0000019C,false,Rx,0,8,06,A0,26,00,00,00,00,7F,
5835002,000001F1,false,Rx,0,8,0E,00,00,00,00,00,20,00,
5835045,00000297,false,Rx,0,8,00,03,00,00,00,00,20,00,
5835479,000002A6,false,Rx,0,8,01,00,00,00,00,00,00,00,
5835726,0000033F,false,Rx,0,8,00,00,00,00,28,00,00,48,
5842530,0000039F,false,Rx,0,8,4A,71,00,00,04,89,04,B2,
5842777,00000323,false,Rx,0,8,00,00,00,00,00,00,D7,63,
5843030,00000324,false,Rx,0,8,70,44,D9,54,4F,00,00,7B,
5843276,0000033B,false,Rx,0,8,00,00,00,5B,00,00,00,00,
5843520,0000033D,false,Rx,0,8,00,00,10,20,00,18,00,00,
5843767,000003A2,false,Rx,0,8,21,60,10,50,03,FF,00,FD,
5844022,000003A4,false,Rx,0,8,00,00,07,00,02,00,00,00,
5844268,000003B7,false,Rx,0,8,00,00,00,00,00,01,55,40,
5844514,00000491,false,Rx,0,8,00,00,00,00,00,00,00,00,
5934687,0000019C,false,Rx,0,8,06,A0,26,00,00,00,00,7F,
5934937,000001F1,false,Rx,0,8,0E,00,00,00,00,00,20,00,
5935191,00000297,false,Rx,0,8,00,03,00,00,00,00,20,00,
5935434,000002A6,false,Rx,0,8,01,00,00,00,00,00,00,00,
5935680,0000033F,false,Rx,0,8,00,00,00,00,28,00,00,48,
5942865,0000039F,false,Rx,0,8,4A,71,00,00,04,89,05,B3,
5943118,00000323,false,Rx,0,8,00,00,00,00,00,00,D7,63,
5943364,00000324,false,Rx,0,8,70,44,E7,54,4F,00,00,7B,
5943611,0000033B,false,Rx,0,8,00,00,00,5B,00,00,00,00,
5943858,0000033D,false,Rx,0,8,00,00,10,20,00,18,00,00,
5944112,000003A2,false,Rx,0,8,21,60,10,54,03,FF,00,F9,
5944358,000003A4,false,Rx,0,8,00,00,07,00,02,00,00,00,
5944605,000003B7,false,Rx,0,8,00,00,00,00,00,02,81,40,
5944852,00000491,false,Rx,0,8,00,00,00,00,00,00,00,00,
6034716,0000019C,false,Rx,0,8,06,A0,26,00,00,00,00,7F,
6034974,000001F1,false,Rx,0,8,0E,00,00,00,00,00,20,00,
6035221,00000297,false,Rx,0,8,00,03,00,00,00,00,20,00,
6035467,000002A6,false,Rx,0,8,01,00,00,00,00,00,00,00,
6035713,0000033F,false,Rx,0,8,00,00,00,00,28,00,00,48,
6043316,0000039F,false,Rx,0,8,4A,71,00,00,04,89,06,B0,
6043563,00000323,false,Rx,0,8,00,00,00,00,00,00,D7,63,
6043808,00000324,false,Rx,0,8,70,44,F2,54,4F,00,00,7B,
6044066,0000033B,false,Rx,0,8,00,00,00,5B,00,00,00,00,
6044310,0000033D,false,Rx,0,8,00,00,10,20,00,18,00,00,
6044557,000003A2,false,Rx,0,8,21,61,10,58,03,FF,00,F4,
6044803,000003A4,false,Rx,0,8,00,00,07,00,02,00,00,00,
6045058,000003B7,false,Rx,0,8,00,00,00,00,00,03,CD,40,
6045304,00000491,false,Rx,0,8,00,00,00,00,00,00,00,00,
6134736,0000019C,false,Rx,0,8,06,A0,26,00,00,00,00,7F,
6134993,000001F1,false,Rx,0,8,0E,00,00,00,00,00,20,00,
6135239,00000297,false,Rx,0,8,00,03,00,00,00,00,20,00,
6135484,000002A6,false,Rx,0,8,01,00,00,00,00,00,00,00,
6135731,0000033F,false,Rx,0,8,00,00,00,00,28,00,00,48,
6143688,0000039F,false,Rx,0,8,4A,71,00,00,04,89,07,B1,
6143941,00000323,false,Rx,0,8,00,00,00,00,00,00,D7,63,
6144193,00000324,false,Rx,0,8,70,44,DD,54,4F,00,00,7B,
6144440,0000033B,false,Rx,0,8,00,00,00,5B,00,00,00,00,
6144685,0000033D,false,Rx,0,8,00,00,10,20,00,18,00,00,
6144934,000003A2,false,Rx,0,8,21,60,10,5C,03,FF,00,F1,
6145187,000003A4,false,Rx,0,8,00,00,07,00,02,00,00,00,
6145432,000003B7,false,Rx,0,8,00,00,00,00,00,04,34,40,
6145678,00000491,false,Rx,0,8,00,00,00,00,00,00,00,00,
6234736,0000019C,false,Rx,0,8,06,A0,26,00,00,00,00,7F,
6234994,000001F1,false,Rx,0,8,0E,00,00,00,00,00,20,00,
6235239,00000297,false,Rx,0,8,00,03,00,00,00,00,20,00,
6235484,000002A6,false,Rx,0,8,00,00,00,00,00,00,00,00,
6235731,0000033F,false,Rx,0,8,00,00,00,00,28,00,00,48,
6244083,0000039F,false,Rx,0,8,4A,71,00,00,04,89,08,BE,
6244330,00000323,false,Rx,0,8,00,00,00,00,00,00,D7,63,
6244575,00000324,false,Rx,0,8,70,44,EC,54,4F,00,00,7B,
6244822,0000033B,false,Rx,0,8,00,00,00,5B,00,00,00,00,
6245075,0000033D,false,Rx,0,8,00,00,10,20,00,18,00,00,
6245118,000003A2,false,Rx,0,8,21,60,10,60,03,FF,00,CD,
6245552,000003A4,false,Rx,0,8,00,00,07,00,02,00,00,00,
6245797,000003B7,false,Rx,0,8,00,00,00,00,00,05,78,40,
6246052,00000491,false,Rx,0,8,00,00,00,00,00,00,00,00,
6334707,0000019C,false,Rx,0,8,06,A0,26,00,00,00,00,7F,
6334959,000001F1,false,Rx,0,8,0E,00,00,00,00,00,20,00,
6335211,00000297,false,Rx,0,8,00,03,00,00,00,00,20,00,
6335458,000002A6,false,Rx,0,8,01,00,00,00,00,00,00,00,
6335703,0000033F,false,Rx,0,8,00,00,00,00,28,00,00,48,
6344433,0000039F,false,Rx,0,8,4A,71,00,00,04,89,09,BF,
6344679,00000323,false,Rx,0,8,00,00,00,00,00,00,C1,51,
6344927,00000324,false,Rx,0,8,70,44,D9,54,4F,00,00,7B,
6345174,0000033B,false,Rx,0,8,00,00,00,5B,00,00,00,00,
6345219,0000033D,false,Rx,0,8,00,00,10,20,00,18,00,00,
6345460,000003A2,false,Rx,0,8,21,60,10,64,03,FF,00,C9,
6345706,000003A4,false,Rx,0,8,00,00,07,00,02,00,00,00,
6345955,000003B7,false,Rx,0,8,00,00,00,00,00,06,AC,40,
6346207,00000491,false,Rx,0,8,00,00,00,00,00,00,00,00,
6434582,0000019C,false,Rx,0,8,06,A0,26,00,00,00,00,7F,
6434832,000001F1,false,Rx,0,8,0E,00,00,00,00,00,20,00,
6435085,00000297,false,Rx,0,8,00,03,00,00,00,00,20,00,
6435331,000002A6,false,Rx,0,8,01,00,00,00,00,00,00,00,
6435577,0000033F,false,Rx,0,8,00,00,00,00,28,00,00,48,
6444521,0000039F,false,Rx,0,8,4A,71,00,00,04,89,0A,BC,
6444766,00000323,false,Rx,0,8,00,00,00,00,00,00,C1,51,
6445022,00000324,false,Rx,0,8,70,44,E7,54,4F,00,00,7B,
6445266,0000033B,false,Rx,0,8,00,00,00,5B,00,00,00,00,
6445513,0000033D,false,Rx,0,8,00,00,10,20,00,18,00,00,
6445758,000003A2,false,Rx,0,8,21,60,10,68,03,FF,00,C5,
6446017,000003A4,false,Rx,0,8,00,00,07,00,02,00,00,00,
6446263,000003B7,false,Rx,0,8,00,00,00,00,00,07,E0,40,
6446510,00000491,false,Rx,0,8,00,00,00,00,00,00,00,00,
6534634,0000019C,false,Rx,0,8,06,A0,26,00,00,00,00,7F,
6534885,000001F1,false,Rx,0,8,0E,00,00,00,00,00,20,00,
6535137,00000297,false,Rx,0,8,00,03,00,00,00,00,20,00,
6535384,000002A6,false,Rx,0,8,01,00,00,00,00,00,00,00,
6535628,0000033F,false,Rx,0,8,00,00,00,00,28,00,00,48,
6544936,0000039F,false,Rx,0,8,4A,71,00,00,04,89,0B,BD,
6545189,00000323,false,Rx,0,8,00,00,00,00,00,00,C1,51,
6545434,00000324,false,Rx,0,8,70,44,DD,54,4F,00,00,7B,
6545681,0000033B,false,Rx,0,8,00,00,00,5B,00,00,00,00,
6545931,0000033D,false,Rx,0,8,00,00,10,20,00,18,00,00,
6546184,000003A2,false,Rx,0,8,21,60,10,6C,03,FF,00,C1,
6546429,000003A4,false,Rx,0,8,00,00,07,00,02,00,00,00,
6546674,000003B7,false,Rx,0,8,00,00,00,00,00,08,43,40,
6546921,00000491,false,Rx,0,8,00,00,00,00,00,00,00,00,
6634596,0000019C,false,Rx,0,8,06,A0,26,00,00,00,00,7F,
6634846,000001F1,false,Rx,0,8,0E,00,00,00,00,00,20,00,
6635099,00000297,false,Rx,0,8,00,03,00,00,00,00,20,00,
6635346,000002A6,false,Rx,0,8,01,00,00,00,00,00,00,00,
6635591,0000033F,false,Rx,0,8,00,00,00,00,28,00,00,48,
6645281,0000039F,false,Rx,0,8,4A,71,00,00,04,89,0C,BA,
6645527,00000323,false,Rx,0,8,00,00,00,00,00,00,C1,51,
6645773,00000324,false,Rx,0,8,70,44,DD,54,4F,00,00,7B,
6646029,0000033B,false,Rx,0,8,00,00,00,5B,00,00,00,00,
6646275,0000033D,false,Rx,0,8,00,00,10,20,00,18,00,00,
6646521,000003A2,false,Rx,0,8,21,60,10,70,03,FF,00,DD,
6646767,000003A4,false,Rx,0,8,00,00,07,00,02,00,00,00,
6647021,000003B7,false,Rx,0,8,00,00,00,00,00,09,0F,40,
6647267,00000491,false,Rx,0,8,00,00,00,00,00,00,00,00,
6734677,0000019C,false,Rx,0,8,06,A0,26,00,00,00,00,7F,
6734930,000001F1,false,Rx,0,8,0E,00,00,00,00,00,20,00,
6735183,00000297,false,Rx,0,8,00,03,00,00,00,00,20,00,
6735428,000002A6,false,Rx,0,8,00,00,00,00,00,00,00,00,
6735673,0000033F,false,Rx,0,8,00,00,00,00,28,00,00,48,
6745564,0000039F,false,Rx,0,8,4A,71,00,00,04,89,0D,BB,
6745810,00000323,false,Rx,0,8,00,00,00,00,00,00,C1,51,
6746066,00000324,false,Rx,0,8,70,44,D3,54,4F,00,00,7B,
6746312,0000033B,false,Rx,0,8,00,00,00,5B,00,00,00,00,
6746558,0000033D,false,Rx,0,8,00,00,10,20,00,18,00,00,
6746803,000003A2,false,Rx,0,8,21,60,10,74,03,FF,00,D9,
6747059,000003A4,false,Rx,0,8,00,00,07,00,02,00,00,00,
6747305,000003B7,false,Rx,0,8,00,00,00,00,00,0A,DB,40,
6747552,00000491,false,Rx,0,8,00,00,00,00,00,00,00,00,
6834677,0000019C,false,Rx,0,8,06,A0,26,00,00,00,00,7F,
6834928,000001F1,false,Rx,0,8,0E,00,00,00,00,00,20,00,
6835179,00000297,false,Rx,0,8,00,03,00,00,00,00,20,00,
6835425,000002A6,false,Rx,0,8,00,00,00,00,00,00,00,00,
6835671,0000033F,false,Rx,0,8,00,00,00,00,28,00,00,48,
6845840,0000039F,false,Rx,0,8,4A,71,00,00,04,89,0E,B8,
6846093,00000323,false,Rx,0,8,00,00,00,00,00,00,00,00,
6846339,00000324,false,Rx,0,8,70,44,D9,54,4F,00,00,7B,
6846585,0000033B,false,Rx,0,8,00,00,00,5B,00,00,00,00,
6846832,0000033D,false,Rx,0,8,00,00,10,20,00,18,00,00,
6847085,000003A2,false,Rx,0,8,21,60,10,78,03,FF,00,D5,
6847330,000003A4,false,Rx,0,8,00,00,07,00,02,00,00,00,
6847577,000003B7,false,Rx,0,8,00,00,00,00,00,0B,97,40,
6847823,00000491,false,Rx,0,8,00,00,00,00,00,00,00,00,
6936067,0000019C,false,Rx,0,8,06,A0,26,00,00,00,00,7F,
6936085,000001F1,false,Rx,0,8,0E,00,00,00,00,00,20,00,
6936091,00000297,false,Rx,0,8,00,03,00,00,00,00,20,00,
6936097,000002A6,false,Rx,0,8,01,00,00,00,00,00,00,00,
6936103,0000033F,false,Rx,0,8,00,00,00,00,28,00,00,48,
6946240,0000039F,false,Rx,0,8,4A,71,00,00,04,89,0F,B9,
6946485,00000323,false,Rx,0,8,00,00,00,00,00,00,00,00,
6946732,00000324,false,Rx,0,8,70,44,E2,54,4F,00,00,7B,
6946986,0000033B,false,Rx,0,8,00,00,00,5B,00,00,00,00,
6947232,0000033D,false,Rx,0,8,00,00,10,20,00,18,00,00,
6947477,000003A2,false,Rx,0,8,21,60,10,7C,03,FF,00,D1,
6947724,000003A4,false,Rx,0,8,00,00,07,00,02,00,00,00,
6947978,000003B7,false,Rx,0,8,00,00,00,00,00,0C,6E,40,
6948225,00000491,false,Rx,0,8,00,00,00,00,00,00,00,00,
7034678,0000019C,false,Rx,0,8,06,A0,26,00,00,00,00,7F,
7036933,000001F1,false,Rx,0,8,0E,00,00,00,00,00,20,00,
7036948,00000297,false,Rx,0,8,00,03,00,00,00,00,20,00,
7036955,000002A6,false,Rx,0,8,01,00,00,00,00,00,00,00,
7036961,0000033F,false,Rx,0,8,00,00,00,00,28,00,00,48,
7045963,0000039F,false,Rx,0,8,4A,71,00,00,04,89,00,B6,
7046216,00000323,false,Rx,0,8,00,00,00,00,00,00,00,00,
7046460,00000324,false,Rx,0,8,70,44,CE,54,4F,00,00,7B,
7046724,0000033B,false,Rx,0,8,00,00,00,5B,00,00,00,00,
7046979,0000033D,false,Rx,0,8,00,00,10,20,00,18,00,00,
7047226,000003A2,false,Rx,0,8,21,60,10,40,03,FF,00,ED,
7047472,000003A4,false,Rx,0,8,00,00,07,00,02,00,00,00,
7047719,000003B7,false,Rx,0,8,00,00,00,00,00,0D,22,40,
7047973,00000491,false,Rx,0,8,00,00,00,00,00,00,00,00,
7134707,0000019C,false,Rx,0,8,06,A0,26,00,00,00,00,7F,
7134959,000001F1,false,Rx,0,8,0E,00,00,00,00,00,20,00,
7135211,00000297,false,Rx,0,8,00,03,00,00,00,00,20,00,
7137459,000002A6,false,Rx,0,8,01,00,00,00,00,00,00,00,
7137474,0000033F,false,Rx,0,8,00,00,00,00,28,00,00,48,
7146369,0000039F,false,Rx,0,8,4A,71,00,00,04,89,01,B7,
7146616,00000323,false,Rx,0,8,00,00,00,00,00,00,00,00,
7146864,00000324,false,Rx,0,8,70,44,D9,54,4F,00,00,7B,
7147119,0000033B,false,Rx,0,8,00,00,00,5B,00,00,00,00,
7147364,0000033D,false,Rx,0,8,00,00,10,20,00,18,00,00,
7147611,000003A2,false,Rx,0,8,21,60,10,44,03,FF,00,E9,
7147858,000003A4,false,Rx,0,8,00,00,07,00,02,00,00,00,
7148112,000003B7,false,Rx,0,8,00,00,00,00,00,0E,F6,40,
7148357,00000491,false,Rx,0,8,00,00,00,00,00,00,00,00,
7234714,0000019C,false,Rx,0,8,06,A0,26,00,00,00,00,7F,
7234974,000001F1,false,Rx,0,8,0E,00,00,00,00,00,20,00,
7235220,00000297,false,Rx,0,8,00,03,00,00,00,00,20,00,
7235465,000002A6,false,Rx,0,8,01,00,00,00,00,00,00,00,
7235712,0000033F,false,Rx,0,8,00,00,00,00,28,00,00,48,
7246697,0000039F,false,Rx,0,8,4A,71,00,00,04,89,02,B4,
7246949,00000323,false,Rx,0,8,00,00,00,00,00,00,00,00,
7247201,00000324,false,Rx,0,8,70,44,C9,54,4F,00,00,7B,
7247468,0000033B,false,Rx,0,8,00,00,00,5B,00,00,00,00,
7247713,0000033D,false,Rx,0,8,00,00,10,20,00,18,00,00,
7247961,000003A2,false,Rx,0,8,21,60,10,48,03,FF,00,E5,
7248213,000003A4,false,Rx,0,8,00,00,07,00,02,00,00,00,
7248460,000003B7,false,Rx,0,8,00,00,00,00,00,00,19,40,
7248706,00000491,false,Rx,0,8,00,00,00,00,00,00,00,00,
7334654,0000019C,false,Rx,0,8,06,A0,26,00,00,00,00,7F,
7334905,000001F1,false,Rx,0,8,0E,00,00,00,00,00,20,00,
7335157,00000297,false,Rx,0,8,00,03,00,00,00,00,20,00,
7335404,000002A6,false,Rx,0,8,00,00,00,00,00,00,00,00,
7335649,0000033F,false,Rx,0,8,00,00,00,00,28,00,00,48,
7347346,0000039F,false,Rx,0,8,4A,71,00,00,04,89,03,B5,
7347595,00000323,false,Rx,0,8,00,00,00,00,00,00,D8,97,
7347858,00000324,false,Rx,0,8,70,44,D9,54,4F,00,00,7B,
7348111,0000033B,false,Rx,0,8,00,00,00,5B,00,00,00,00,
7348401,0000033D,false,Rx,0,8,00,00,10,20,00,18,00,00,
7348410,000003A2,false,Rx,0,8,21,60,10,4C,03,FF,00,E1,
7348661,000003A4,false,Rx,0,8,00,00,07,00,02,00,00,00,
7348908,000003B7,false,Rx,0,8,00,00,00,00,00,01,55,40,
7349160,00000491,false,Rx,0,8,00,00,00,00,00,00,00,00,
7434679,0000019C,false,Rx,0,8,06,A0,26,00,00,00,00,7F,
7434930,000001F1,false,Rx,0,8,0E,00,00,00,00,00,20,00,
7435183,00000297,false,Rx,0,8,00,03,00,00,00,00,20,00,
7435429,000002A6,false,Rx,0,8,01,00,00,00,00,00,00,00,
7435675,0000033F,false,Rx,0,8,00,00,00,00,28,00,00,48,
7447533,0000039F,false,Rx,0,8,4A,71,00,00,04,89,04,B2,
7447781,00000323,false,Rx,0,8,00,00,00,00,00,00,D8,97,
7448031,00000324,false,Rx,0,8,70,44,D9,54,4F,00,00,7B,
7448277,0000033B,false,Rx,0,8,00,00,00,5B,00,00,00,00,
7448523,0000033D,false,Rx,0,8,00,00,10,20,00,18,00,00,
7448769,000003A2,false,Rx,0,8,21,60,10,50,03,FF,00,FD,
7449017,000003A4,false,Rx,0,8,00,00,07,00,02,00,00,00,
7449270,000003B7,false,Rx,0,8,00,00,00,00,00,02,81,40,
7449517,00000491,false,Rx,0,8,00,00,00,00,00,00,00,00,
7534632,0000019C,false,Rx,0,8,06,A0,26,00,00,00,00,7F,
7534901,000001F1,false,Rx,0,8,0E,00,00,00,00,00,20,00,
7535174,00000297,false,Rx,0,8,00,03,00,00,00,00,20,00,
7535439,000002A6,false,Rx,0,8,01,00,00,00,00,00,00,00,
7535686,0000033F,false,Rx,0,8,00,00,00,00,28,00,00,48,
7548163,0000039F,false,Rx,0,8,4A,71,00,00,04,89,05,B3,
7548208,00000323,false,Rx,0,8,00,00,00,00,00,00,D8,97,
7548452,00000324,false,Rx,0,8,70,44,D3,54,4F,00,00,7B,
7548698,0000033B,false,Rx,0,8,00,00,00,5B,00,00,00,00,
7548949,0000033D,false,Rx,0,8,00,00,10,20,00,18,00,00,
7549203,000003A2,false,Rx,0,8,21,60,10,54,03,FF,00,F9,
7549448,000003A4,false,Rx,0,8,00,00,07,00,02,00,00,00,
7549695,000003B7,false,Rx,0,8,00,00,00,00,00,03,CD,40,
7549942,00000491,false,Rx,0,8,00,00,00,00,00,00,00,00,
7634625,0000019C,false,Rx,0,8,06,A0,26,00,00,00,00,7F,
7634878,000001F1,false,Rx,0,8,0E,00,00,00,00,00,20,00,
7635130,00000297,false,Rx,0,8,00,03,00,00,00,00,20,00,
7635377,000002A6,false,Rx,0,8,00,00,00,00,00,00,00,00,
7635622,0000033F,false,Rx,0,8,00,00,00,00,28,00,00,48,
7648402,0000039F,false,Rx,0,8,4A,71,00,00,04,89,06,B0,
7648651,00000323,false,Rx,0,8,00,00,00,00,00,00,D8,97,
7648898,00000324,false,Rx,0,8,70,44,E2,54,4F,00,00,7B,
7649149,0000033B,false,Rx,0,8,00,00,00,5B,00,00,00,00,
7649395,0000033D,false,Rx,0,8,00,00,10,20,00,18,00,00,
7649641,000003A2,false,Rx,0,8,21,60,10,58,03,FF,00,F5,
7649889,000003A4,false,Rx,0,8,00,00,07,00,02,00,00,00,
7650143,000003B7,false,Rx,0,8,00,00,00,00,00,04,34,40,
7650388,00000491,false,Rx,0,8,00,00,00,00,00,00,00,00,
7734652,0000019C,false,Rx,0,8,06,A0,26,00,00,00,00,7F,
7734903,000001F1,false,Rx,0,8,0E,00,00,00,00,00,20,00,
7735156,00000297,false,Rx,0,8,00,03,00,00,00,00,20,00,
7735403,000002A6,false,Rx,0,8,01,00,00,00,00,00,00,00,
7735648,0000033F,false,Rx,0,8,00,00,00,00,28,00,00,48,
7748161,0000039F,false,Rx,0,8,4A,71,00,00,04,89,07,B1,
7748409,00000323,false,Rx,0,8,00,00,00,00,00,00,D8,97,
7748668,00000324,false,Rx,0,8,70,44,E2,54,4F,00,00,7B,
7748931,0000033B,false,Rx,0,8,00,00,00,5B,00,00,00,00,
7749185,0000033D,false,Rx,0,8,00,00,10,20,00,18,00,00,
7749429,000003A2,false,Rx,0,8,21,60,10,5C,03,FF,00,F1,
7749676,000003A4,false,Rx,0,8,00,00,07,00,02,00,00,00,
7749922,000003B7,false,Rx,0,8,00,00,00,00,00,05,78,40,
7750176,00000491,false,Rx,0,8,00,00,00,00,00,00,00,00,
7834559,0000019C,false,Rx,0,8,06,A0,26,00,00,00,00,7F,
7834807,000001F1,false,Rx,0,8,0E,00,00,00,00,00,20,00,
7835064,00000297,false,Rx,0,8,00,03,00,00,00,00,20,00,
7835309,000002A6,false,Rx,0,8,00,00,00,00,00,00,00,00,
7835554,0000033F,false,Rx,0,8,00,00,00,00,28,00,00,48,
7848553,0000039F,false,Rx,0,8,4A,71,00,00,04,89,08,BE,
7848819,00000323,false,Rx,0,8,00,00,00,00,00,00,D7,63,
7849144,00000324,false,Rx,0,8,70,44,EC,54,4F,00,00,7B,
7849154,0000033B,false,Rx,0,8,00,00,00,5B,00,00,00,00,
7849420,0000033D,false,Rx,0,8,00,00,10,20,00,18,00,00,
7849668,000003A2,false,Rx,0,8,21,60,10,60,03,FF,00,CD,
7849915,000003A4,false,Rx,0,8,00,00,07,00,02,00,00,00,
7850169,000003B7,false,Rx,0,8,00,00,00,00,00,06,AC,40,
7850413,00000491,false,Rx,0,8,00,00,00,00,00,00,00,00,
7934568,0000019C,false,Rx,0,8,06,A0,26,00,00,00,00,7F,
7934816,000001F1,false,Rx,0,8,0E,00,00,00,00,00,20,00,
7935070,00000297,false,Rx,0,8,00,03,00,00,00,00,20,00,
7935316,000002A6,false,Rx,0,8,00,00,00,00,00,00,00,00,
7935563,0000033F,false,Rx,0,8,00,00,00,00,28,00,00,48,
7949126,0000039F,false,Rx,0,8,4A,71,00,00,04,89,09,BF,
7949388,00000323,false,Rx,0,8,00,00,00,00,00,00,D7,63,
7949634,00000324,false,Rx,0,8,70,44,C9,54,4F,00,00,7B,
7949882,0000033B,false,Rx,0,8,00,00,00,5B,00,00,00,00,
7950135,0000033D,false,Rx,0,8,00,00,10,20,00,18,00,00,
7950381,000003A2,false,Rx,0,8,21,60,10,64,03,FF,00,C9,
7950627,000003A4,false,Rx,0,8,00,00,07,00,02,00,00,00,
7950878,000003B7,false,Rx,0,8,00,00,00,00,00,07,E0,40,
7951130,00000491,false,Rx,0,8,00,00,00,00,00,00,00,00,
8034593,0000019C,false,Rx,0,8,06,A0,26,00,00,00,00,7F,
8034847,000001F1,false,Rx,0,8,0E,00,00,00,00,00,20,00,
8035100,00000297,false,Rx,0,8,00,03,00,00,00,00,20,00,
8035347,000002A6,false,Rx,0,8,01,00,00,00,00,00,00,00,
8035592,0000033F,false,Rx,0,8,00,00,00,00,28,00,00,48,
8049305,0000039F,false,Rx,0,8,4A,71,00,00,04,89,0A,BC,
8049554,00000323,false,Rx,0,8,00,00,00,00,00,00,D7,63,
8049800,00000324,false,Rx,0,8,70,44,CE,54,4F,00,00,7B,
8050056,0000033B,false,Rx,0,8,00,00,00,5B,00,00,00,00,
8050302,0000033D,false,Rx,0,8,00,00,10,20,00,18,00,00,
8050549,000003A2,false,Rx,0,8,21,60,10,68,03,FF,00,C5,
8050794,000003A4,false,Rx,0,8,00,00,07,00,02,00,00,00,
8051050,000003B7,false,Rx,0,8,00,00,00,00,00,08,43,40,
8051294,00000491,false,Rx,0,8,00,00,00,00,00,00,00,00,
8134705,0000019C,false,Rx,0,8,06,A0,26,00,00,00,00,7F,
8134957,000001F1,false,Rx,0,8,0E,00,00,00,00,00,20,00,
8135207,00000297,false,Rx,0,8,00,03,00,00,00,00,20,00,
8135453,000002A6,false,Rx,0,8,01,00,00,00,00,00,00,00,
8135699,0000033F,false,Rx,0,8,00,00,00,00,28,00,00,48,
8149972,0000039F,false,Rx,0,8,4A,71,00,00,04,89,0B,BD,
8150221,00000323,false,Rx,0,8,00,00,00,00,00,00,D7,63,
8150467,00000324,false,Rx,0,8,70,44,F2,54,4F,00,00,7B,
8150713,0000033B,false,Rx,0,8,00,00,00,5B,00,00,00,00,
8150960,0000033D,false,Rx,0,8,00,00,10,20,00,18,00,00,
8151214,000003A2,false,Rx,0,8,21,61,10,6C,03,FF,00,C0,
8151459,000003A4,false,Rx,0,8,00,00,07,00,02,00,00,00,
8151705,000003B7,false,Rx,0,8,00,00,00,00,00,09,0F,40,
8151953,00000491,false,Rx,0,8,00,00,00,00,00,00,00,00,
8234654,0000019C,false,Rx,0,8,06,A0,26,00,00,00,00,7F,
8234905,000001F1,false,Rx,0,8,0E,00,00,00,00,00,20,00,
8235159,00000297,false,Rx,0,8,00,03,00,00,00,00,20,00,
8235403,000002A6,false,Rx,0,8,00,00,00,00,00,00,00,00,
8235650,0000033F,false,Rx,0,8,00,00,00,00,28,00,00,48,
8250291,0000039F,false,Rx,0,8,4A,71,00,00,04,89,0C,BA,
8250540,00000323,false,Rx,0,8,00,00,00,00,00,00,D7,63,
8250786,00000324,false,Rx,0,8,70,44,E7,55,4F,00,00,7B,
8251045,0000033B,false,Rx,0,8,00,00,00,5B,00,00,00,00,
8251090,0000033D,false,Rx,0,8,00,00,10,20,00,18,00,00,
8251330,000003A2,false,Rx,0,8,21,60,10,70,03,FF,00,DD,
8251575,000003A4,false,Rx,0,8,00,00,07,00,02,00,00,00,
8251841,000003B7,false,Rx,0,8,00,00,00,00,00,0A,DB,40,
8252097,00000491,false,Rx,0,8,00,00,00,00,00,00,00,00,
8334664,0000019C,false,Rx,0,8,06,A0,26,00,00,00,00,7F,
8334917,000001F1,false,Rx,0,8,0E,00,00,00,00,00,20,00,
8335170,00000297,false,Rx,0,8,00,03,00,00,00,00,20,00,
8335415,000002A6,false,Rx,0,8,00,00,00,00,00,00,00,00,
8335660,0000033F,false,Rx,0,8,00,00,00,00,28,00,00,48,
8350025,0000039F,false,Rx,0,8,4A,71,00,00,04,89,0D,BB,
8350273,00000323,false,Rx,0,8,00,00,00,00,00,00,C1,51,
8350520,00000324,false,Rx,0,8,70,44,DD,55,4F,00,00,7B,
8350765,0000033B,false,Rx,0,8,00,00,00,5B,00,00,00,00,
8351022,0000033D,false,Rx,0,8,00,00,10,20,00,18,00,00,
8351268,000003A2,false,Rx,0,8,21,60,10,74,03,FF,00,D9,
8351515,000003A4,false,Rx,0,8,00,00,07,00,02,00,00,00,
8351760,000003B7,false,Rx,0,8,00,00,00,00,00,0B,97,40,
8352015,00000491,false,Rx,0,8,00,00,00,00,00,00,00,00,
8434719,0000019C,false,Rx,0,8,06,A0,26,00,00,00,00,7F,
8434975,000001F1,false,Rx,0,8,0E,00,00,00,00,00,20,00,
8435220,00000297,false,Rx,0,8,00,03,00,00,00,00,20,00,
8435467,000002A6,false,Rx,0,8,00,00,00,00,00,00,00,00,
8435712,0000033F,false,Rx,0,8,00,00,00,00,28,00,00,48,
8450731,0000039F,false,Rx,0,8,4A,71,00,00,04,89,0E,B8,
8450990,00000323,false,Rx,0,8,00,00,00,00,00,00,C1,51,
8451034,00000324,false,Rx,0,8,70,44,C4,55,4F,00,00,7B,
8451467,0000033B,false,Rx,0,8,00,00,00,5B,00,00,00,00,
8451712,0000033D,false,Rx,0,8,00,00,10,20,00,18,00,00,
8451960,000003A2,false,Rx,0,8,21,60,10,78,03,FF,00,D5,
8452259,000003A4,false,Rx,0,8,00,00,07,00,02,00,00,00,
8452269,000003B7,false,Rx,0,8,00,00,00,00,00,0C,6E,40,
8452546,00000491,false,Rx,0,8,00,00,00,00,00,00,00,00,
8534608,0000019C,false,Rx,0,8,06,A0,26,00,00,00,00,7F,
8534857,000001F1,false,Rx,0,8,0E,00,00,00,00,00,20,00,
8535111,00000297,false,Rx,0,8,00,03,00,00,00,00,20,00,
8535356,000002A6,false,Rx,0,8,00,00,00,00,00,00,00,00,
8535603,0000033F,false,Rx,0,8,00,00,00,00,28,00,00,48,
8550928,0000039F,false,Rx,0,8,4A,71,00,00,04,89,0F,B9,
8551185,00000323,false,Rx,0,8,00,00,00,00,00,00,C1,51,
8551430,00000324,false,Rx,0,8,70,44,E2,55,4F,00,00,7B,
8551677,0000033B,false,Rx,0,8,00,00,00,5B,00,00,00,00,
8551924,0000033D,false,Rx,0,8,00,00,10,20,00,18,00,00,
8552177,000003A2,false,Rx,0,8,21,60,10,7C,03,FF,00,D1,
8552422,000003A4,false,Rx,0,8,00,00,07,00,02,00,00,00,
8552667,000003B7,false,Rx,0,8,00,00,00,00,00,0D,22,40,
8552920,00000491,false,Rx,0,8,00,00,00,00,00,00,00,00,
8634572,0000019C,false,Rx,0,8,06,A0,26,00,00,00,00,7F,
8634820,000001F1,false,Rx,0,8,0E,00,00,00,00,00,20,00,
8635073,00000297,false,Rx,0,8,00,03,00,00,00,00,20,00,
8635319,000002A6,false,Rx,0,8,01,00,00,00,00,00,00,00,
8635566,0000033F,false,Rx,0,8,00,00,00,00,28,00,00,48,
8651268,0000039F,false,Rx,0,8,4A,71,00,00,04,89,00,B6,
8651518,00000323,false,Rx,0,8,00,00,00,00,00,00,C1,51,
8651762,00000324,false,Rx,0,8,70,44,EC,55,4F,00,00,7B,
8652017,0000033B,false,Rx,0,8,00,00,00,5B,00,00,00,00,
8652263,0000033D,false,Rx,0,8,00,00,10,20,00,18,00,00,
8652530,000003A2,false,Rx,0,8,21,60,10,40,03,FF,00,ED,
8652813,000003A4,false,Rx,0,8,00,00,07,00,02,00,00,00,
8653100,000003B7,false,Rx,0,8,00,00,00,00,00,0E,F6,40,
8653405,00000491,false,Rx,0,8,00,00,00,00,00,00,00,00,
8734628,0000019C,false,Rx,0,8,06,A0,26,00,00,00,00,7F,
8734880,000001F1,false,Rx,0,8,0E,00,00,00,00,00,20,00,
8735133,00000297,false,Rx,0,8,00,03,00,00,00,00,20,00,
8735378,000002A6,false,Rx,0,8,00,00,00,00,00,00,00,00,
8735625,0000033F,false,Rx,0,8,00,00,00,00,28,00,00,48,
8751778,0000039F,false,Rx,0,8,4A,71,00,00,04,89,01,B7,
8752036,00000323,false,Rx,0,8,00,00,00,00,00,00,C1,51,
8752282,00000324,false,Rx,0,8,70,44,E7,55,4F,00,00,7B,
8752528,0000033B,false,Rx,0,8,00,00,00,5B,00,00,00,00,
8752773,0000033D,false,Rx,0,8,00,00,10,20,00,18,00,00,
8753029,000003A2,false,Rx,0,8,21,60,10,44,03,FF,00,E9,
8753275,000003A4,false,Rx,0,8,00,00,07,00,02,00,00,00,
8753521,000003B7,false,Rx,0,8,00,00,00,00,00,00,19,40,
8753766,00000491,false,Rx,0,8,00,00,00,00,00,00,00,00,
8834589,0000019C,false,Rx,0,8,06,A0,26,00,00,00,00,7F,
8834840,000001F1,false,Rx,0,8,0E,00,00,00,00,00,20,00,
8835093,00000297,false,Rx,0,8,00,03,00,00,00,00,20,00,
8835339,000002A6,false,Rx,0,8,01,00,00,00,00,00,00,00,
8835586,0000033F,false,Rx,0,8,00,00,00,00,28,00,00,48,
8851526,0000039F,false,Rx,0,8,4A,71,00,00,04,89,02,B4,
8851806,00000323,false,Rx,0,8,00,00,00,00,00,00,00,00,
8852090,00000324,false,Rx,0,8,70,44,CE,55,4F,00,00,7B,
8852364,0000033B,false,Rx,0,8,00,00,00,5B,00,00,00,00,
8852624,0000033D,false,Rx,0,8,00,00,10,20,00,18,00,00,
8852872,000003A2,false,Rx,0,8,21,60,10,48,03,FF,00,E5,
8853123,000003A4,false,Rx,0,8,00,00,07,00,02,00,00,00,
8853378,000003B7,false,Rx,0,8,00,00,00,00,00,01,55,40,
8853427,00000491,false,Rx,0,8,00,00,00,00,00,00,00,00,
8934617,0000019C,false,Rx,0,8,06,A0,26,00,00,00,00,7F,
8934868,000001F1,false,Rx,0,8,0E,00,00,00,00,00,20,00,
8935148,00000297,false,Rx,0,8,00,03,00,00,00,00,20,00,
8935393,000002A6,false,Rx,0,8,01,00,00,00,00,00,00,00,
8935640,0000033F,false,Rx,0,8,00,00,00,00,28,00,00,48,
8951941,0000039F,false,Rx,0,8,4A,71,00,00,04,89,03,B5,
8952196,00000323,false,Rx,0,8,00,00,00,00,00,00,00,00,
8952472,00000324,false,Rx,0,8,70,44,D3,55,4F,00,00,7B,
8952721,0000033B,false,Rx,0,8,00,00,00,5B,00,00,00,00,
8952772,0000033D,false,Rx,0,8,00,00,10,20,00,18,00,00,
8953028,000003A2,false,Rx,0,8,21,60,10,4C,03,FF,00,E1,
8953273,000003A4,false,Rx,0,8,00,00,07,00,02,00,00,00,
8953520,000003B7,false,Rx,0,8,00,00,00,00,00,02,81,40,
8953765,00000491,false,Rx,0,8,00,00,00,00,00,00,00,00,
9034549,0000019C,false,Rx,0,8,06,A0,26,00,00,00,00,7F,
9034797,000001F1,false,Rx,0,8,0E,00,00,00,00,00,20,00,
9035052,00000297,false,Rx,0,8,00,03,00,00,00,00,20,00,
9035297,000002A6,false,Rx,0,8,00,00,00,00,00,00,00,00,
9035544,0000033F,false,Rx,0,8,00,00,00,00,28,00,00,48,
9052261,0000039F,false,Rx,0,8,4A,71,00,00,04,89,04,B2,
9052592,00000323,false,Rx,0,8,00,00,00,00,00,00,00,00,
9052603,00000324,false,Rx,0,8,70,44,D9,55,4F,00,00,7B,
9052878,0000033B,false,Rx,0,8,00,00,00,5B,00,00,00,00,
9053185,0000033D,false,Rx,0,8,00,00,10,20,00,18,00,00,
9053432,000003A2,false,Rx,0,8,21,60,10,50,03,FF,00,FD,
9053678,000003A4,false,Rx,0,8,00,00,07,00,02,00,00,00,
9053928,000003B7,false,Rx,0,8,00,00,00,00,00,03,CD,40,
9054179,00000491,false,Rx,0,8,00,00,00,00,00,00,00,00,
9134545,0000019C,false,Rx,0,8,06,A0,26,00,00,00,00,7F,
9134794,000001F1,false,Rx,0,8,0E,00,00,00,00,00,20,00,
9135049,00000297,false,Rx,0,8,00,03,00,00,00,00,20,00,
9135295,000002A6,false,Rx,0,8,01,00,00,00,00,00,00,00,
9135541,0000033F,false,Rx,0,8,00,00,00,00,28,00,00,48,
9152439,0000039F,false,Rx,0,8,4A,71,00,00,04,89,05,B3,
9152687,00000323,false,Rx,0,8,00,00,00,00,00,00,00,00,
9152935,00000324,false,Rx,0,8,70,44,F2,55,4F,00,00,7B,
9153187,0000033B,false,Rx,0,8,00,00,00,5B,00,00,00,00,
9153434,0000033D,false,Rx,0,8,00,00,10,20,00,18,00,00,
9153679,000003A2,false,Rx,0,8,21,61,10,54,03,FF,00,F8,
9153928,000003A4,false,Rx,0,8,00,00,07,00,02,00,00,00,
9154180,000003B7,false,Rx,0,8,00,00,00,00,00,04,34,40,
9154427,00000491,false,Rx,0,8,00,00,00,00,00,00,00,00,
9234664,0000019C,false,Rx,0,8,06,A0,26,00,00,00,00,7F,
9234917,000001F1,false,Rx,0,8,0E,00,00,00,00,00,20,00,
9235169,00000297,false,Rx,0,8,00,03,00,00,00,00,20,00,
9235416,000002A6,false,Rx,0,8,00,00,00,00,00,00,00,00,
9235662,0000033F,false,Rx,0,8,00,00,00,00,28,00,00,48,
9252914,0000039F,false,Rx,0,8,4A,71,00,00,04,89,06,B0,
9253169,00000323,false,Rx,0,8,00,00,00,00,00,00,00,00,
9253415,00000324,false,Rx,0,8,70,44,F2,55,4F,00,00,7B,
9253661,0000033B,false,Rx,0,8,00,00,00,5B,00,00,00,00,
9253909,0000033D,false,Rx,0,8,00,00,10,20,00,18,00,00,
9254161,000003A2,false,Rx,0,8,21,61,10,58,03,FF,00,F4,
9254408,000003A4,false,Rx,0,8,00,00,07,00,02,00,00,00,
9254654,000003B7,false,Rx,0,8,00,00,00,00,00,05,78,40,
9254902,00000491,false,Rx,0,8,00,00,00,00,00,00,00,00,
9334527,0000019C,false,Rx,0,8,06,A0,26,00,00,00,00,7F,
9334773,000001F1,false,Rx,0,8,0E,00,00,00,00,00,20,00,
9335029,00000297,false,Rx,0,8,00,03,00,00,00,00,20,00,
9335274,000002A6,false,Rx,0,8,01,00,00,00,00,00,00,00,
9335521,0000033F,false,Rx,0,8,00,00,00,00,28,00,00,48,
9353376,0000039F,false,Rx,0,8,4A,71,00,00,04,89,07,B1,
9353624,00000323,false,Rx,0,8,00,00,00,00,00,00,D8,97,
9353879,00000324,false,Rx,0,8,70,44,E7,55,4F,00,00,7B,
9354163,0000033B,false,Rx,0,8,00,00,00,5B,00,00,00,00,
9354437,0000033D,false,Rx,0,8,00,00,10,20,00,18,00,00,
9354710,000003A2,false,Rx,0,8,21,60,10,5C,03,FF,00,F1,
9354985,000003A4,false,Rx,0,8,00,00,07,00,02,00,00,00,
9355230,000003B7,false,Rx,0,8,00,00,00,00,00,06,AC,40,
9355477,00000491,false,Rx,0,8,00,00,00,00,00,00,00,00,
9434573,0000019C,false,Rx,0,8,06,A0,26,00,00,00,00,7F,
9434822,000001F1,false,Rx,0,8,0E,00,00,00,00,00,20,00,
9435103,00000297,false,Rx,0,8,00,03,00,00,00,00,20,00,
9435376,000002A6,false,Rx,0,8,01,00,00,00,00,00,00,00,
9435674,0000033F,false,Rx,0,8,00,00,00,00,28,00,00,48,
9453378,0000039F,false,Rx,0,8,4A,71,00,00,04,89,08,BE,
9453626,00000323,false,Rx,0,8,00,00,00,00,00,00,D8,97,
9453877,00000324,false,Rx,0,8,70,44,E7,55,4F,00,00,7B,
9454130,0000033B,false,Rx,0,8,00,00,00,5B,00,00,00,00,
9454375,0000033D,false,Rx,0,8,00,00,10,20,00,18,00,00,
9454622,000003A2,false,Rx,0,8,21,60,10,60,03,FF,00,CD,
9454871,000003A4,false,Rx,0,8,00,00,07,00,02,00,00,00,
9455125,000003B7,false,Rx,0,8,00,00,00,00,00,07,E0,40,
9455370,00000491,false,Rx,0,8,00,00,00,00,00,00,00,00,
9534634,0000019C,false,Rx,0,8,06,A0,26,00,00,00,00,7F,
9534886,000001F1,false,Rx,0,8,0E,00,00,00,00,00,20,00,
9535149,00000297,false,Rx,0,8,00,03,00,00,00,00,20,00,
9535419,000002A6,false,Rx,0,8,01,00,00,00,00,00,00,00,
9535678,0000033F,false,Rx,0,8,00,00,00,00,28,00,00,48,
9554090,0000039F,false,Rx,0,8,4A,71,00,00,04,89,09,BF,
9554372,00000323,false,Rx,0,8,00,00,00,00,00,00,D8,97,
9554381,00000324,false,Rx,0,8,70,44,DD,55,4F,00,00,7B,
9554622,0000033B,false,Rx,0,8,00,00,00,5B,00,00,00,00,
9554870,0000033D,false,Rx,0,8,00,00,10,20,00,18,00,00,
9555121,000003A2,false,Rx,0,8,21,60,10,64,03,FF,00,C9,
9555381,000003A4,false,Rx,0,8,00,00,07,00,02,00,00,00,
9555627,000003B7,false,Rx,0,8,00,00,00,00,00,08,43,40,
9555881,00000491,false,Rx,0,8,00,00,00,00,00,00,00,00,
9634664,0000019C,false,Rx,0,8,06,A0,26,00,00,00,00,7F,
9634914,000001F1,false,Rx,0,8,0E,00,00,00,00,00,20,00,
9635166,00000297,false,Rx,0,8,00,03,00,00,00,00,20,00,
9635412,000002A6,false,Rx,0,8,00,00,00,00,00,00,00,00,
9635657,0000033F,false,Rx,0,8,00,00,00,00,28,00,00,48,
9654186,0000039F,false,Rx,0,8,4A,71,00,00,04,89,0A,BC,
9654434,00000323,false,Rx,0,8,00,00,00,00,00,00,D8,97,
9654681,00000324,false,Rx,0,8,70,44,E2,55,4F,00,00,7B,
9654928,0000033B,false,Rx,0,8,00,00,00,5B,00,00,00,00,
9655202,0000033D,false,Rx,0,8,00,00,10,20,00,18,00,00,
9655499,000003A2,false,Rx,0,8,21,60,10,68,03,FF,00,C5,
9655775,000003A4,false,Rx,0,8,00,00,07,00,02,00,00,00,
9656047,000003B7,false,Rx,0,8,00,00,00,00,00,09,0F,40,
9656294,00000491,false,Rx,0,8,00,00,00,00,00,00,00,00,
9734533,0000019C,false,Rx,0,8,06,A0,26,00,00,00,00,7F,
9734784,000001F1,false,Rx,0,8,0E,00,00,00,00,00,20,00,
9735040,00000297,false,Rx,0,8,00,03,00,00,00,00,20,00,
9735286,000002A6,false,Rx,0,8,01,00,00,00,00,00,00,00,
9735530,0000033F,false,Rx,0,8,00,00,00,00,28,00,00,48,
9754618,0000039F,false,Rx,0,8,4A,71,00,00,04,89,0B,BD,
9754910,00000323,false,Rx,0,8,00,00,00,00,00,00,D8,97,
9755167,00000324,false,Rx,0,8,70,44,E2,55,4F,00,00,7B,
9755426,0000033B,false,Rx,0,8,00,00,00,5B,00,00,00,00,
9755670,0000033D,false,Rx,0,8,00,00,10,20,00,18,00,00,
9755920,000003A2,false,Rx,0,8,21,60,10,6C,03,FF,00,C1,
9756173,000003A4,false,Rx,0,8,00,00,07,00,02,00,00,00,
9756420,000003B7,false,Rx,0,8,00,00,00,00,00,0A,DB,40,
9756680,00000491,false,Rx,0,8,00,00,00,00,00,00,00,00,
9834690,0000019C,false,Rx,0,8,06,A0,26,00,00,00,00,7F,
9834941,000001F1,false,Rx,0,8,0E,00,00,00,00,00,20,00,
9835195,00000297,false,Rx,0,8,00,03,00,00,00,00,20,00,
9835440,000002A6,false,Rx,0,8,00,00,00,00,00,00,00,00,
9835686,0000033F,false,Rx,0,8,00,00,00,00,28,00,00,48,
9855191,0000039F,false,Rx,0,8,4A,71,00,00,04,89,0C,BA,
9855236,00000323,false,Rx,0,8,00,00,00,00,00,00,D7,63,
9855479,00000324,false,Rx,0,8,70,44,F2,55,4F,00,00,7B,
9855726,0000033B,false,Rx,0,8,00,00,00,5B,00,00,00,00,
9855991,0000033D,false,Rx,0,8,00,00,10,20,00,18,00,00,
9856237,000003A2,false,Rx,0,8,21,61,10,70,03,FF,00,DC,
9856483,000003A4,false,Rx,0,8,00,00,07,00,02,00,00,00,
9856729,000003B7,false,Rx,0,8,00,00,00,00,00,0B,97,40,
9856984,00000491,false,Rx,0,8,00,00,00,00,00,00,00,00,
9934681,0000019C,false,Rx,0,8,06,A0,26,00,00,00,00,7F,
9934931,000001F1,false,Rx,0,8,0E,00,00,00,00,00,20,00,
9935183,00000297,false,Rx,0,8,00,03,00,00,00,00,20,00,
9935429,000002A6,false,Rx,0,8,00,00,00,00,00,00,00,00,
9935675,0000033F,false,Rx,0,8,00,00,00,00,28,00,00,48,
9954939,0000039F,false,Rx,0,8,4A,71,00,00,04,89,0D,BB,
9955193,00000323,false,Rx,0,8,00,00,00,00,00,00,D7,63,
9955439,00000324,false,Rx,0,8,70,44,E7,55,4F,00,00,7B,
9955684,0000033B,false,Rx,0,8,00,00,00,5C,00,00,00,00,
9955935,0000033D,false,Rx,0,8,00,00,10,20,00,18,00,00,
9956187,000003A2,false,Rx,0,8,21,60,10,74,03,FF,00,D9,
9956434,000003A4,false,Rx,0,8,00,00,07,00,02,00,00,00,
9956680,000003B7,false,Rx,0,8,00,00,00,00,00,0C,6E,40,
9956930,00000491,false,Rx,0,8,00,00,00,00,00,00,00,00,
10034581,0000019C,false,Rx,0,8,06,A0,26,00,00,00,00,7F,
10034829,000001F1,false,Rx,0,8,0E,00,00,00,00,00,20,00,
10035083,00000297,false,Rx,0,8,00,03,00,00,00,00,20,00,
10035328,000002A6,false,Rx,0,8,01,00,00,00,00,00,00,00,
10035575,0000033F,false,Rx,0,8,00,00,00,00,28,00,00,48,
10055185,0000039F,false,Rx,0,8,4A,71,00,00,04,89,0E,B8,
10055434,00000323,false,Rx,0,8,00,00,00,00,00,00,D7,63,
10055680,00000324,false,Rx,0,8,70,44,D9,55,4F,00,00,7B,
10055938,0000033B,false,Rx,0,8,00,00,00,5C,00,00,00,00,
10056190,0000033D,false,Rx,0,8,00,00,10,20,00,18,00,00,
10056436,000003A2,false,Rx,0,8,21,60,10,78,03,FF,00,D5,
10056682,000003A4,false,Rx,0,8,00,00,07,00,02,00,00,00,
10056930,000003B7,false,Rx,0,8,00,00,00,00,00,0D,22,40,
10057182,00000491,false,Rx,0,8,00,00,00,00,00,00,00,00,
10134522,0000019C,false,Rx,0,8,06,A0,26,00,00,00,00,7F,
10134771,000001F1,false,Rx,0,8,0E,00,00,00,00,00,20,00,
10135025,00000297,false,Rx,0,8,00,03,00,00,00,00,20,00,
10135272,000002A6,false,Rx,0,8,01,00,00,00,00,00,00,00,
10135517,0000033F,false,Rx,0,8,00,00,00,00,28,00,00,48,
10155722,0000039F,false,Rx,0,8,4A,71,00,00,04,89,0F,B9,
10155978,00000323,false,Rx,0,8,00,00,00,00,00,00,D7,63,
10156224,00000324,false,Rx,0,8,70,44,D9,55,4F,00,00,7B,
10156470,0000033B,false,Rx,0,8,00,00,00,5C,00,00,00,00,
10156716,0000033D,false,Rx,0,8,00,00,10,20,00,18,00,00,
10156972,000003A2,false,Rx,0,8,21,60,10,7C,03,FF,00,D1,
10157218,000003A4,false,Rx,0,8,00,00,07,00,02,00,00,00,
10157465,000003B7,false,Rx,0,8,00,00,00,00,00,0E,F6,40,
10157711,00000491,false,Rx,0,8,00,00,00,00,00,00,00,00,
10234582,0000019C,false,Rx,0,8,06,A0,26,00,00,00,00,7F,
10234833,000001F1,false,Rx,0,8,0E,00,00,00,00,00,20,00,
10235085,00000297,false,Rx,0,8,00,03,00,00,00,00,20,00,
10235332,000002A6,false,Rx,0,8,01,00,00,00,00,00,00,00,
10235578,0000033F,false,Rx,0,8,00,00,00,00,28,00,00,48,
10256080,0000039F,false,Rx,0,8,4A,71,00,00,04,89,00,B6,
10256329,00000323,false,Rx,0,8,00,00,00,00,00,00,D7,63,
10256575,00000324,false,Rx,0,8,70,44,E2,55,4F,00,00,7B,
10256822,0000033B,false,Rx,0,8,00,00,00,5C,00,00,00,00,
10257074,0000033D,false,Rx,0,8,00,00,10,20,00,18,00,00,
10257321,000003A2,false,Rx,0,8,21,60,10,40,03,FF,00,ED,
10257567,000003A4,false,Rx,0,8,00,00,07,00,02,00,00,00,
10257813,000003B7,false,Rx,0,8,00,00,00,00,00,00,19,40,
10258065,00000491,false,Rx,0,8,00,00,00,00,00,00,00,00,
10334546,0000019C,false,Rx,0,8,06,A0,26,00,00,00,00,7F,
10334794,000001F1,false,Rx,0,8,0E,00,00,00,00,00,20,00,
10335049,00000297,false,Rx,0,8,00,03,00,00,00,00,20,00,
10335295,000002A6,false,Rx,0,8,00,00,00,00,00,00,00,00,
10335541,0000033F,false,Rx,0,8,00,00,00,00,28,00,00,48,
10356397,0000039F,false,Rx,0,8,4A,71,00,00,04,89,01,B7,
10356646,00000323,false,Rx,0,8,00,00,00,00,00,00,C1,51,
10356896,00000324,false,Rx,0,8,70,44,EC,55,4F,00,00,7B,
10357149,0000033B,false,Rx,0,8,00,00,00,5C,00,00,00,00,
10357394,0000033D,false,Rx,0,8,00,00,10,20,00,18,00,00,
10357641,000003A2,false,Rx,0,8,21,60,10,44,03,FF,00,E9,
10357892,000003A4,false,Rx,0,8,00,00,07,00,02,00,00,00,
10358145,000003B7,false,Rx,0,8,00,00,00,00,00,01,55,40,
10358391,00000491,false,Rx,0,8,00,00,00,00,00,00,00,00,
10434648,0000019C,false,Rx,0,8,06,A0,26,00,00,00,00,7F,
10434899,000001F1,false,Rx,0,8,0E,00,00,00,00,00,20,00,
10435150,00000297,false,Rx,0,8,00,03,00,00,00,00,20,00,
10435407,000002A6,false,Rx,0,8,00,00,00,00,00,00,00,00,
10435683,0000033F,false,Rx,0,8,00,00,00,00,28,00,00,48,
10456402,0000039F,false,Rx,0,8,4A,71,00,00,04,89,02,B4,
10456651,00000323,false,Rx,0,8,00,00,00,00,00,00,C1,51,
10456899,00000324,false,Rx,0,8,70,44,DD,55,4F,00,00,7B,
10457151,0000033B,false,Rx,0,8,00,00,00,5C,00,00,00,00,
10457396,0000033D,false,Rx,0,8,00,00,10,20,00,18,00,00,
10457653,000003A2,false,Rx,0,8,21,60,10,48,03,FF,00,E5,
10457921,000003A4,false,Rx,0,8,00,00,07,00,02,00,00,00,
10458205,000003B7,false,Rx,0,8,00,00,00,00,00,02,81,40,
10458481,00000491,false,Rx,0,8,00,00,00,00,00,00,00,00,
10469540,0000019C,false,Tx,0,8,06,A0,26,9F,7F,FF,0B,7F,
10506194,00000297,false,Tx,0,8,01,03,E0,00,C3,0C,A6,8B,
10511968,00000297,false,Tx,0,8,00,03,00,00,00,00,20,00,
10529135,0000019C,false,Tx,0,8,06,A0,26,9F,7F,FF,01,7F,
10534561,0000019C,false,Rx,0,8,06,A0,26,00,00,00,00,7F,
10534810,000001F1,false,Rx,0,8,0E,00,00,00,00,00,20,00,
10535061,00000297,false,Rx,0,8,00,03,00,00,00,00,20,00,
10535306,000002A6,false,Rx,0,8,01,00,00,00,00,00,00,00,
10535552,0000033F,false,Rx,0,8,00,00,00,00,28,00,00,48,
10556943,0000039F,false,Rx,0,8,4A,71,00,00,04,89,03,B5,
10557196,00000323,false,Rx,0,8,00,00,00,00,00,00,C1,51,
10557443,00000324,false,Rx,0,8,70,44,CE,55,4F,00,00,7B,
10557689,0000033B,false,Rx,0,8,00,00,00,5C,00,00,00,00,
10557947,0000033D,false,Rx,0,8,00,00,10,20,00,18,00,00,
10558259,000003A2,false,Rx,0,8,21,60,10,4C,03,FF,00,E1,
10558527,000003A4,false,Rx,0,8,00,00,07,00,02,00,00,00,
10560185,000003B7,false,Rx,0,8,00,00,00,00,00,03,CD,40,
10560196,00000491,false,Rx,0,8,00,00,00,00,00,00,00,00,
10559937,0000019C,false,Tx,0,8,06,A0,26,9F,7F,FE,04,7F,
10629663,0000019C,false,Tx,0,8,06,A0,26,9F,7F,FE,0B,7F,
10634519,0000019C,false,Rx,0,8,06,A0,26,00,00,00,00,7F,
10634767,000001F1,false,Rx,0,8,0E,00,00,00,00,00,20,00,
10635025,00000297,false,Rx,0,8,00,03,00,00,00,00,20,00,
10635270,000002A6,false,Rx,0,8,00,00,00,00,00,00,00,00,
10635516,0000033F,false,Rx,0,8,00,00,00,00,28,00,00,48,
10655817,00000297,false,Tx,0,8,01,03,E0,00,C3,0C,A9,84,
10657362,0000039F,false,Rx,0,8,4A,71,00,00,04,89,04,B2,
10657608,00000323,false,Rx,0,8,00,00,00,00,00,00,C1,51,
10657652,00000324,false,Rx,0,8,70,44,CE,55,4F,00,00,7B,
10657897,0000033B,false,Rx,0,8,00,00,00,5C,00,00,00,00,
10658149,0000033D,false,Rx,0,8,00,00,10,20,00,18,00,00,
10658395,000003A2,false,Rx,0,8,21,60,10,50,03,FF,00,FD,
10658641,000003A4,false,Rx,0,8,00,00,07,00,02,00,00,00,
10658892,000003B7,false,Rx,0,8,00,00,00,00,00,04,34,40,
10659165,00000491,false,Rx,0,8,00,00,00,00,00,00,00,00,
10670568,0000019C,false,Tx,0,8,06,A0,26,9F,7F,FE,0F,7F,
10680814,0000019C,false,Tx,0,8,06,A0,26,9F,7F,FF,00,7F,
10720669,0000019C,false,Tx,0,8,06,A0,26,9F,7F,FF,04,7F,
10728702,0000019C,false,Tx,0,8,06,A0,26,9F,7F,FF,05,7F,
10734669,0000019C,false,Rx,0,8,06,A0,26,00,00,00,00,7F,
10734922,000001F1,false,Rx,0,8,0E,00,00,00,00,00,20,00,
10735169,00000297,false,Rx,0,8,00,03,00,00,00,00,20,00,
10735416,000002A6,false,Rx,0,8,01,00,00,00,00,00,00,00,
10735661,0000033F,false,Rx,0,8,00,00,00,00,28,00,00,48,
10753766,0000033F,false,Tx,0,8,00,00,00,00,28,00,00,46,
10757778,0000039F,false,Rx,0,8,4A,71,00,00,04,89,05,B3,
10758028,00000323,false,Rx,0,8,00,00,00,00,00,00,C1,51,
10758282,00000324,false,Rx,0,8,70,44,DD,55,4F,00,00,7B,
10758529,0000033B,false,Rx,0,8,00,00,00,5C,00,00,00,00,
10758774,0000033D,false,Rx,0,8,00,00,10,20,00,18,00,00,
10759028,000003A2,false,Rx,0,8,21,60,10,54,03,FF,00,F9,
10759274,000003A4,false,Rx,0,8,00,00,07,00,02,00,00,00,
10759521,000003B7,false,Rx,0,8,00,00,00,00,00,05,78,40,
10759766,00000491,false,Rx,0,8,00,00,00,00,00,00,00,00,
10769786,0000019C,false,Tx,0,8,06,A0,26,9F,7F,FF,09,7F,
10780119,0000019C,false,Tx,0,8,06,A0,26,9F,7F,FF,0A,7F,
10790410,0000019C,false,Tx,0,8,06,A0,26,9F,7F,FE,0B,7F,
10801850,0000019C,false,Tx,0,8,06,A0,26,9F,7F,FF,0C,7F,
10820176,0000019C,false,Tx,0,8,06,A0,26,A0,7F,FF,0E,7F,
10829333,0000019C,false,Tx,0,8,06,A0,26,9F,7F,FF,0F,7F,
10834673,0000019C,false,Rx,0,8,06,A0,26,00,00,00,00,7F,
10834923,000001F1,false,Rx,0,8,0E,00,00,00,00,00,20,00,
10835176,00000297,false,Rx,0,8,00,03,00,00,00,00,20,00,
10835421,000002A6,false,Rx,0,8,01,00,00,00,00,00,00,00,
10835668,0000033F,false,Rx,0,8,00,00,00,00,28,00,00,48,
10857950,0000039F,false,Rx,0,8,4A,71,00,00,04,89,06,B0,
10858203,00000323,false,Rx,0,8,00,00,00,00,00,00,00,00,
10858450,00000324,false,Rx,0,8,70,44,DD,55,4F,00,00,7B,
10858696,0000033B,false,Rx,0,8,00,00,00,5C,00,00,00,00,
10858944,0000033D,false,Rx,0,8,00,00,10,20,00,18,00,00,
10859196,000003A2,false,Rx,0,8,21,60,10,58,03,FF,00,F5,
10859443,000003A4,false,Rx,0,8,00,00,07,00,02,00,00,00,
10859688,000003B7,false,Rx,0,8,00,00,00,00,00,06,AC,40,
10859938,00000491,false,Rx,0,8,00,00,00,00,00,00,00,00,
10863529,00000297,false,Tx,0,8,00,03,00,00,00,00,20,00,
10906865,00000297,false,Tx,0,8,01,03,E0,00,C3,0C,AE,83,
10909187,0000019C,false,Tx,0,8,06,A0,26,9F,7F,FF,07,7F,
10920538,0000019C,false,Tx,0,8,06,A0,26,9F,7F,FF,08,7F,
10929641,0000019C,false,Tx,0,8,06,A0,26,9F,7F,FF,09,7F,
10934549,0000019C,false,Rx,0,8,06,A0,26,00,00,00,00,7F,
10934810,000001F1,false,Rx,0,8,0E,00,00,00,00,00,20,00,
10935062,00000297,false,Rx,0,8,00,03,00,00,00,00,20,00,
10935309,000002A6,false,Rx,0,8,01,00,00,00,00,00,00,00,
10935555,0000033F,false,Rx,0,8,00,00,00,00,28,00,00,48,
10957972,0000039F,false,Rx,0,8,4A,70,00,00,01,89,07,B5,
10958229,00000323,false,Rx,0,8,00,00,00,00,00,00,00,00,
10958476,00000324,false,Rx,0,8,70,44,E2,55,4F,00,00,7B,
10958733,0000033B,false,Rx,0,8,00,00,00,5C,00,00,00,00,
10959008,0000033D,false,Rx,0,8,00,00,10,20,00,18,00,00,
10959255,000003A2,false,Rx,0,8,21,60,10,5C,03,FF,00,F1,
10959500,000003A4,false,Rx,0,8,00,00,02,00,02,00,00,00,
10959747,000003B7,false,Rx,0,8,00,00,00,00,00,07,E0,40,
10960002,00000491,false,Rx,0,8,00,00,00,00,00,00,00,00,
10980787,0000019C,false,Tx,0,8,06,A0,26,9F,7F,FF,0E,7F,
11029962,0000019C,false,Tx,0,8,06,A0,26,9F,7F,FF,03,7F,
11034633,0000019C,false,Rx,0,8,06,A0,26,00,00,00,00,7F,
11034883,000001F1,false,Rx,0,8,0E,00,00,00,00,00,20,00,
11035131,00000297,false,Rx,0,8,00,03,00,00,00,00,20,00,
11035376,000002A6,false,Rx,0,8,01,00,00,00,00,00,00,00,
11035622,0000033F,false,Rx,0,8,00,00,00,00,28,00,00,48,
11050434,0000019C,false,Tx,0,8,06,A0,26,9F,7F,FE,05,7F,
11057285,00000297,false,Tx,0,8,01,03,E0,00,C3,0C,A1,8C,
11058873,0000039F,false,Rx,0,8,4A,6E,00,00,01,89,08,A4,
11059128,00000323,false,Rx,0,8,00,00,00,00,00,00,00,00,
11059171,00000324,false,Rx,0,8,70,44,E2,55,4F,00,00,7B,
11059605,0000033B,false,Rx,0,8,00,00,00,5C,00,00,00,00,
11059850,0000033D,false,Rx,0,8,00,00,10,20,00,18,00,00,
11060103,000003A2,false,Rx,0,8,21,60,10,60,03,FF,00,CD,
11060349,000003A4,false,Rx,0,8,00,00,01,00,02,00,00,00,
11060393,000003B7,false,Rx,0,8,00,00,00,00,00,08,43,40,
11060827,00000491,false,Rx,0,8,00,00,00,00,00,00,00,00,
11069836,0000019C,false,Tx,0,8,06,A0,26,9F,7F,FF,07,7F,
11089270,0000019C,false,Tx,0,8,06,A0,26,9F,7F,FF,09,7F,
11109883,0000019C,false,Tx,0,8,06,A0,26,9F,7F,FF,0B,7F,
11121276,0000019C,false,Tx,0,8,06,A0,26,9F,7F,FE,0C,7F,
11130461,0000019C,false,Tx,0,8,06,A0,26,9F,7F,FF,0D,7F,
11139520,0000019C,false,Tx,0,8,06,A0,26,9F,7F,FE,0E,7F,
11134583,0000019C,false,Rx,0,8,06,A0,26,00,00,00,00,7F,
11134833,000001F1,false,Rx,0,8,0E,00,00,00,00,00,20,00,
11135081,00000297,false,Rx,0,8,00,03,00,00,00,00,20,00,
11135342,000002A6,false,Rx,0,8,00,00,00,00,00,00,00,00,
11135604,0000033F,false,Rx,0,8,00,00,00,00,28,00,00,48,
11158554,0000039F,false,Rx,0,8,4A,6C,00,00,00,89,09,A6,
11158812,00000323,false,Rx,0,8,00,00,00,00,00,00,00,00,
11159107,00000324,false,Rx,0,8,70,44,E2,55,4F,00,00,7B,
11159354,0000033B,false,Rx,0,8,00,00,00,5C,00,00,00,00,
11159599,0000033D,false,Rx,0,8,00,00,10,20,00,18,00,00,
11159846,000003A2,false,Rx,0,8,21,60,10,64,03,FF,00,C9,
11160099,000003A4,false,Rx,0,8,00,00,00,00,02,00,00,00,
11160346,000003B7,false,Rx,0,8,00,00,00,00,00,09,0F,40,
11160591,00000491,false,Rx,0,8,00,00,00,00,00,00,00,00,
11164528,00000297,false,Tx,0,8,00,03,00,00,00,00,20,00,
11200772,0000019C,false,Tx,0,8,06,A0,26,9F,7F,FE,04,7F,
11213393,00000297,false,Tx,0,8,00,03,00,00,00,00,20,00,
11230444,0000019C,false,Tx,0,8,06,A0,26,9F,7F,FE,07,7F,
11234703,0000019C,false,Rx,0,8,06,A0,26,00,00,00,00,7F,
11234953,000001F1,false,Rx,0,8,0E,00,00,00,00,00,20,00,
11235201,00000297,false,Rx,0,8,00,03,00,00,00,00,20,00,
11235445,000002A6,false,Rx,0,8,01,00,00,00,00,00,00,00,
11235691,0000033F,false,Rx,0,8,00,00,00,00,28,00,00,48,
11257854,00000297,false,Tx,0,8,01,03,E0,00,C3,0C,A5,88,
11259352,0000039F,false,Rx,0,8,4A,6A,00,00,00,89,0A,A3,
11259625,00000323,false,Rx,0,8,00,00,00,00,00,00,00,00,
11259902,00000324,false,Rx,0,8,70,44,E7,55,4F,00,00,7B,
11261604,0000033B,false,Rx,0,8,00,00,00,5C,00,00,00,00,
11261615,0000033D,false,Rx,0,8,00,00,10,20,00,18,00,00,
11261621,000003A2,false,Rx,0,8,21,60,10,68,03,FF,00,C5,
11261627,000003A4,false,Rx,0,8,00,00,00,00,02,00,00,00,
11261633,000003B7,false,Rx,0,8,00,00,00,00,00,0A,DB,40,
11262078,00000491,false,Rx,0,8,00,00,00,00,00,00,00,00,
11260176,0000019C,false,Tx,0,8,06,A0,26,9F,7F,FF,0A,7F,
11263603,00000297,false,Tx,0,8,00,03,00,00,00,00,20,00,
11313213,00000297,false,Tx,0,8,00,03,00,00,00,00,20,00,
11320133,0000019C,false,Tx,0,8,06,A0,26,9F,7F,FE,00,7F,
11334581,0000019C,false,Rx,0,8,06,A0,26,00,00,00,00,7F,
11329272,0000019C,false,Tx,0,8,06,A0,26,9F,7F,FF,01,7F,
11336361,000001F1,false,Rx,0,8,0E,00,00,00,00,00,20,00,
11336376,00000297,false,Rx,0,8,00,03,00,00,00,00,20,00,
11336382,000002A6,false,Rx,0,8,01,00,00,00,00,00,00,00,
11336388,0000033F,false,Rx,0,8,00,00,00,00,28,00,00,48,
11360059,0000019C,false,Tx,0,8,06,A0,26,9F,7F,FF,04,7F,
11359220,0000039F,false,Rx,0,8,4A,69,00,00,00,89,0B,A1,
11359471,00000323,false,Rx,0,8,00,00,00,00,00,00,D8,97,
11359722,00000324,false,Rx,0,8,70,44,E2,55,4F,00,00,7B,
11360003,0000033B,false,Rx,0,8,00,00,00,5C,00,00,00,00,
11360273,0000033D,false,Rx,0,8,00,00,10,20,00,18,00,00,
11361264,000003A2,false,Rx,0,8,21,60,10,6C,03,FF,00,C1,
11361275,000003A4,false,Rx,0,8,00,00,00,00,02,00,00,00,
11361281,000003B7,false,Rx,0,8,00,00,00,00,00,0B,97,40,
11361287,00000491,false,Rx,0,8,00,00,00,00,00,00,00,00,
11363524,00000297,false,Tx,0,8,00,03,00,00,00,00,20,00,
11381806,0000019C,false,Tx,0,8,06,A0,26,9F,7F,FE,06,7F,
11391005,0000019C,false,Tx,0,8,06,A0,26,9F,7F,FF,07,7F,
11401298,0000019C,false,Tx,0,8,06,A0,26,9F,7F,FF,08,7F,
11412582,00000297,false,Tx,0,8,00,03,00,00,00,00,20,00,
11434602,0000019C,false,Rx,0,8,06,A0,26,00,00,00,00,7F,
11434853,000001F1,false,Rx,0,8,0E,00,00,00,00,00,20,00,
11435100,00000297,false,Rx,0,8,00,03,00,00,00,00,20,00,
11420579,0000019C,false,Tx,0,8,06,A0,26,9F,7F,FF,0A,7F,
11430732,0000019C,false,Tx,0,8,06,A0,26,A0,7F,FF,0B,7F,
11436916,000002A6,false,Rx,0,8,01,00,00,00,00,00,00,00,
11436931,0000033F,false,Rx,0,8,00,00,00,00,28,00,00,48,
11453441,0000033F,false,Tx,0,8,00,00,00,00,28,00,00,46,
11459727,0000039F,false,Rx,0,8,4A,69,00,00,02,89,0C,A4,
11459986,00000323,false,Rx,0,8,00,00,00,00,00,00,D8,97,
11460232,00000324,false,Rx,0,8,70,44,F2,55,4F,00,00,7B,
11460491,0000033B,false,Rx,0,8,00,00,00,5C,00,00,00,00,
11460776,0000033D,false,Rx,0,8,00,00,10,20,00,18,00,00,
11461102,000003A2,false,Rx,0,8,21,61,10,70,03,FF,00,DC,
11461113,000003A4,false,Rx,0,8,00,00,04,00,02,00,00,00,
11462330,000003B7,false,Rx,0,8,00,00,00,00,00,0C,6E,40,
11462340,00000491,false,Rx,0,8,00,00,00,00,00,00,00,00,
11512880,00000297,false,Tx,0,8,00,03,00,00,00,00,20,00,
11534535,0000019C,false,Rx,0,8,06,A0,26,00,00,00,00,7F,
11534785,000001F1,false,Rx,0,8,0E,00,00,00,00,00,20,00,
11535034,00000297,false,Rx,0,8,00,03,00,00,00,00,20,00,
11535280,000002A6,false,Rx,0,8,01,00,00,00,00,00,00,00,
11535526,0000033F,false,Rx,0,8,00,00,00,00,28,00,00,48,
11531084,0000019C,false,Tx,0,8,06,A0,26,9F,7F,FF,05,7F,
11554987,0000033F,false,Tx,0,8,00,00,00,00,28,00,00,46,
11558468,00000297,false,Tx,0,8,01,03,E0,00,C3,0C,AB,86,
11561899,0000019C,false,Tx,0,8,06,A0,26,9F,7F,FE,08,7F,
11560083,0000039F,false,Rx,0,8,4A,6A,00,00,03,89,0D,A7,
11560332,00000323,false,Rx,0,8,00,00,00,00,00,00,D8,97,
11560577,00000324,false,Rx,0,8,70,44,DD,55,4F,00,00,7B,
11560823,0000033B,false,Rx,0,8,00,00,00,5C,00,00,00,00,
11561077,0000033D,false,Rx,0,8,00,00,10,20,00,18,00,00,
11561321,000003A2,false,Rx,0,8,21,60,10,74,03,FF,00,D9,
11561567,000003A4,false,Rx,0,8,00,00,05,00,02,00,00,00,
11561612,000003B7,false,Rx,0,8,00,00,00,00,00,0D,22,40,
11562053,00000491,false,Rx,0,8,00,00,00,00,00,00,00,00,
11631578,0000019C,false,Tx,0,8,06,A0,26,9F,7F,FF,0F,7F,
11634517,0000019C,false,Rx,0,8,06,A0,26,00,00,00,00,7F,
11634766,000001F1,false,Rx,0,8,0E,00,00,00,00,00,20,00,
11635016,00000297,false,Rx,0,8,00,03,00,00,00,00,20,00,
11635261,000002A6,false,Rx,0,8,01,00,00,00,00,00,00,00,
11635508,0000033F,false,Rx,0,8,00,00,00,00,28,00,00,48,
11654406,0000033F,false,Tx,0,8,00,00,00,00,28,00,00,46,
11665815,00000297,false,Tx,0,8,00,03,00,00,00,00,20,00,
11660875,0000039F,false,Rx,0,8,4A,6A,00,00,01,89,0E,A6,
11660888,00000323,false,Rx,0,8,00,00,00,00,00,00,D8,97,
11660894,00000324,false,Rx,0,8,70,44,DD,55,4F,00,00,7B,
11661360,0000033B,false,Rx,0,8,00,00,00,5C,00,00,00,00,
11661607,0000033D,false,Rx,0,8,00,00,10,20,00,18,00,00,
11661853,000003A2,false,Rx,0,8,21,60,10,78,03,FF,00,D5,
11662107,000003A4,false,Rx,0,8,00,00,03,00,02,00,00,00,
11662353,000003B7,false,Rx,0,8,00,00,00,00,00,0E,F6,40,
11662617,00000491,false,Rx,0,8,00,00,00,00,00,00,00,00,
11702094,0000019C,false,Tx,0,8,06,A0,26,9F,7F,FE,06,7F,
11721499,0000019C,false,Tx,0,8,06,A0,26,9F,7F,FF,08,7F,
11734594,0000019C,false,Rx,0,8,06,A0,26,00,00,00,00,7F,
11734847,000001F1,false,Rx,0,8,0E,00,00,00,00,00,20,00,
11735094,00000297,false,Rx,0,8,00,03,00,00,00,00,20,00,
11735341,000002A6,false,Rx,0,8,01,00,00,00,00,00,00,00,
11735585,0000033F,false,Rx,0,8,00,00,00,00,28,00,00,48,
11731797,0000019C,false,Tx,0,8,06,A0,26,9F,7F,FF,09,7F,
11754693,0000033F,false,Tx,0,8,00,00,00,00,28,00,00,46,
11761615,0000019C,false,Tx,0,8,06,A0,26,9F,7F,FF,0C,7F,
11760895,0000039F,false,Rx,0,8,4A,69,00,00,00,89,0F,A5,
11761150,00000323,false,Rx,0,8,00,00,00,00,00,00,D8,97,
11761396,00000324,false,Rx,0,8,70,44,DD,55,4F,00,00,7B,
11761642,0000033B,false,Rx,0,8,00,00,00,5C,00,00,00,00,
11761890,0000033D,false,Rx,0,8,00,00,10,20,00,18,00,00,
11762143,000003A2,false,Rx,0,8,21,60,10,7C,03,FF,00,D1,
11762390,000003A4,false,Rx,0,8,00,00,01,00,02,00,00,00,
11762635,000003B7,false,Rx,0,8,00,00,00,00,00,00,19,40,
11762882,00000491,false,Rx,0,8,00,00,00,00,00,00,00,00,
11765072,00000297,false,Tx,0,8,00,03,00,00,00,00,20,00,
11781976,0000019C,false,Tx,0,8,06,A0,26,9F,7F,FE,0E,7F,
11808195,00000297,false,Tx,0,8,01,03,E0,00,C3,11,A0,90,
11813939,00000297,false,Tx,0,8,00,03,00,00,00,00,20,00,
11834692,0000019C,false,Rx,0,8,06,A0,26,00,00,00,00,7F,
11834944,000001F1,false,Rx,0,8,0E,00,00,00,00,00,20,00,
11835191,00000297,false,Rx,0,8,00,03,00,00,00,00,20,00,
11835490,000002A6,false,Rx,0,8,00,00,00,00,00,00,00,00,
11835502,0000033F,false,Rx,0,8,00,00,00,00,28,00,00,48,
11831089,0000019C,false,Tx,0,8,06,A0,26,9F,7F,FE,03,7F,
11841346,0000019C,false,Tx,0,8,06,A0,26,9F,7F,FE,04,7F,
11861809,0000019C,false,Tx,0,8,06,A0,26,9F,7F,FF,06,7F,
11865251,00000297,false,Tx,0,8,00,03,00,00,00,00,20,00,
11870971,0000019C,false,Tx,0,8,06,A0,26,9F,7F,FE,07,7F,
11860979,0000039F,false,Rx,0,8,4A,68,00,00,00,89,00,AB,
11861228,00000323,false,Rx,0,8,00,00,00,00,00,00,D7,63,
11861474,00000324,false,Rx,0,8,70,44,DD,55,4F,00,00,7B,
11861719,0000033B,false,Rx,0,8,00,00,00,5C,00,00,00,00,
11861974,0000033D,false,Rx,0,8,00,00,10,20,00,18,00,00,
11862220,000003A2,false,Rx,0,8,21,60,10,40,03,FF,00,ED,
11862467,000003A4,false,Rx,0,8,00,00,00,00,02,00,00,00,
11862712,000003B7,false,Rx,0,8,00,00,00,00,00,01,55,40,
11862960,00000491,false,Rx,0,8,00,00,00,00,00,00,00,00,
11882370,0000019C,false,Tx,0,8,06,A0,26,9F,7F,FE,08,7F,
11901740,0000019C,false,Tx,0,8,06,A0,26,A0,7F,FF,0A,7F,
11920993,0000019C,false,Tx,0,8,06,A0,26,9F,7F,FF,0C,7F,
11934529,0000019C,false,Rx,0,8,06,A0,26,00,00,00,00,7F,
11934780,000001F1,false,Rx,0,8,0E,00,00,00,00,00,20,00,
11935031,00000297,false,Rx,0,8,00,03,00,00,00,00,20,00,
11935277,000002A6,false,Rx,0,8,01,00,00,00,00,00,00,00,
11935523,0000033F,false,Rx,0,8,00,00,00,00,28,00,00,48,
11930074,0000019C,false,Tx,0,8,06,A0,26,9F,7F,FF,0D,7F,
11942518,0000019C,false,Tx,0,8,06,A0,26,9F,7F,FF,0E,7F,
11959606,00000297,false,Tx,0,8,01,03,E0,00,C3,11,A3,93,
11961940,0000019C,false,Tx,0,8,06,A0,26,9F,7F,FE,00,7F,
11965394,00000297,false,Tx,0,8,00,03,00,00,00,00,20,00,
11960999,0000039F,false,Rx,0,8,4A,68,00,00,00,89,01,AA,
11961249,00000323,false,Rx,0,8,00,00,00,00,00,00,D7,63,
11961495,00000324,false,Rx,0,8,70,44,DD,55,4F,00,00,7B,
11961742,0000033B,false,Rx,0,8,00,00,00,5C,00,00,00,00,
11961999,0000033D,false,Rx,0,8,00,00,10,20,00,18,00,00,
11962246,000003A2,false,Rx,0,8,21,60,10,44,03,FF,00,E9,
11962506,000003A4,false,Rx,0,8,00,00,00,00,02,00,00,00,
11962786,000003B7,false,Rx,0,8,00,00,00,00,00,02,81,40,
11963067,00000491,false,Rx,0,8,00,00,00,00,00,00,00,00,
11981419,0000019C,false,Tx,0,8,06,A0,26,9F,7F,FE,02,7F,
12011164,0000019C,false,Tx,0,8,06,A0,26,9F,7F,FE,05,7F,
12034669,0000019C,false,Rx,0,8,06,A0,26,00,00,00,00,7F,
12034934,000001F1,false,Rx,0,8,0E,00,00,00,00,00,20,00,
12035182,00000297,false,Rx,0,8,00,03,00,00,00,00,20,00,
12035428,000002A6,false,Rx,0,8,01,00,00,00,00,00,00,00,
12035675,0000033F,false,Rx,0,8,00,00,00,00,28,00,00,48,
12031723,0000019C,false,Tx,0,8,06,A0,26,9F,7F,FF,07,7F,
12059106,00000297,false,Tx,0,8,01,03,E0,00,C3,11,A5,95,
12072857,0000019C,false,Tx,0,8,06,A0,26,9F,7F,FF,0B,7F,
12061310,0000039F,false,Rx,0,8,4A,68,00,00,00,89,02,A9,
12061557,00000323,false,Rx,0,8,00,00,00,00,00,00,D7,63,
12061804,00000324,false,Rx,0,8,70,44,D9,55,4F,00,00,7B,
12062059,0000033B,false,Rx,0,8,00,00,00,5C,00,00,00,00,
12062305,0000033D,false,Rx,0,8,00,00,10,20,00,18,00,00,
12062550,000003A2,false,Rx,0,8,21,60,10,48,03,FF,00,E5,
12062796,000003A4,false,Rx,0,8,00,00,00,00,02,00,00,00,
12063050,000003B7,false,Rx,0,8,00,00,00,00,00,03,CD,40,
12063296,00000491,false,Rx,0,8,00,00,00,00,00,00,00,00,
12083128,0000019C,false,Tx,0,8,06,A0,26,9F,7F,FE,0C,7F,
12111611,0000019C,false,Tx,0,8,06,A0,26,9F,7F,FF,0F,7F,
12113943,00000297,false,Tx,0,8,00,03,00,00,00,00,20,00,
12134680,0000019C,false,Rx,0,8,06,A0,26,00,00,00,00,7F,
12134930,000001F1,false,Rx,0,8,0E,00,00,00,00,00,20,00,
12135179,00000297,false,Rx,0,8,00,03,00,00,00,00,20,00,
12135424,000002A6,false,Rx,0,8,01,00,00,00,00,00,00,00,
12135670,0000033F,false,Rx,0,8,00,00,00,00,28,00,00,48,
12131035,0000019C,false,Tx,0,8,06,A0,26,9F,7F,FE,01,7F,
12142396,0000019C,false,Tx,0,8,06,A0,26,9F,7F,FF,02,7F,
12154693,0000033F,false,Tx,0,8,00,00,00,00,28,00,00,48,
12166049,00000297,false,Tx,0,8,00,03,00,00,00,00,20,00,
12162208,0000039F,false,Rx,0,8,4A,68,00,00,00,89,03,A8,
12162459,00000323,false,Rx,0,8,00,00,00,00,00,00,D7,63,
12162704,00000324,false,Rx,0,8,70,44,E2,55,4F,00,00,7B,
12162953,0000033B,false,Rx,0,8,00,00,00,5C,00,00,00,00,
12163203,0000033D,false,Rx,0,8,00,00,10,20,00,18,00,00,
12163247,000003A2,false,Rx,0,8,21,60,10,4C,03,FF,00,E1,
12163681,000003A4,false,Rx,0,8,00,00,00,00,02,00,00,00,
12163930,000003B7,false,Rx,0,8,00,00,00,00,00,04,34,40,
12164182,00000491,false,Rx,0,8,00,00,00,00,00,00,00,00,
12182990,0000019C,false,Tx,0,8,06,A0,26,9F,7F,FF,06,7F,
12209121,00000297,false,Tx,0,8,01,03,E0,00,C3,11,A8,98,
12221638,0000019C,false,Tx,0,8,06,A0,26,9F,7F,FE,0A,7F,
12234691,0000019C,false,Rx,0,8,06,A0,26,00,00,00,00,7F,
12234944,000001F1,false,Rx,0,8,0E,00,00,00,00,00,20,00,
12235196,00000297,false,Rx,0,8,00,03,00,00,00,00,20,00,
12235440,000002A6,false,Rx,0,8,01,00,00,00,00,00,00,00,
12235686,0000033F,false,Rx,0,8,00,00,00,00,28,00,00,48,
12231940,0000019C,false,Tx,0,8,06,A0,26,9F,7F,FE,0B,7F,
