Time Stamp,ID,Extended,Dir,Bus,LEN,D1,D2,D3,D4,D5,D6,D7,D8
1156,0000019C,false,Tx,0,8,06,A0,26,9F,7F,FF,02,7F,
10293,0000019C,false,Tx,0,8,06,A0,26,9F,7F,FE,03,7F,
29790,0000019C,false,Tx,0,8,06,A0,26,9F,7F,FF,05,7F,
40155,0000019C,false,Tx,0,8,06,A0,26,9F,7F,FE,06,7F,
55097,0000033F,false,Tx,0,8,00,00,00,00,28,00,00,48,
58579,00000297,false,Tx,0,8,01,03,E0,00,C3,0B,AB,81,
62044,0000019C,false,Tx,0,8,06,A0,26,9F,7F,FE,08,7F,
7994418,0000039F,false,Rx,0,8,4D,63,00,00,00,96,0D,B5,
7994667,00000323,false,Rx,0,8,00,00,00,00,00,00,00,00,
7994710,00000324,false,Rx,0,8,70,46,09,54,54,00,00,7B,
7994951,0000033B,false,Rx,0,8,80,00,00,59,00,00,00,00,
7995198,0000033D,false,Rx,0,8,02,6E,60,20,00,18,00,40,
7995446,000003A2,false,Rx,0,8,21,66,00,74,03,FF,00,CF,
7995701,000003A4,false,Rx,0,8,00,00,00,00,00,00,00,00,
7995946,000003B7,false,Rx,0,8,00,00,00,00,00,0C,73,41,
7996191,00000491,false,Rx,0,8,00,00,00,00,00,00,00,00,
81552,0000019C,false,Tx,0,8,06,A0,26,9F,7F,FF,0A,7F,
101134,0000019C,false,Tx,0,8,06,A0,26,9F,7F,FE,0C,7F,
106981,00000297,false,Tx,0,8,01,03,E0,00,C3,0B,AC,86,
110484,0000019C,false,Tx,0,8,06,A0,26,9F,7F,FE,0D,7F,
130025,0000019C,false,Tx,0,8,06,A0,26,9F,7F,FF,0F,7F,
150736,0000019C,false,Tx,0,8,06,A0,26,9F,7F,FF,01,7F,
107561,0000039F,false,Rx,0,8,4D,63,00,00,00,96,0E,B6,
107809,00000323,false,Rx,0,8,00,00,00,00,00,00,00,00,
108056,00000324,false,Rx,0,8,70,46,09,54,54,00,00,7B,
108303,0000033B,false,Rx,0,8,80,00,00,59,00,00,00,00,
108591,0000033D,false,Rx,0,8,02,6E,60,20,00,18,00,40,
108600,000003A2,false,Rx,0,8,21,66,00,78,03,FF,00,C3,
108841,000003A4,false,Rx,0,8,00,00,00,00,00,00,00,00,
109087,000003B7,false,Rx,0,8,00,00,00,00,00,0D,3F,41,
109531,00000491,false,Rx,0,8,00,00,00,00,00,00,00,00,
154270,0000033F,false,Tx,0,8,00,00,00,00,28,00,00,48,
181655,0000019C,false,Tx,0,8,06,A0,26,A0,7F,FE,04,7F,
200924,0000019C,false,Tx,0,8,06,A0,26,9F,7F,FE,06,7F,
210005,0000019C,false,Tx,0,8,06,A0,26,9F,7F,FE,07,7F,
212293,00000297,false,Tx,0,8,00,03,00,00,00,00,20,00,
221348,0000019C,false,Tx,0,8,06,A0,26,9F,7F,FE,08,7F,
207952,0000039F,false,Rx,0,8,4D,63,00,00,00,96,0F,B7,
208202,00000323,false,Rx,0,8,00,00,00,00,00,00,00,00,
208454,00000324,false,Rx,0,8,70,46,09,54,54,00,00,7B,
208700,0000033B,false,Rx,0,8,80,00,00,59,00,00,00,00,
208945,0000033D,false,Rx,0,8,02,6E,60,20,00,18,00,40,
209192,000003A2,false,Rx,0,8,21,66,00,7C,03,FF,00,C7,
209452,000003A4,false,Rx,0,8,00,00,00,00,00,00,00,00,
209698,000003B7,false,Rx,0,8,00,00,00,00,00,0E,EB,41,
209943,00000491,false,Rx,0,8,00,00,00,00,00,00,00,00,
229361,0000019C,false,Tx,0,8,06,A0,26,9F,7F,FE,09,7F,
240914,0000019C,false,Tx,0,8,06,A0,26,9F,7F,FE,0A,7F,
251292,0000019C,false,Tx,0,8,06,A0,26,9F,7F,FF,0B,7F,
257090,00000297,false,Tx,0,8,01,03,E0,00,C3,0B,AF,85,
260587,0000019C,false,Tx,0,8,06,A0,26,A0,7F,FE,0C,7F,
270966,0000019C,false,Tx,0,8,06,A0,26,A0,7F,FF,0D,7F,
281335,0000019C,false,Tx,0,8,06,A0,26,A0,7F,FF,0E,7F,
300873,0000019C,false,Tx,0,8,06,A0,26,A0,7F,FF,00,7F,
310093,0000019C,false,Tx,0,8,06,A0,26,A0,7F,FF,01,7F,
321602,0000019C,false,Tx,0,8,06,A0,26,A0,7F,FE,02,7F,
329673,0000019C,false,Tx,0,8,06,A0,26,A0,7F,FF,03,7F,
308327,0000039F,false,Rx,0,8,4D,63,00,00,00,96,00,B8,
308583,00000323,false,Rx,0,8,00,00,00,00,00,00,00,00,
308828,00000324,false,Rx,0,8,70,46,05,54,54,00,00,7B,
309072,0000033B,false,Rx,0,8,80,00,00,59,00,00,00,00,
309323,0000033D,false,Rx,0,8,02,6E,60,20,00,18,00,40,
309575,000003A2,false,Rx,0,8,21,66,00,40,03,FF,00,FB,
309822,000003A4,false,Rx,0,8,00,00,00,00,00,00,00,00,
310067,000003B7,false,Rx,0,8,00,00,00,00,00,00,04,41,
310314,00000491,false,Rx,0,8,00,00,00,00,00,00,00,00,
341168,0000019C,false,Tx,0,8,06,A0,26,A0,7F,FF,04,7F,
351518,0000019C,false,Tx,0,8,06,A0,26,A0,7F,FF,05,7F,
360825,0000019C,false,Tx,0,8,06,A0,26,A0,7F,FE,06,7F,
364451,00000297,false,Tx,0,8,00,03,00,00,00,00,20,00,
380615,0000019C,false,Tx,0,8,06,A0,26,A0,7F,FE,08,7F,
400153,0000019C,false,Tx,0,8,06,A0,26,A0,7F,FF,0A,7F,
407231,00000297,false,Tx,0,8,01,03,E0,00,C3,0B,A2,88,
408561,0000039F,false,Rx,0,8,4D,63,00,00,00,96,01,B9,
408810,00000323,false,Rx,0,8,00,00,00,00,00,00,D8,97,
409057,00000324,false,Rx,0,8,70,46,05,54,54,00,00,7B,
409633,0000019C,false,Tx,0,8,06,A0,26,A0,7F,FE,0B,7F,
430177,0000019C,false,Tx,0,8,06,A0,26,9F,7F,FE,0D,7F,
410938,0000033B,false,Rx,0,8,80,00,00,59,00,00,00,00,
410953,0000033D,false,Rx,0,8,02,6E,60,20,00,18,00,40,
410959,000003A2,false,Rx,0,8,21,66,00,44,03,FF,00,FF,
410965,000003A4,false,Rx,0,8,00,00,00,00,00,00,00,00,
410971,000003B7,false,Rx,0,8,00,00,00,00,00,01,48,41,
410977,00000491,false,Rx,0,8,00,00,00,00,00,00,00,00,
455097,0000033F,false,Tx,0,8,00,00,00,00,28,00,00,48,
460843,0000019C,false,Tx,0,8,06,A0,26,9F,7F,FF,00,7F,
470062,0000019C,false,Tx,0,8,06,A0,26,9F,7F,FF,01,7F,
481580,0000019C,false,Tx,0,8,06,A0,26,9F,7F,FE,02,7F,
490804,0000019C,false,Tx,0,8,06,A0,26,9F,7F,FE,03,7F,
510326,0000019C,false,Tx,0,8,06,A0,26,9F,7F,FE,05,7F,
521801,0000019C,false,Tx,0,8,06,A0,26,9F,7F,FF,06,7F,
509028,0000039F,false,Rx,0,8,4D,63,00,00,00,96,02,BA,
509278,00000323,false,Rx,0,8,00,00,00,00,00,00,D8,97,
509532,00000324,false,Rx,0,8,70,46,09,54,54,00,00,7B,
511368,0000033B,false,Rx,0,8,80,00,00,59,00,00,00,00,
511379,0000033D,false,Rx,0,8,02,6E,60,20,00,18,00,40,
511385,000003A2,false,Rx,0,8,21,66,00,48,03,FF,00,F3,
511391,000003A4,false,Rx,0,8,00,00,00,00,00,00,00,00,
511397,000003B7,false,Rx,0,8,00,00,00,00,00,02,9C,41,
511403,00000491,false,Rx,0,8,00,00,00,00,00,00,00,00,
530859,0000019C,false,Tx,0,8,06,A0,26,9F,7F,FE,07,7F,
541215,0000019C,false,Tx,0,8,06,A0,26,9F,7F,FE,08,7F,
551586,0000019C,false,Tx,0,8,06,A0,26,9F,7F,FF,09,7F,
565407,00000297,false,Tx,0,8,00,03,00,00,00,00,20,00,
571263,0000019C,false,Tx,0,8,06,A0,26,9F,7F,FE,0B,7F,
581592,0000019C,false,Tx,0,8,06,A0,26,9F,7F,FE,0C,7F,
590904,0000019C,false,Tx,0,8,06,A0,26,A0,7F,FF,0D,7F,
602549,0000019C,false,Tx,0,8,06,A0,26,A0,7F,FE,0E,7F,
609183,0000039F,false,Rx,0,8,4D,63,00,00,00,96,03,BB,
609440,00000323,false,Rx,0,8,00,00,00,00,00,00,D8,97,
609686,00000324,false,Rx,0,8,70,46,09,54,54,00,00,7B,
609932,0000033B,false,Rx,0,8,80,00,00,59,00,00,00,00,
610179,0000033D,false,Rx,0,8,02,6E,60,20,00,18,00,40,
611782,0000019C,false,Tx,0,8,06,A0,26,A0,7F,FE,0F,7F,
622179,0000019C,false,Tx,0,8,06,A0,26,A0,7F,FE,00,7F,
611991,000003A2,false,Rx,0,8,21,66,00,4C,03,FF,00,F7,
612007,000003A4,false,Rx,0,8,00,00,00,00,00,00,00,00,
612013,000003B7,false,Rx,0,8,00,00,00,00,00,03,D0,41,
612019,00000491,false,Rx,0,8,00,00,00,00,00,00,00,00,
641732,0000019C,false,Tx,0,8,06,A0,26,A0,7F,FE,02,7F,
670633,0000019C,false,Tx,0,8,06,A0,26,9F,7F,FF,05,7F,
682017,0000019C,false,Tx,0,8,06,A0,26,9F,7F,FE,06,7F,
702420,0000019C,false,Tx,0,8,06,A0,26,9F,7F,FE,08,7F,
708113,00000297,false,Tx,0,8,01,03,E0,00,C3,0B,A8,82,
711531,0000019C,false,Tx,0,8,06,A0,26,9F,7F,FF,09,7F,
709624,0000039F,false,Rx,0,8,4D,63,00,00,00,96,04,BC,
709875,00000323,false,Rx,0,8,00,00,00,00,00,00,D8,97,
710120,00000324,false,Rx,0,8,70,46,09,54,54,00,00,7B,
710370,0000033B,false,Rx,0,8,80,00,00,59,00,00,00,00,
710622,0000033D,false,Rx,0,8,02,6E,60,20,00,18,00,40,
730902,0000019C,false,Tx,0,8,06,A0,26,9F,7F,FE,0B,7F,
712345,000003A2,false,Rx,0,8,21,66,00,50,03,FF,00,EB,
712360,000003A4,false,Rx,0,8,00,00,00,00,00,00,00,00,
712366,000003B7,false,Rx,0,8,00,00,00,00,00,04,29,41,
712372,00000491,false,Rx,0,8,00,00,00,00,00,00,00,00,
742436,0000019C,false,Tx,0,8,06,A0,26,9F,7F,FE,0C,7F,
761973,0000019C,false,Tx,0,8,06,A0,26,A0,7F,FE,0E,7F,
765469,00000297,false,Tx,0,8,00,03,00,00,00,00,20,00,
782683,0000019C,false,Tx,0,8,06,A0,26,A0,7F,FF,00,7F,
802240,0000019C,false,Tx,0,8,06,A0,26,A0,7F,FE,02,7F,
811457,0000019C,false,Tx,0,8,06,A0,26,A0,7F,FE,03,7F,
809945,0000039F,false,Rx,0,8,4D,63,00,00,00,96,05,BD,
810195,00000323,false,Rx,0,8,00,00,00,00,00,00,D8,97,
810452,00000324,false,Rx,0,8,70,46,09,54,54,00,00,7B,
810697,0000033B,false,Rx,0,8,80,00,00,59,00,00,00,00,
810978,0000033D,false,Rx,0,8,02,6E,60,20,00,18,00,40,
810987,000003A2,false,Rx,0,8,21,66,00,54,03,FF,00,EF,
830985,0000019C,false,Tx,0,8,06,A0,26,A0,7F,FE,05,7F,
813403,000003A4,false,Rx,0,8,00,00,00,00,00,00,00,00,
813425,000003B7,false,Rx,0,8,00,00,00,00,00,05,65,41,
813431,00000491,false,Rx,0,8,00,00,00,00,00,00,00,00,
841347,0000019C,false,Tx,0,8,06,A0,26,9F,7F,FE,06,7F,
862167,0000019C,false,Tx,0,8,06,A0,26,9F,7F,FF,08,7F,
872640,0000019C,false,Tx,0,8,06,A0,26,A0,7F,FE,09,7F,
882024,0000019C,false,Tx,0,8,06,A0,26,A0,7F,FF,0A,7F,
891267,0000019C,false,Tx,0,8,06,A0,26,A0,7F,FF,0B,7F,
902949,0000019C,false,Tx,0,8,06,A0,26,A0,7F,FF,0C,7F,
911119,0000019C,false,Tx,0,8,06,A0,26,A0,7F,FE,0D,7F,
910435,0000039F,false,Rx,0,8,4D,63,00,00,00,96,06,BE,
910684,00000323,false,Rx,0,8,00,00,00,00,00,00,00,00,
910728,00000324,false,Rx,0,8,70,46,09,54,54,00,00,7B,
911160,0000033B,false,Rx,0,8,80,00,00,59,00,00,00,00,
911406,0000033D,false,Rx,0,8,02,70,60,20,00,18,00,40,
911451,000003A2,false,Rx,0,8,21,66,00,58,03,FF,00,E3,
922519,0000019C,false,Tx,0,8,06,A0,26,9F,7F,FF,0E,7F,
942935,0000019C,false,Tx,0,8,06,A0,26,9F,7F,FE,00,7F,
972587,0000019C,false,Tx,0,8,06,A0,26,9F,7F,FE,03,7F,
981797,0000019C,false,Tx,0,8,06,A0,26,A0,7F,FF,04,7F,
992169,0000019C,false,Tx,0,8,06,A0,26,A0,7F,FE,05,7F,
913863,000003A4,false,Rx,0,8,00,00,00,00,00,00,00,00,
913878,000003B7,false,Rx,0,8,00,00,00,00,00,06,B1,41,
913884,00000491,false,Rx,0,8,00,00,00,00,00,00,00,00,
1002529,0000019C,false,Tx,0,8,06,A0,26,9F,7F,FE,06,7F,
1011734,0000019C,false,Tx,0,8,06,A0,26,9F,7F,FF,07,7F,
1010485,0000039F,false,Rx,0,8,4D,63,00,00,00,96,07,BF,
1010734,00000323,false,Rx,0,8,00,00,00,00,00,00,00,00,
1010981,00000324,false,Rx,0,8,70,46,0E,54,54,00,00,7B,
1011226,0000033B,false,Rx,0,8,80,00,00,59,00,00,00,00,
1011484,0000033D,false,Rx,0,8,02,70,60,20,00,18,00,40,
1011729,000003A2,false,Rx,0,8,21,66,00,5C,03,FF,00,E7,
1011976,000003A4,false,Rx,0,8,00,00,00,00,00,00,00,00,
1012222,000003B7,false,Rx,0,8,00,00,00,00,00,07,FD,41,
1014066,00000297,false,Tx,0,8,00,03,00,00,00,00,20,00,
1014420,00000491,false,Rx,0,8,00,00,00,00,00,00,00,00,
1042735,0000019C,false,Tx,0,8,06,A0,26,9F,7F,FF,0A,7F,
1053109,0000019C,false,Tx,0,8,06,A0,26,9F,7F,FE,0B,7F,
1083044,0000019C,false,Tx,0,8,06,A0,26,A0,7F,FF,0E,7F,
1102521,0000019C,false,Tx,0,8,06,A0,26,A0,7F,FF,00,7F,
1108380,00000297,false,Tx,0,8,01,03,E0,00,C3,0B,A0,8A,
1111903,0000019C,false,Tx,0,8,06,A0,26,A0,7F,FF,01,7F,
1110770,0000039F,false,Rx,0,8,4D,63,00,00,00,96,08,B0,
1111021,00000323,false,Rx,0,8,00,00,00,00,00,00,00,00,
1111265,00000324,false,Rx,0,8,70,46,09,54,54,00,00,7B,
1111519,0000033B,false,Rx,0,8,80,00,00,59,00,00,00,00,
1111765,0000033D,false,Rx,0,8,02,6E,60,20,00,18,00,40,
1112011,000003A2,false,Rx,0,8,21,66,00,60,03,FF,00,DB,
1112256,000003A4,false,Rx,0,8,00,00,00,00,00,00,00,00,
1112511,000003B7,false,Rx,0,8,00,00,00,00,00,08,5E,41,
1112757,00000491,false,Rx,0,8,00,00,00,00,00,00,00,00,
1131365,0000019C,false,Tx,0,8,06,A0,26,9F,7F,FF,03,7F,
1141802,0000019C,false,Tx,0,8,06,A0,26,9F,7F,FE,04,7F,
1160248,00000297,false,Tx,0,8,01,03,E0,00,C3,0B,A1,8B,
1162697,0000019C,false,Tx,0,8,06,A0,26,9F,7F,FF,06,7F,
1165087,00000297,false,Tx,0,8,00,03,00,00,00,00,20,00,
1171902,0000019C,false,Tx,0,8,06,A0,26,9F,7F,FE,07,7F,
1183329,0000019C,false,Tx,0,8,06,A0,26,9F,7F,FF,08,7F,
1192443,0000019C,false,Tx,0,8,06,A0,26,9F,7F,FE,09,7F,
1201551,0000019C,false,Tx,0,8,06,A0,26,9F,7F,FF,0A,7F,
1211800,0000019C,false,Tx,0,8,06,A0,26,9F,7F,FE,0B,7F,
1214063,00000297,false,Tx,0,8,00,03,00,00,00,00,20,00,
1211224,0000039F,false,Rx,0,8,4D,63,00,00,00,96,09,B1,
1211485,00000323,false,Rx,0,8,00,00,00,00,00,00,00,00,
1211732,00000324,false,Rx,0,8,70,46,0E,54,54,00,00,7B,
1211976,0000033B,false,Rx,0,8,80,00,00,59,00,00,00,00,
1212221,0000033D,false,Rx,0,8,02,6E,60,20,00,18,00,40,
1212266,000003A2,false,Rx,0,8,21,66,00,64,03,FF,00,DF,
1212516,000003A4,false,Rx,0,8,00,00,00,00,00,00,00,00,
1212762,000003B7,false,Rx,0,8,00,00,00,00,00,09,12,41,
1213198,00000491,false,Rx,0,8,00,00,00,00,00,00,00,00,
1232191,0000019C,false,Tx,0,8,06,A0,26,9F,7F,FF,0D,7F,
1243540,0000019C,false,Tx,0,8,06,A0,26,9F,7F,FF,0E,7F,
1259395,00000297,false,Tx,0,8,01,03,E0,00,C3,0B,A3,89,
1271865,0000019C,false,Tx,0,8,06,A0,26,9F,7F,FF,01,7F,
1283190,0000019C,false,Tx,0,8,06,A0,26,A0,7F,FF,02,7F,
1293410,0000019C,false,Tx,0,8,06,A0,26,9F,7F,FE,03,7F,
1303660,0000019C,false,Tx,0,8,06,A0,26,9F,7F,FE,04,7F,
1312905,0000019C,false,Tx,0,8,06,A0,26,A0,7F,FF,05,7F,
1311340,0000039F,false,Rx,0,8,4D,63,00,00,00,96,0A,B2,
1311596,00000323,false,Rx,0,8,00,00,00,00,00,00,00,00,
1311842,00000324,false,Rx,0,8,70,46,0E,54,54,00,00,7B,
1312088,0000033B,false,Rx,0,8,80,00,00,59,00,00,00,00,
1312336,0000033D,false,Rx,0,8,02,6E,60,20,00,18,00,40,
1312589,000003A2,false,Rx,0,8,21,66,00,68,03,FF,00,D3,
1312835,000003A4,false,Rx,0,8,00,00,00,00,00,00,00,00,
1313082,000003B7,false,Rx,0,8,00,00,00,00,00,0A,C6,41,
1313328,00000491,false,Rx,0,8,00,00,00,00,00,00,00,00,
1323266,0000019C,false,Tx,0,8,06,A0,26,A0,7F,FE,06,7F,
1342775,0000019C,false,Tx,0,8,06,A0,26,9F,7F,FF,08,7F,
1352004,0000019C,false,Tx,0,8,06,A0,26,9F,7F,FE,09,7F,
1382949,0000019C,false,Tx,0,8,06,A0,26,A0,7F,FE,0C,7F,
1392252,0000019C,false,Tx,0,8,06,A0,26,9F,7F,FF,0D,7F,
1402646,0000019C,false,Tx,0,8,06,A0,26,9F,7F,FF,0E,7F,
1408423,00000297,false,Tx,0,8,01,03,E0,00,C3,0B,A6,8C,
1412980,0000019C,false,Tx,0,8,06,A0,26,9F,7F,FF,0F,7F,
1411667,0000039F,false,Rx,0,8,4D,63,00,00,00,96,0B,B3,
1411917,00000323,false,Rx,0,8,00,00,00,00,00,00,D8,97,
1412163,00000324,false,Rx,0,8,70,46,0E,54,54,00,00,7B,
1412417,0000033B,false,Rx,0,8,80,00,00,59,00,00,00,00,
1412662,0000033D,false,Rx,0,8,02,6E,60,20,00,18,00,40,
1412909,000003A2,false,Rx,0,8,21,66,00,6C,03,FF,00,D7,
1413155,000003A4,false,Rx,0,8,00,00,00,00,00,00,00,00,
1413404,000003B7,false,Rx,0,8,00,00,00,00,00,0B,8A,41,
1413656,00000491,false,Rx,0,8,00,00,00,00,00,00,00,00,
1424360,0000019C,false,Tx,0,8,06,A0,26,9F,7F,FF,00,7F,
1432329,0000019C,false,Tx,0,8,06,A0,26,9F,7F,FF,01,7F,
1442547,0000019C,false,Tx,0,8,06,A0,26,9F,7F,FE,02,7F,
1452755,0000019C,false,Tx,0,8,06,A0,26,9F,7F,FF,03,7F,
1482382,0000019C,false,Tx,0,8,06,A0,26,9F,7F,FE,06,7F,
1504224,0000019C,false,Tx,0,8,06,A0,26,9F,7F,FF,08,7F,
1513449,0000019C,false,Tx,0,8,06,A0,26,9F,7F,FE,09,7F,
1511993,0000039F,false,Rx,0,8,4D,63,00,00,00,96,0C,B4,
1512243,00000323,false,Rx,0,8,00,00,00,00,00,00,D8,97,
1512498,00000324,false,Rx,0,8,70,46,09,54,54,00,00,7B,
1512742,0000033B,false,Rx,0,8,80,00,00,59,00,00,00,00,
1512988,0000033D,false,Rx,0,8,02,6E,60,20,00,18,00,40,
1513234,000003A2,false,Rx,0,8,21,66,00,70,03,FF,00,CB,
1513492,000003A4,false,Rx,0,8,00,00,00,00,00,00,00,00,
1513737,000003B7,false,Rx,0,8,00,00,00,00,00,0C,73,41,
1513984,00000491,false,Rx,0,8,00,00,00,00,00,00,00,00,
1534130,0000019C,false,Tx,0,8,06,A0,26,9F,7F,FE,0B,7F,
1544486,0000019C,false,Tx,0,8,06,A0,26,9F,7F,FF,0C,7F,
1555991,0000033F,false,Tx,0,8,00,00,00,00,28,00,00,48,
1559471,00000297,false,Tx,0,8,01,03,E0,00,C3,0B,A9,83,
1562954,0000019C,false,Tx,0,8,06,A0,26,9F,7F,FE,0E,7F,
1566430,00000297,false,Tx,0,8,00,03,00,00,00,00,20,00,
1572200,0000019C,false,Tx,0,8,06,A0,26,9F,7F,FE,0F,7F,
1583691,0000019C,false,Tx,0,8,06,A0,26,9F,7F,FF,00,7F,
1604463,0000019C,false,Tx,0,8,06,A0,26,9F,7F,FE,02,7F,
1613745,0000019C,false,Tx,0,8,06,A0,26,9F,7F,FE,03,7F,
1612196,0000039F,false,Rx,0,8,4D,63,00,00,00,96,0D,B5,
1612455,00000323,false,Rx,0,8,00,00,00,00,00,00,D8,97,
1612700,00000324,false,Rx,0,8,70,46,09,54,54,00,00,7B,
1612947,0000033B,false,Rx,0,8,80,00,00,59,00,00,00,00,
1613193,0000033D,false,Rx,0,8,02,6E,60,20,00,18,00,40,
1613448,000003A2,false,Rx,0,8,21,66,00,74,03,FF,00,CF,
1613692,000003A4,false,Rx,0,8,00,00,00,00,00,00,00,00,
1613939,000003B7,false,Rx,0,8,00,00,00,00,00,0D,3F,41,
1614185,00000491,false,Rx,0,8,00,00,00,00,00,00,00,00,
1624148,0000019C,false,Tx,0,8,06,A0,26,9F,7F,FF,04,7F,
1633375,0000019C,false,Tx,0,8,06,A0,26,9F,7F,FF,05,7F,
1643758,0000019C,false,Tx,0,8,06,A0,26,9F,7F,FE,06,7F,
1659908,00000297,false,Tx,0,8,01,03,E0,00,C3,0B,AB,81,
1672539,0000019C,false,Tx,0,8,06,A0,26,9F,7F,FE,09,7F,
1683907,0000019C,false,Tx,0,8,06,A0,26,9F,7F,FF,0A,7F,
1692999,0000019C,false,Tx,0,8,06,A0,26,9F,7F,FE,0B,7F,
1704356,0000019C,false,Tx,0,8,06,A0,26,9F,7F,FF,0C,7F,
1710125,00000297,false,Tx,0,8,01,03,E0,00,C3,0B,AC,86,
1712442,0000019C,false,Tx,0,8,06,A0,26,9F,7F,FE,0D,7F,
1714786,00000297,false,Tx,0,8,00,03,00,00,00,00,20,00,
1712581,0000039F,false,Rx,0,8,4D,63,00,00,00,96,0E,B6,
1712831,00000323,false,Rx,0,8,00,00,00,00,00,00,D8,97,
1713077,00000324,false,Rx,0,8,70,46,05,54,54,00,00,7B,
1713325,0000033B,false,Rx,0,8,80,00,00,59,00,00,00,00,
1713577,0000033D,false,Rx,0,8,02,6E,60,20,00,18,00,40,
1713823,000003A2,false,Rx,0,8,21,66,00,78,03,FF,00,C3,
1714069,000003A4,false,Rx,0,8,00,00,00,00,00,00,00,00,
1714317,000003B7,false,Rx,0,8,00,00,00,00,00,0E,EB,41,
1714570,00000491,false,Rx,0,8,00,00,00,00,00,00,00,00,
1722846,0000019C,false,Tx,0,8,06,A0,26,9F,7F,FF,0E,7F,
1733140,0000019C,false,Tx,0,8,06,A0,26,9F,7F,FF,0F,7F,
1744658,0000019C,false,Tx,0,8,06,A0,26,9F,7F,FF,00,7F,
1752716,0000019C,false,Tx,0,8,06,A0,26,9F,7F,FF,01,7F,
1764219,0000019C,false,Tx,0,8,06,A0,26,9F,7F,FE,02,7F,
1773427,0000019C,false,Tx,0,8,06,A0,26,9F,7F,FF,03,7F,
1783788,0000019C,false,Tx,0,8,06,A0,26,9F,7F,FE,04,7F,
1803305,0000019C,false,Tx,0,8,06,A0,26,9F,7F,FF,06,7F,
1810343,00000297,false,Tx,0,8,01,03,E0,00,C3,0B,AE,84,
1813896,0000019C,false,Tx,0,8,06,A0,26,9F,7F,FE,07,7F,
1813027,0000039F,false,Rx,0,8,4D,63,00,00,00,96,0F,B7,
1813277,00000323,false,Rx,0,8,00,00,00,00,00,00,D8,97,
1813530,00000324,false,Rx,0,8,70,46,09,54,54,00,00,7B,
1813574,0000033B,false,Rx,0,8,80,00,00,59,00,00,00,00,
1813814,0000033D,false,Rx,0,8,02,6E,60,20,00,18,00,40,
1814061,000003A2,false,Rx,0,8,21,66,00,7C,03,FF,00,C7,
1814309,000003A4,false,Rx,0,8,00,00,00,00,00,00,00,00,
1814562,000003B7,false,Rx,0,8,00,00,00,00,00,00,04,41,
1814808,00000491,false,Rx,0,8,00,00,00,00,00,00,00,00,
1824170,0000019C,false,Tx,0,8,06,A0,26,9F,7F,FF,08,7F,
1833396,0000019C,false,Tx,0,8,06,A0,26,9F,7F,FF,09,7F,
1843766,0000019C,false,Tx,0,8,06,A0,26,9F,7F,FE,0A,7F,
1852966,0000019C,false,Tx,0,8,06,A0,26,A0,7F,FE,0B,7F,
1863351,0000019C,false,Tx,0,8,06,A0,26,A0,7F,FE,0C,7F,
1872596,0000019C,false,Tx,0,8,06,A0,26,9F,7F,FF,0D,7F,
1884065,0000019C,false,Tx,0,8,06,A0,26,9F,7F,FF,0E,7F,
1904970,0000019C,false,Tx,0,8,06,A0,26,A0,7F,FF,00,7F,
1914203,0000019C,false,Tx,0,8,06,A0,26,A0,7F,FF,01,7F,
1913230,0000039F,false,Rx,0,8,4D,63,00,00,00,96,00,B8,
1913487,00000323,false,Rx,0,8,00,00,00,00,00,00,00,00,
1913733,00000324,false,Rx,0,8,70,46,0E,54,54,00,00,7B,
1913979,0000033B,false,Rx,0,8,80,00,00,59,00,00,00,00,
1914225,0000033D,false,Rx,0,8,02,6E,60,20,00,18,00,40,
1914481,000003A2,false,Rx,0,8,21,66,00,40,03,FF,00,FB,
1914728,000003A4,false,Rx,0,8,00,00,00,00,00,00,00,00,
1914973,000003B7,false,Rx,0,8,00,00,00,00,00,01,48,41,
1915220,00000491,false,Rx,0,8,00,00,00,00,00,00,00,00,
1923405,0000019C,false,Tx,0,8,06,A0,26,A0,7F,FE,02,7F,
1933630,0000019C,false,Tx,0,8,06,A0,26,9F,7F,FF,03,7F,
1943858,0000019C,false,Tx,0,8,06,A0,26,9F,7F,FE,04,7F,
1952948,0000019C,false,Tx,0,8,06,A0,26,9F,7F,FF,05,7F,
1966678,00000297,false,Tx,0,8,00,03,00,00,00,00,20,00,
1983923,0000019C,false,Tx,0,8,06,A0,26,9F,7F,FF,08,7F,
1991996,0000019C,false,Tx,0,8,06,A0,26,9F,7F,FE,09,7F,
2003469,0000019C,false,Tx,0,8,06,A0,26,9F,7F,FE,0A,7F,
2010352,00000297,false,Tx,0,8,01,03,E0,00,C3,0B,A2,88,
2012680,0000019C,false,Tx,0,8,06,A0,26,9F,7F,FF,0B,7F,
2013337,0000039F,false,Rx,0,8,4D,63,00,00,00,96,01,B9,
2013585,00000323,false,Rx,0,8,00,00,00,00,00,00,00,00,
2013832,00000324,false,Rx,0,8,70,46,0E,54,54,00,00,7B,
2014078,0000033B,false,Rx,0,8,80,00,00,59,00,00,00,00,
2014326,0000033D,false,Rx,0,8,02,6E,60,20,00,18,00,40,
2014579,000003A2,false,Rx,0,8,21,66,00,44,03,FF,00,FF,
2014825,000003A4,false,Rx,0,8,00,00,00,00,00,00,00,00,
2015071,000003B7,false,Rx,0,8,00,00,00,00,00,02,9C,41,
2015319,00000491,false,Rx,0,8,00,00,00,00,00,00,00,00,
2023045,0000019C,false,Tx,0,8,06,A0,26,9F,7F,FF,0C,7F,
2032246,0000019C,false,Tx,0,8,06,A0,26,9F,7F,FE,0D,7F,
2043740,0000019C,false,Tx,0,8,06,A0,26,9F,7F,FE,0E,7F,
2052946,0000019C,false,Tx,0,8,06,A0,26,9F,7F,FF,0F,7F,
2063300,0000019C,false,Tx,0,8,06,A0,26,9F,7F,FE,00,7F,
2066858,00000297,false,Tx,0,8,00,03,00,00,00,00,20,00,
2084194,0000019C,false,Tx,0,8,06,A0,26,9F,7F,FF,02,7F,
2093402,0000019C,false,Tx,0,8,06,A0,26,9F,7F,FF,03,7F,
2103738,0000019C,false,Tx,0,8,06,A0,26,9F,7F,FE,04,7F,
2112952,0000019C,false,Tx,0,8,06,A0,26,9F,7F,FF,05,7F,
2113535,0000039F,false,Rx,0,8,4D,63,00,00,00,96,02,BA,
2113785,00000323,false,Rx,0,8,00,00,00,00,00,00,00,00,
2114028,00000324,false,Rx,0,8,70,46,0E,54,54,00,00,7B,
2114274,0000033B,false,Rx,0,8,80,00,00,59,00,00,00,00,
2114527,0000033D,false,Rx,0,8,02,6E,60,20,00,18,00,40,
2114774,000003A2,false,Rx,0,8,21,66,00,48,03,FF,00,F3,
2115019,000003A4,false,Rx,0,8,00,00,00,00,00,00,00,00,
2115266,000003B7,false,Rx,0,8,00,00,00,00,00,03,D0,41,
2115519,00000491,false,Rx,0,8,00,00,00,00,00,00,00,00,
2123416,0000019C,false,Tx,0,8,06,A0,26,9F,7F,FF,06,7F,
2144144,0000019C,false,Tx,0,8,06,A0,26,A0,7F,FE,08,7F,
2153457,0000019C,false,Tx,0,8,06,A0,26,9F,7F,FF,09,7F,
2165039,0000019C,false,Tx,0,8,06,A0,26,9F,7F,FE,0A,7F,
2174246,0000019C,false,Tx,0,8,06,A0,26,9F,7F,FF,0B,7F,
2184497,0000019C,false,Tx,0,8,06,A0,26,9F,7F,FE,0C,7F,
2193607,0000019C,false,Tx,0,8,06,A0,26,9F,7F,FE,0D,7F,
2203780,0000019C,false,Tx,0,8,06,A0,26,9F,7F,FE,0E,7F,
2212910,0000019C,false,Tx,0,8,06,A0,26,9F,7F,FE,0F,7F,
2213885,0000039F,false,Rx,0,8,4D,63,00,00,00,96,03,BB,
2214132,00000323,false,Rx,0,8,00,00,00,00,00,00,00,00,
2214382,00000324,false,Rx,0,8,70,46,09,54,54,00,00,7B,
2214635,0000033B,false,Rx,0,8,80,00,00,59,00,00,00,00,
2214881,0000033D,false,Rx,0,8,02,6E,60,20,00,18,00,40,
2215126,000003A2,false,Rx,0,8,21,66,00,4C,03,FF,00,F7,
2215375,000003A4,false,Rx,0,8,00,00,00,00,00,00,00,00,
2215622,000003B7,false,Rx,0,8,00,00,00,00,00,04,29,41,
2215868,00000491,false,Rx,0,8,00,00,00,00,00,00,00,00,
2224398,0000019C,false,Tx,0,8,06,A0,26,9F,7F,FF,00,7F,
2233563,0000019C,false,Tx,0,8,06,A0,26,9F,7F,FF,01,7F,
2245048,0000019C,false,Tx,0,8,06,A0,26,9F,7F,FE,02,7F,
2254254,0000019C,false,Tx,0,8,06,A0,26,9F,7F,FF,03,7F,
2256588,0000033F,false,Tx,0,8,00,00,00,00,28,00,00,48,
2285220,0000019C,false,Tx,0,8,06,A0,26,A0,7F,FF,06,7F,
2294397,0000019C,false,Tx,0,8,06,A0,26,9F,7F,FE,07,7F,
2305911,0000019C,false,Tx,0,8,06,A0,26,9F,7F,FE,08,7F,
2313941,0000019C,false,Tx,0,8,06,A0,26,9F,7F,FF,09,7F,
2325426,0000019C,false,Tx,0,8,06,A0,26,9F,7F,FE,0A,7F,
2314513,0000039F,false,Rx,0,8,4D,63,00,00,00,96,04,BC,
2314763,00000323,false,Rx,0,8,00,00,00,00,00,00,00,00,
2315007,00000324,false,Rx,0,8,70,46,09,54,54,00,00,7B,
2315254,0000033B,false,Rx,0,8,80,00,00,59,00,00,00,00,
2315508,0000033D,false,Rx,0,8,02,6E,60,20,00,18,00,40,
2315755,000003A2,false,Rx,0,8,21,66,00,50,03,FF,00,EB,
2316001,000003A4,false,Rx,0,8,00,00,00,00,00,00,00,00,
2316247,000003B7,false,Rx,0,8,00,00,00,00,00,05,65,41,
2316504,00000491,false,Rx,0,8,00,00,00,00,00,00,00,00,
2333426,0000019C,false,Tx,0,8,06,A0,26,9F,7F,FF,0B,7F,
2344910,0000019C,false,Tx,0,8,06,A0,26,A0,7F,FE,0C,7F,
2354107,0000019C,false,Tx,0,8,06,A0,26,A0,7F,FF,0D,7F,
2374685,0000019C,false,Tx,0,8,06,A0,26,9F,7F,FE,0F,7F,
2384989,0000019C,false,Tx,0,8,06,A0,26,9F,7F,FE,00,7F,
2405718,0000019C,false,Tx,0,8,06,A0,26,9F,7F,FF,02,7F,
2413815,0000019C,false,Tx,0,8,06,A0,26,9F,7F,FE,03,7F,
2414854,0000039F,false,Rx,0,8,4D,63,00,00,00,96,05,BD,
2415161,00000323,false,Rx,0,8,00,00,00,00,00,00,D8,97,
2415171,00000324,false,Rx,0,8,70,46,09,54,54,00,00,7B,
2415428,0000033B,false,Rx,0,8,80,00,00,59,00,00,00,00,
2415674,0000033D,false,Rx,0,8,02,6E,60,20,00,18,00,40,
2415920,000003A2,false,Rx,0,8,21,66,00,54,03,FF,00,EF,
2416166,000003A4,false,Rx,0,8,00,00,00,00,00,00,00,00,
2416420,000003B7,false,Rx,0,8,00,00,00,00,00,06,B1,41,
2416667,00000491,false,Rx,0,8,00,00,00,00,00,00,00,00,
2424124,0000019C,false,Tx,0,8,06,A0,26,9F,7F,FF,04,7F,
2434356,0000019C,false,Tx,0,8,06,A0,26,9F,7F,FE,05,7F,
2444593,0000019C,false,Tx,0,8,06,A0,26,9F,7F,FF,06,7F,
2454810,0000019C,false,Tx,0,8,06,A0,26,9F,7F,FE,07,7F,
2465134,0000019C,false,Tx,0,8,06,A0,26,9F,7F,FF,08,7F,
2475471,0000019C,false,Tx,0,8,06,A0,26,9F,7F,FE,09,7F,
2484653,0000019C,false,Tx,0,8,06,A0,26,9F,7F,FF,0A,7F,
2495000,0000019C,false,Tx,0,8,06,A0,26,9F,7F,FE,0B,7F,
2505373,0000019C,false,Tx,0,8,06,A0,26,9F,7F,FE,0C,7F,
2510006,00000297,false,Tx,0,8,01,03,E0,00,C3,08,AC,85,
2512334,0000019C,false,Tx,0,8,06,A0,26,9F,7F,FF,0D,7F,
2515065,0000039F,false,Rx,0,8,4D,63,00,00,00,96,06,BE,
2515316,00000323,false,Rx,0,8,00,00,00,00,00,00,D8,97,
2515570,00000324,false,Rx,0,8,70,46,05,54,54,00,00,7B,
2515815,0000033B,false,Rx,0,8,80,00,00,59,00,00,00,00,
2516062,0000033D,false,Rx,0,8,02,6E,60,20,00,18,00,40,
2516310,000003A2,false,Rx,0,8,21,66,00,58,03,FF,00,E3,
2516563,000003A4,false,Rx,0,8,00,00,00,00,00,00,00,00,
2516812,000003B7,false,Rx,0,8,00,00,00,00,00,07,FD,41,
2517080,00000491,false,Rx,0,8,00,00,00,00,00,00,00,00,
2523839,0000019C,false,Tx,0,8,06,A0,26,9F,7F,FF,0E,7F,
2544530,0000019C,false,Tx,0,8,06,A0,26,9F,7F,FE,00,7F,
2554861,0000019C,false,Tx,0,8,06,A0,26,9F,7F,FF,01,7F,
2585515,0000019C,false,Tx,0,8,06,A0,26,9F,7F,FE,04,7F,
2603871,0000019C,false,Tx,0,8,06,A0,26,9F,7F,FF,06,7F,
2614289,0000019C,false,Tx,0,8,06,A0,26,9F,7F,FE,07,7F,
2625852,0000019C,false,Tx,0,8,06,A0,26,9F,7F,FE,08,7F,
2615211,0000039F,false,Rx,0,8,4D,63,00,00,00,96,07,BF,
2615470,00000323,false,Rx,0,8,00,00,00,00,00,00,D8,97,
2615715,00000324,false,Rx,0,8,70,46,05,54,54,00,00,7B,
2615962,0000033B,false,Rx,0,8,80,00,00,59,00,00,00,00,
2616207,0000033D,false,Rx,0,8,02,6E,60,20,00,18,00,40,
2616463,000003A2,false,Rx,0,8,21,66,00,5C,03,FF,00,E7,
2616709,000003A4,false,Rx,0,8,00,00,00,00,00,00,00,00,
2616955,000003B7,false,Rx,0,8,00,00,00,00,00,08,5E,41,
2617201,00000491,false,Rx,0,8,00,00,00,00,00,00,00,00,
2645320,0000019C,false,Tx,0,8,06,A0,26,9F,7F,FE,0A,7F,
2661534,00000297,false,Tx,0,8,01,03,E0,00,C3,08,AF,86,
2665072,0000019C,false,Tx,0,8,06,A0,26,9F,7F,FE,0C,7F,
2675401,0000019C,false,Tx,0,8,06,A0,26,9F,7F,FE,0D,7F,
2685653,0000019C,false,Tx,0,8,06,A0,26,9F,7F,FE,0E,7F,
2694775,0000019C,false,Tx,0,8,06,A0,26,9F,7F,FF,0F,7F,
2706239,0000019C,false,Tx,0,8,06,A0,26,9F,7F,FE,00,7F,
2710792,00000297,false,Tx,0,8,01,03,E0,00,C3,08,A0,89,
2714248,0000019C,false,Tx,0,8,06,A0,26,9F,7F,FF,01,7F,
2715490,0000039F,false,Rx,0,8,4D,63,00,00,00,96,08,B0,
2715739,00000323,false,Rx,0,8,00,00,00,00,00,00,D8,97,
2716004,00000324,false,Rx,0,8,70,46,09,54,54,00,00,7B,
2716260,0000033B,false,Rx,0,8,80,00,00,59,00,00,00,00,
2716514,0000033D,false,Rx,0,8,02,6E,60,20,00,18,00,40,
2716760,000003A2,false,Rx,0,8,21,66,00,60,03,FF,00,DB,
2717007,000003A4,false,Rx,0,8,00,00,00,00,00,00,00,00,
2717252,000003B7,false,Rx,0,8,00,00,00,00,00,09,12,41,
2717502,00000491,false,Rx,0,8,00,00,00,00,00,00,00,00,
2724583,0000019C,false,Tx,0,8,06,A0,26,9F,7F,FE,02,7F,
2745226,0000019C,false,Tx,0,8,06,A0,26,9F,7F,FE,04,7F,
2754419,0000019C,false,Tx,0,8,06,A0,26,9F,7F,FE,05,7F,
2768191,00000297,false,Tx,0,8,00,03,00,00,00,00,20,00,
2775121,0000019C,false,Tx,0,8,06,A0,26,9F,7F,FE,07,7F,
2785431,0000019C,false,Tx,0,8,06,A0,26,A0,7F,FF,08,7F,
2794609,0000019C,false,Tx,0,8,06,A0,26,9F,7F,FF,09,7F,
2804960,0000019C,false,Tx,0,8,06,A0,26,9F,7F,FE,0A,7F,
2811876,00000297,false,Tx,0,8,01,03,E0,00,C3,08,A2,8B,
2815359,0000019C,false,Tx,0,8,06,A0,26,9F,7F,FF,0B,7F,
2815859,0000039F,false,Rx,0,8,4D,63,00,00,00,96,09,B1,
2816107,00000323,false,Rx,0,8,00,00,00,00,00,00,D8,97,
2816357,00000324,false,Rx,0,8,70,46,09,54,54,00,00,7B,
2816610,0000033B,false,Rx,0,8,80,00,00,59,00,00,00,00,
2816856,0000033D,false,Rx,0,8,02,6E,60,20,00,18,00,40,
2817102,000003A2,false,Rx,0,8,21,66,00,64,03,FF,00,DF,
2817350,000003A4,false,Rx,0,8,00,00,00,00,00,00,00,00,
2817603,000003B7,false,Rx,0,8,00,00,00,00,00,0A,C6,41,
2817851,00000491,false,Rx,0,8,00,00,00,00,00,00,00,00,
2825605,0000019C,false,Tx,0,8,06,A0,26,9F,7F,FE,0C,7F,
2845178,0000019C,false,Tx,0,8,06,A0,26,9F,7F,FF,0E,7F,
2856750,00000297,false,Tx,0,8,00,03,00,00,00,00,20,00,
2866038,0000019C,false,Tx,0,8,06,A0,26,9F,7F,FF,0B,7F,
2902917,00000297,false,Tx,0,8,01,03,E0,00,C3,0C,A6,8B,
2908791,00000297,false,Tx,0,8,00,03,00,00,00,00,20,00,
2925958,0000019C,false,Tx,0,8,06,A0,26,9F,7F,FF,01,7F,
2916080,0000039F,false,Rx,0,8,4D,63,00,00,00,96,0A,B2,
2916329,00000323,false,Rx,0,8,00,00,00,00,00,00,00,00,
2916582,00000324,false,Rx,0,8,70,46,09,54,54,00,00,7B,
2916828,0000033B,false,Rx,0,8,80,00,00,59,00,00,00,00,
2917074,0000033D,false,Rx,0,8,02,6E,60,20,00,18,00,40,
2917321,000003A2,false,Rx,0,8,21,66,00,68,03,FF,00,D3,
2917575,000003A4,false,Rx,0,8,00,00,00,00,00,00,00,00,
2917820,000003B7,false,Rx,0,8,00,00,00,00,00,0B,8A,41,
2918066,00000491,false,Rx,0,8,00,00,00,00,00,00,00,00,
2956564,0000019C,false,Tx,0,8,06,A0,26,9F,7F,FE,04,7F,
3016374,0000039F,false,Rx,0,8,4D,63,00,00,00,96,0B,B3,
3016631,00000323,false,Rx,0,8,00,00,00,00,00,00,00,00,
3016878,00000324,false,Rx,0,8,70,46,09,54,54,00,00,7B,
3017123,0000033B,false,Rx,0,8,80,00,00,59,00,00,00,00,
3017372,0000033D,false,Rx,0,8,02,6E,60,20,00,18,00,40,
3017624,000003A2,false,Rx,0,8,21,66,00,6C,03,FF,00,D7,
3017871,000003A4,false,Rx,0,8,00,00,00,00,00,00,00,00,
3018116,000003B7,false,Rx,0,8,00,00,00,00,00,0C,73,41,
3018365,00000491,false,Rx,0,8,00,00,00,00,00,00,00,00,
3026243,0000019C,false,Tx,0,8,06,A0,26,9F,7F,FE,0B,7F,
3052589,00000297,false,Tx,0,8,01,03,E0,00,C3,0C,A9,84,
3066347,0000019C,false,Tx,0,8,06,A0,26,9F,7F,FE,0F,7F,
3076750,0000019C,false,Tx,0,8,06,A0,26,9F,7F,FF,00,7F,
3117973,0000019C,false,Tx,0,8,06,A0,26,9F,7F,FF,04,7F,
3116588,0000039F,false,Rx,0,8,4D,63,00,00,00,96,0C,B4,
3116838,00000323,false,Rx,0,8,00,00,00,00,00,00,00,00,
3117084,00000324,false,Rx,0,8,70,46,05,54,54,00,00,7B,
3117331,0000033B,false,Rx,0,8,80,00,00,59,00,00,00,00,
3117584,0000033D,false,Rx,0,8,02,6E,60,20,00,18,00,40,
3117829,000003A2,false,Rx,0,8,21,66,00,70,03,FF,00,CB,
3118076,000003A4,false,Rx,0,8,00,00,00,00,00,00,00,00,
3118324,000003B7,false,Rx,0,8,00,00,00,00,00,0D,3F,41,
3118578,00000491,false,Rx,0,8,00,00,00,00,00,00,00,00,
3126093,0000019C,false,Tx,0,8,06,A0,26,9F,7F,FF,05,7F,
3150310,0000033F,false,Tx,0,8,00,00,00,00,28,00,00,46,
3166472,0000019C,false,Tx,0,8,06,A0,26,9F,7F,FF,09,7F,
3176801,0000019C,false,Tx,0,8,06,A0,26,9F,7F,FF,0A,7F,
3187041,0000019C,false,Tx,0,8,06,A0,26,9F,7F,FE,0B,7F,
3197268,0000019C,false,Tx,0,8,06,A0,26,9F,7F,FF,0C,7F,
3216557,0000019C,false,Tx,0,8,06,A0,26,A0,7F,FF,0E,7F,
3217026,0000039F,false,Rx,0,8,4D,63,00,00,00,96,0D,B5,
3217277,00000323,false,Rx,0,8,00,00,00,00,00,00,00,00,
3217529,00000324,false,Rx,0,8,70,46,09,54,54,00,00,7B,
3217776,0000033B,false,Rx,0,8,80,00,00,59,00,00,00,00,
3218021,0000033D,false,Rx,0,8,02,00,60,20,00,18,00,40,
3218268,000003A2,false,Rx,0,8,21,66,00,74,03,FF,00,CF,
3218521,000003A4,false,Rx,0,8,00,00,00,00,00,00,00,00,
3218767,000003B7,false,Rx,0,8,00,00,00,00,00,0E,EB,41,
3219012,00000491,false,Rx,0,8,00,00,00,00,00,00,00,00,
3225802,0000019C,false,Tx,0,8,06,A0,26,9F,7F,FF,0F,7F,
3260139,00000297,false,Tx,0,8,00,03,00,00,00,00,20,00,
3303635,00000297,false,Tx,0,8,01,03,E0,00,C3,0C,AE,83,
3305959,0000019C,false,Tx,0,8,06,A0,26,9F,7F,FF,07,7F,
3317431,0000019C,false,Tx,0,8,06,A0,26,9F,7F,FF,08,7F,
3326660,0000019C,false,Tx,0,8,06,A0,26,9F,7F,FF,09,7F,
3317433,0000039F,false,Rx,0,8,4D,63,00,00,00,96,0E,B6,
3317684,00000323,false,Rx,0,8,00,00,00,00,00,00,00,00,
3317929,00000324,false,Rx,0,8,70,46,09,54,54,00,00,7B,
3318175,0000033B,false,Rx,0,8,80,00,00,59,00,00,00,00,
3318434,0000033D,false,Rx,0,8,02,00,60,20,00,18,00,40,
3318681,000003A2,false,Rx,0,8,21,66,00,78,03,FF,00,C3,
3318927,000003A4,false,Rx,0,8,00,00,00,00,00,00,00,00,
3319173,000003B7,false,Rx,0,8,00,00,00,00,00,00,04,41,
3319427,00000491,false,Rx,0,8,00,00,00,00,00,00,00,00,
3377074,0000019C,false,Tx,0,8,06,A0,26,9F,7F,FF,0E,7F,
3417600,0000039F,false,Rx,0,8,4D,63,00,00,00,96,0F,B7,
3417849,00000323,false,Rx,0,8,00,00,00,00,00,00,D8,97,
3417893,00000324,false,Rx,0,8,70,46,09,54,54,00,00,7B,
3418327,0000033B,false,Rx,0,8,80,00,00,59,00,00,00,00,
3418615,0000033D,false,Rx,0,8,02,00,60,20,00,18,00,40,
3418625,000003A2,false,Rx,0,8,21,66,00,7C,03,FF,00,C7,
3419058,000003A4,false,Rx,0,8,00,00,00,00,00,00,00,00,
3419307,000003B7,false,Rx,0,8,00,00,00,00,00,01,48,41,
3420800,00000491,false,Rx,0,8,00,00,00,00,00,00,00,00,
3426531,0000019C,false,Tx,0,8,06,A0,26,9F,7F,FF,03,7F,
3446955,0000019C,false,Tx,0,8,06,A0,26,9F,7F,FE,05,7F,
3453806,00000297,false,Tx,0,8,01,03,E0,00,C3,0C,A1,8C,
3466270,0000019C,false,Tx,0,8,06,A0,26,9F,7F,FF,07,7F,
3485578,0000019C,false,Tx,0,8,06,A0,26,9F,7F,FF,09,7F,
3506273,0000019C,false,Tx,0,8,06,A0,26,9F,7F,FF,0B,7F,
3517760,0000019C,false,Tx,0,8,06,A0,26,9F,7F,FE,0C,7F,
3526974,0000019C,false,Tx,0,8,06,A0,26,9F,7F,FF,0D,7F,
3518154,0000039F,false,Rx,0,8,4D,63,00,00,00,96,00,B8,
3518405,00000323,false,Rx,0,8,00,00,00,00,00,00,D8,97,
3518451,00000324,false,Rx,0,8,70,46,09,54,54,00,00,7B,
3518884,0000033B,false,Rx,0,8,80,00,00,59,00,00,00,00,
3519130,0000033D,false,Rx,0,8,00,00,60,20,00,18,00,40,
3519379,000003A2,false,Rx,0,8,21,66,00,40,03,FF,00,FB,
3519632,000003A4,false,Rx,0,8,00,00,00,00,00,00,00,00,
3519675,000003B7,false,Rx,0,8,00,00,00,00,00,02,9C,41,
3520109,00000491,false,Rx,0,8,00,00,00,00,00,00,00,00,
3536166,0000019C,false,Tx,0,8,06,A0,26,9F,7F,FE,0E,7F,
3560275,00000297,false,Tx,0,8,00,03,00,00,00,00,20,00,
3596945,0000019C,false,Tx,0,8,06,A0,26,9F,7F,FE,04,7F,
3609611,00000297,false,Tx,0,8,00,03,00,00,00,00,20,00,
3626873,0000019C,false,Tx,0,8,06,A0,26,9F,7F,FE,07,7F,
3618415,0000039F,false,Rx,0,8,4D,63,00,00,00,96,01,B9,
3618665,00000323,false,Rx,0,8,00,00,00,00,00,00,D8,97,
3618708,00000324,false,Rx,0,8,70,46,09,54,54,00,00,7B,
3619141,0000033B,false,Rx,0,8,80,00,00,59,00,00,00,00,
3619389,0000033D,false,Rx,0,8,00,00,60,20,00,18,00,40,
3619439,000003A2,false,Rx,0,8,21,66,00,44,03,FF,00,FF,
3619873,000003A4,false,Rx,0,8,00,00,00,00,00,00,00,00,
3620120,000003B7,false,Rx,0,8,00,00,00,00,00,03,D0,41,
3620366,00000491,false,Rx,0,8,00,00,00,00,00,00,00,00,
3654565,00000297,false,Tx,0,8,01,03,E0,00,C3,0C,A5,88,
3657008,0000019C,false,Tx,0,8,06,A0,26,9F,7F,FF,0A,7F,
3660571,00000297,false,Tx,0,8,00,03,00,00,00,00,20,00,
3709428,00000297,false,Tx,0,8,00,03,00,00,00,00,20,00,
3716335,0000019C,false,Tx,0,8,06,A0,26,9F,7F,FE,00,7F,
3718733,00000323,false,Rx,0,8,00,00,00,00,00,00,D8,97,
3718983,00000324,false,Rx,0,8,70,46,09,54,54,00,00,7B,
3719229,0000033B,false,Rx,0,8,80,00,00,59,00,00,00,00,
3719479,0000033D,false,Rx,0,8,00,00,60,20,00,18,00,40,
3719732,0000039F,false,Rx,0,8,4D,63,00,00,00,96,02,BA,
3719979,000003A2,false,Rx,0,8,21,66,00,48,03,FF,00,F3,
3720224,000003A4,false,Rx,0,8,00,00,00,00,00,00,00,00,
3720482,000003B7,false,Rx,0,8,00,00,00,00,00,04,29,41,
3720728,00000491,false,Rx,0,8,00,00,00,00,00,00,00,00,
3726659,0000019C,false,Tx,0,8,06,A0,26,9F,7F,FF,01,7F,
3757565,0000019C,false,Tx,0,8,06,A0,26,9F,7F,FF,04,7F,
3761051,00000297,false,Tx,0,8,00,03,00,00,00,00,20,00,
3778223,0000019C,false,Tx,0,8,06,A0,26,9F,7F,FE,06,7F,
3787413,0000019C,false,Tx,0,8,06,A0,26,9F,7F,FF,07,7F,
3797773,0000019C,false,Tx,0,8,06,A0,26,9F,7F,FF,08,7F,
3809209,00000297,false,Tx,0,8,00,03,00,00,00,00,20,00,
3817270,0000019C,false,Tx,0,8,06,A0,26,9F,7F,FF,0A,7F,
3827592,0000019C,false,Tx,0,8,06,A0,26,A0,7F,FF,0B,7F,
3818779,0000039F,false,Rx,0,8,4D,63,00,00,00,96,03,BB,
3819028,00000323,false,Rx,0,8,00,00,00,00,00,00,D8,97,
3819275,00000324,false,Rx,0,8,70,46,09,54,54,00,00,7B,
3819527,0000033B,false,Rx,0,8,80,00,00,59,00,00,00,00,
3819772,0000033D,false,Rx,0,8,00,00,60,20,00,18,00,40,
3820016,000003A2,false,Rx,0,8,21,66,00,4C,03,FF,00,F7,
3820262,000003A4,false,Rx,0,8,00,00,00,00,00,00,00,00,
3820515,000003B7,false,Rx,0,8,00,00,00,00,00,05,65,41,
3820760,00000491,false,Rx,0,8,00,00,00,00,00,00,00,00,
3850481,0000033F,false,Tx,0,8,00,00,00,00,28,00,00,46,
3909820,00000297,false,Tx,0,8,00,03,00,00,00,00,20,00,
3928153,0000019C,false,Tx,0,8,06,A0,26,9F,7F,FF,05,7F,
3919318,0000039F,false,Rx,0,8,4D,63,00,00,00,96,04,BC,
3919574,00000323,false,Rx,0,8,00,00,00,00,00,00,00,00,
3919821,00000324,false,Rx,0,8,70,46,09,54,55,00,00,7B,
3920066,0000033B,false,Rx,0,8,80,00,00,59,00,00,00,00,
3920317,0000033D,false,Rx,0,8,00,00,60,20,00,18,00,40,
3920569,000003A2,false,Rx,0,8,21,66,00,50,03,FF,00,EB,
3920816,000003A4,false,Rx,0,8,00,00,00,00,00,00,00,00,
3921060,000003B7,false,Rx,0,8,00,00,00,00,00,06,B1,41,
3921310,00000491,false,Rx,0,8,00,00,00,00,00,00,00,00,
3950818,0000033F,false,Tx,0,8,00,00,00,00,28,00,00,46,
3954272,00000297,false,Tx,0,8,01,03,E0,00,C3,0C,AB,86,
3957802,0000019C,false,Tx,0,8,06,A0,26,9F,7F,FE,08,7F,
4027583,0000019C,false,Tx,0,8,06,A0,26,9F,7F,FF,0F,7F,
4019552,0000039F,false,Rx,0,8,4D,63,00,00,00,96,05,BD,
4019802,00000323,false,Rx,0,8,00,00,00,00,00,00,00,00,
4020047,00000324,false,Rx,0,8,70,46,09,54,55,00,00,7B,
4020295,0000033B,false,Rx,0,8,80,00,00,59,00,00,00,00,
4020546,0000033D,false,Rx,0,8,00,00,60,20,00,18,00,40,
4020793,000003A2,false,Rx,0,8,21,66,00,54,03,FF,00,EF,
4021037,000003A4,false,Rx,0,8,00,00,00,00,00,00,00,00,
4021284,000003B7,false,Rx,0,8,00,00,00,00,00,07,FD,41,
4021537,00000491,false,Rx,0,8,00,00,00,00,00,00,00,00,
4050533,0000033F,false,Tx,0,8,00,00,00,00,28,00,00,46,
4062005,00000297,false,Tx,0,8,00,03,00,00,00,00,20,00,
4098619,0000019C,false,Tx,0,8,06,A0,26,9F,7F,FE,06,7F,
4118092,0000019C,false,Tx,0,8,06,A0,26,9F,7F,FF,08,7F,
4128430,0000019C,false,Tx,0,8,06,A0,26,9F,7F,FF,09,7F,
4119792,0000039F,false,Rx,0,8,4D,63,00,00,00,96,06,BE,
4120040,00000323,false,Rx,0,8,00,00,00,00,00,00,00,00,
4120289,00000324,false,Rx,0,8,70,46,09,54,55,00,00,7B,
4120542,0000033B,false,Rx,0,8,80,00,00,59,00,00,00,00,
4120788,0000033D,false,Rx,0,8,00,00,60,20,00,18,00,40,
4121034,000003A2,false,Rx,0,8,21,66,00,58,03,FF,00,E3,
4121284,000003A4,false,Rx,0,8,00,00,00,00,00,00,00,00,
4121537,000003B7,false,Rx,0,8,00,00,00,00,00,08,5E,41,
4121782,00000491,false,Rx,0,8,00,00,00,00,00,00,00,00,
4151251,0000033F,false,Tx,0,8,00,00,00,00,28,00,00,46,
4158098,0000019C,false,Tx,0,8,06,A0,26,9F,7F,FF,0C,7F,
4161547,00000297,false,Tx,0,8,00,03,00,00,00,00,20,00,
4178586,0000019C,false,Tx,0,8,06,A0,26,9F,7F,FE,0E,7F,
4204698,00000297,false,Tx,0,8,01,03,E0,00,C3,11,A0,90,
4210428,00000297,false,Tx,0,8,00,03,00,00,00,00,20,00,
4227668,0000019C,false,Tx,0,8,06,A0,26,9F,7F,FE,03,7F,
4219918,0000039F,false,Rx,0,8,4D,63,00,00,00,96,07,BF,
4220169,00000323,false,Rx,0,8,00,00,00,00,00,00,00,00,
4220423,00000324,false,Rx,0,8,70,46,09,54,55,00,00,7B,
4220670,0000033B,false,Rx,0,8,80,00,00,59,00,00,00,00,
4220915,0000033D,false,Rx,0,8,00,00,60,20,00,18,00,40,
4221161,000003A2,false,Rx,0,8,21,66,00,5C,03,FF,00,E7,
4221420,000003A4,false,Rx,0,8,00,00,00,00,00,00,00,00,
4221666,000003B7,false,Rx,0,8,00,00,00,00,00,09,12,41,
4221912,00000491,false,Rx,0,8,00,00,00,00,00,00,00,00,
4238040,0000019C,false,Tx,0,8,06,A0,26,9F,7F,FE,04,7F,
4257547,0000019C,false,Tx,0,8,06,A0,26,9F,7F,FF,06,7F,
4261024,00000297,false,Tx,0,8,00,03,00,00,00,00,20,00,
4266807,0000019C,false,Tx,0,8,06,A0,26,9F,7F,FE,07,7F,
4278296,0000019C,false,Tx,0,8,06,A0,26,9F,7F,FE,08,7F,
4297751,0000019C,false,Tx,0,8,06,A0,26,A0,7F,FF,0A,7F,
4317253,0000019C,false,Tx,0,8,06,A0,26,9F,7F,FF,0C,7F,
4326547,0000019C,false,Tx,0,8,06,A0,26,9F,7F,FF,0D,7F,
4320526,0000039F,false,Rx,0,8,4D,63,00,00,00,96,08,B0,
4320776,00000323,false,Rx,0,8,00,00,00,00,00,00,00,00,
4321022,00000324,false,Rx,0,8,70,46,09,54,55,00,00,7B,
4321269,0000033B,false,Rx,0,8,80,00,00,59,00,00,00,00,
4321521,0000033D,false,Rx,0,8,00,00,60,20,00,18,00,40,
4321768,000003A2,false,Rx,0,8,21,66,00,60,03,FF,00,DB,
4322014,000003A4,false,Rx,0,8,00,00,00,00,00,00,00,00,
4322260,000003B7,false,Rx,0,8,00,00,00,00,00,0A,C6,41,
4322512,00000491,false,Rx,0,8,00,00,00,00,00,00,00,00,
4339136,0000019C,false,Tx,0,8,06,A0,26,9F,7F,FF,0E,7F,
4356376,00000297,false,Tx,0,8,01,03,E0,00,C3,11,A3,93,
4358731,0000019C,false,Tx,0,8,06,A0,26,9F,7F,FE,00,7F,
4362236,00000297,false,Tx,0,8,00,03,00,00,00,00,20,00,
4378346,0000019C,false,Tx,0,8,06,A0,26,9F,7F,FE,02,7F,
4407205,0000019C,false,Tx,0,8,06,A0,26,9F,7F,FE,05,7F,
4427842,0000019C,false,Tx,0,8,06,A0,26,9F,7F,FF,07,7F,
4420983,0000039F,false,Rx,0,8,4D,63,00,00,00,96,09,B1,
4420999,00000323,false,Rx,0,8,00,00,00,00,00,00,D8,97,
4421261,00000324,false,Rx,0,8,70,46,09,54,55,00,00,7B,
4421514,0000033B,false,Rx,0,8,80,00,00,59,00,00,00,00,
4421776,0000033D,false,Rx,0,8,00,00,60,20,00,18,00,40,
4422036,000003A2,false,Rx,0,8,21,66,00,64,03,FF,00,DF,
4422299,000003A4,false,Rx,0,8,00,00,00,00,00,00,00,00,
4422544,000003B7,false,Rx,0,8,00,00,00,00,00,0B,8A,41,
4422798,00000491,false,Rx,0,8,00,00,00,00,00,00,00,00,
4456200,00000297,false,Tx,0,8,01,03,E0,00,C3,11,A5,95,
4468770,0000019C,false,Tx,0,8,06,A0,26,9F,7F,FF,0B,7F,
4479140,0000019C,false,Tx,0,8,06,A0,26,9F,7F,FE,0C,7F,
4507838,0000019C,false,Tx,0,8,06,A0,26,9F,7F,FF,0F,7F,
4510183,00000297,false,Tx,0,8,00,03,00,00,00,00,20,00,
4527382,0000019C,false,Tx,0,8,06,A0,26,9F,7F,FE,01,7F,
4521088,0000039F,false,Rx,0,8,4D,63,00,00,00,96,0A,B2,
4521338,00000323,false,Rx,0,8,00,00,00,00,00,00,D8,97,
4521608,00000324,false,Rx,0,8,70,46,09,54,55,00,00,7B,
4521876,0000033B,false,Rx,0,8,80,00,00,59,00,00,00,00,
4522121,0000033D,false,Rx,0,8,00,00,60,20,00,18,00,40,
4522369,000003A2,false,Rx,0,8,21,66,00,68,03,FF,00,D3,
4522622,000003A4,false,Rx,0,8,00,00,00,00,00,00,00,00,
4522868,000003B7,false,Rx,0,8,00,00,00,00,00,0C,73,41,
4523114,00000491,false,Rx,0,8,00,00,00,00,00,00,00,00,
4538865,0000019C,false,Tx,0,8,06,A0,26,9F,7F,FF,02,7F,
4551517,0000033F,false,Tx,0,8,00,00,00,00,28,00,00,48,
4562983,00000297,false,Tx,0,8,00,03,00,00,00,00,20,00,
4579147,0000019C,false,Tx,0,8,06,A0,26,9F,7F,FF,06,7F,
4605329,00000297,false,Tx,0,8,01,03,E0,00,C3,11,A8,98,
4618086,0000019C,false,Tx,0,8,06,A0,26,9F,7F,FE,0A,7F,
4628489,0000019C,false,Tx,0,8,06,A0,26,9F,7F,FE,0B,7F,
4621261,0000039F,false,Rx,0,8,4D,63,00,00,00,96,0B,B3,
4621516,00000323,false,Rx,0,8,00,00,00,00,00,00,D8,97,
4621762,00000324,false,Rx,0,8,70,46,09,54,55,00,00,7B,
4622008,0000033B,false,Rx,0,8,80,00,00,59,00,00,00,00,
4622254,0000033D,false,Rx,0,8,00,00,60,20,00,18,00,40,
4622508,000003A2,false,Rx,0,8,21,66,00,6C,03,FF,00,D7,
4622754,000003A4,false,Rx,0,8,00,00,00,00,00,00,00,00,
4623000,000003B7,false,Rx,0,8,00,00,00,00,00,0D,3F,41,
4623245,00000491,false,Rx,0,8,00,00,00,00,00,00,00,00,
4640019,0000019C,false,Tx,0,8,06,A0,26,9F,7F,FE,0C,7F,
4668824,0000019C,false,Tx,0,8,06,A0,26,9F,7F,FE,0F,7F,
4679087,0000019C,false,Tx,0,8,06,A0,26,9F,7F,FF,00,7F,
4705070,00000297,false,Tx,0,8,01,03,E0,00,C3,11,AA,9A,
4718807,0000019C,false,Tx,0,8,06,A0,26,9F,7F,FF,04,7F,
4729155,0000019C,false,Tx,0,8,06,A0,26,9F,7F,FF,05,7F,
4721601,0000039F,false,Rx,0,8,4D,63,00,00,00,96,0C,B4,
4721851,00000323,false,Rx,0,8,00,00,00,00,00,00,D8,97,
4722097,00000324,false,Rx,0,8,70,46,09,54,55,00,00,7B,
4722346,0000033B,false,Rx,0,8,80,00,00,59,00,00,00,00,
4722593,0000033D,false,Rx,0,8,00,00,60,20,00,18,00,40,
4722839,000003A2,false,Rx,0,8,21,66,00,70,03,FF,00,CB,
4723085,000003A4,false,Rx,0,8,00,00,00,00,00,00,00,00,
4723333,000003B7,false,Rx,0,8,00,00,00,00,00,0E,EB,41,
4723586,00000491,false,Rx,0,8,00,00,00,00,00,00,00,00,
4738361,0000019C,false,Tx,0,8,06,A0,26,9F,7F,FE,06,7F,
4752148,0000033F,false,Tx,0,8,00,00,00,00,28,00,00,48,
4762505,00000297,false,Tx,0,8,00,03,00,00,00,00,20,00,
4811771,00000297,false,Tx,0,8,00,03,00,00,00,00,20,00,
4827912,0000019C,false,Tx,0,8,06,A0,26,9F,7F,FF,0F,7F,
4822006,0000039F,false,Rx,0,8,4D,63,00,00,00,96,0D,B5,
4822255,00000323,false,Rx,0,8,00,00,00,00,00,00,D8,97,
4822511,00000324,false,Rx,0,8,70,46,09,54,55,00,00,7B,
4822755,0000033B,false,Rx,0,8,80,00,00,59,00,00,00,00,
4823001,0000033D,false,Rx,0,8,00,00,60,20,00,18,00,40,
4823246,000003A2,false,Rx,0,8,21,66,00,74,03,FF,00,CF,
4823504,000003A4,false,Rx,0,8,00,00,00,00,00,00,00,00,
4823749,000003B7,false,Rx,0,8,00,00,00,00,00,00,04,41,
4823996,00000491,false,Rx,0,8,00,00,00,00,00,00,00,00,
4848596,0000019C,false,Tx,0,8,06,A0,26,9F,7F,FE,01,7F,
4852164,0000033F,false,Tx,0,8,00,00,00,00,28,00,00,48,
4859124,0000019C,false,Tx,0,8,06,A0,26,9F,7F,FF,02,7F,
4868367,0000019C,false,Tx,0,8,06,A0,26,9F,7F,FE,03,7F,
4919872,0000019C,false,Tx,0,8,06,A0,26,9F,7F,FF,08,7F,
4929001,0000019C,false,Tx,0,8,06,A0,26,9F,7F,FF,09,7F,
4922375,0000039F,false,Rx,0,8,4D,63,00,00,00,96,0E,B6,
4922631,00000323,false,Rx,0,8,00,00,00,00,00,00,00,00,
4922878,00000324,false,Rx,0,8,70,46,09,54,55,00,00,7B,
4923123,0000033B,false,Rx,0,8,80,00,00,59,00,00,00,00,
4923372,0000033D,false,Rx,0,8,00,00,60,20,00,18,00,40,
4923623,000003A2,false,Rx,0,8,21,66,00,78,03,FF,00,C3,
4923869,000003A4,false,Rx,0,8,00,00,00,00,00,00,00,00,
4924115,000003B7,false,Rx,0,8,00,00,00,00,00,01,48,41,
4924364,00000491,false,Rx,0,8,00,00,00,00,00,00,00,00,
4968705,0000019C,false,Tx,0,8,06,A0,26,9F,7F,FF,0D,7F,
4980209,0000019C,false,Tx,0,8,06,A0,26,9F,7F,FE,0E,7F,
4999710,0000019C,false,Tx,0,8,06,A0,26,9F,7F,FF,00,7F,
5020097,0000019C,false,Tx,0,8,06,A0,26,9F,7F,FE,02,7F,
5029320,0000019C,false,Tx,0,8,06,A0,26,A0,7F,FE,03,7F,
5022637,0000039F,false,Rx,0,8,4D,63,00,00,00,96,0F,B7,
5022886,00000323,false,Rx,0,8,00,00,00,00,00,00,00,00,
5023132,00000324,false,Rx,0,8,70,46,09,54,55,00,00,7B,
5023382,0000033B,false,Rx,0,8,80,00,00,59,00,00,00,00,
5023635,0000033D,false,Rx,0,8,00,00,60,20,00,18,00,40,
5023880,000003A2,false,Rx,0,8,21,66,00,7C,03,FF,00,C7,
5024127,000003A4,false,Rx,0,8,00,00,00,00,00,00,00,00,
5024376,000003B7,false,Rx,0,8,00,00,00,00,00,02,9C,41,
5024627,00000491,false,Rx,0,8,00,00,00,00,00,00,00,00,
5053172,0000033F,false,Tx,0,8,00,00,00,00,28,00,00,48,
5056653,00000297,false,Tx,0,8,01,03,E0,00,C3,11,A1,91,
5111115,00000297,false,Tx,0,8,00,03,00,00,00,00,20,00,
5119071,0000019C,false,Tx,0,8,06,A0,26,9F,7F,FF,0C,7F,
5129275,0000019C,false,Tx,0,8,06,A0,26,9F,7F,FF,0D,7F,
5122916,0000039F,false,Rx,0,8,4D,63,00,00,00,96,00,B8,
5123166,00000323,false,Rx,0,8,00,00,00,00,00,00,00,00,
5123420,00000324,false,Rx,0,8,70,46,09,54,55,00,00,7B,
5123666,0000033B,false,Rx,0,8,80,00,00,59,00,00,00,00,
5123912,0000033D,false,Rx,0,8,00,00,60,20,00,18,00,40,
5124158,000003A2,false,Rx,0,8,21,66,00,40,03,FF,00,FB,
5124406,000003A4,false,Rx,0,8,00,00,00,00,00,00,00,00,
5124659,000003B7,false,Rx,0,8,00,00,00,00,00,03,D0,41,
5124905,00000491,false,Rx,0,8,00,00,00,00,00,00,00,00,
5200725,0000019C,false,Tx,0,8,06,A0,26,9F,7F,FF,04,7F,
5227953,0000019C,false,Tx,0,8,06,A0,26,A0,7F,FE,07,7F,
5223072,0000039F,false,Rx,0,8,4D,63,00,00,00,96,01,B9,
5223328,00000323,false,Rx,0,8,00,00,00,00,00,00,00,00,
5223580,00000324,false,Rx,0,8,70,46,09,54,55,00,00,7B,
5223826,0000033B,false,Rx,0,8,80,00,00,59,00,00,00,00,
5224072,0000033D,false,Rx,0,8,00,00,60,20,00,18,00,40,
5224323,000003A2,false,Rx,0,8,21,66,00,44,03,FF,00,FF,
5224575,000003A4,false,Rx,0,8,00,00,00,00,00,00,00,00,
5224822,000003B7,false,Rx,0,8,00,00,00,00,00,04,29,41,
5225066,00000491,false,Rx,0,8,00,00,00,00,00,00,00,00,
5258780,0000019C,false,Tx,0,8,06,A0,26,9F,7F,FF,0A,7F,
5309266,0000019C,false,Tx,0,8,06,A0,26,9F,7F,FF,0F,7F,
5329658,0000019C,false,Tx,0,8,06,A0,26,9F,7F,FF,01,7F,
5323561,0000039F,false,Rx,0,8,4D,63,00,00,00,96,02,BA,
5323810,00000323,false,Rx,0,8,00,00,00,00,00,00,00,00,
5323854,00000324,false,Rx,0,8,70,46,0E,54,55,00,00,7B,
5324292,0000033B,false,Rx,0,8,80,00,00,59,00,00,00,00,
5324580,0000033D,false,Rx,0,8,00,00,60,20,00,18,00,40,
5324590,000003A2,false,Rx,0,8,21,66,00,48,03,FF,00,F3,
5324831,000003A4,false,Rx,0,8,00,00,00,00,00,00,00,00,
5325078,000003B7,false,Rx,0,8,00,00,00,00,00,05,65,41,
5325326,00000491,false,Rx,0,8,00,00,00,00,00,00,00,00,
5338863,0000019C,false,Tx,0,8,06,A0,26,9F,7F,FE,02,7F,
5399234,0000019C,false,Tx,0,8,06,A0,26,9F,7F,FF,08,7F,
5409522,0000019C,false,Tx,0,8,06,A0,26,9F,7F,FF,09,7F,
5428818,0000019C,false,Tx,0,8,06,A0,26,9F,7F,FE,0B,7F,
5423864,0000039F,false,Rx,0,8,4D,63,00,00,00,96,03,BB,
5424114,00000323,false,Rx,0,8,00,00,00,00,00,00,D8,97,
5424363,00000324,false,Rx,0,8,70,46,09,54,55,00,00,7B,
5424616,0000033B,false,Rx,0,8,80,00,00,59,00,00,00,00,
5424861,0000033D,false,Rx,0,8,00,00,60,20,00,18,00,40,
5425108,000003A2,false,Rx,0,8,21,66,00,4C,03,FF,00,F7,
5425357,000003A4,false,Rx,0,8,00,00,00,00,00,00,00,00,
5425609,000003B7,false,Rx,0,8,00,00,00,00,00,06,B1,41,
5425855,00000491,false,Rx,0,8,00,00,00,00,00,00,00,00,
5440176,0000019C,false,Tx,0,8,06,A0,26,A0,7F,FE,0C,7F,
5453869,0000033F,false,Tx,0,8,00,00,00,00,28,00,00,48,
5512061,00000297,false,Tx,0,8,00,03,00,00,00,00,20,00,
5529347,0000019C,false,Tx,0,8,06,A0,26,9F,7F,FE,05,7F,
5524190,0000039F,false,Rx,0,8,4D,63,00,00,00,96,04,BC,
5524447,00000323,false,Rx,0,8,00,00,00,00,00,00,D8,97,
5524694,00000324,false,Rx,0,8,70,46,09,54,55,00,00,7B,
5524939,0000033B,false,Rx,0,8,80,00,00,59,00,00,00,00,
5525185,0000033D,false,Rx,0,8,02,5C,60,20,00,18,00,40,
5525439,000003A2,false,Rx,0,8,21,66,00,50,03,FF,00,EB,
5525686,000003A4,false,Rx,0,8,00,00,00,00,00,00,00,00,
5525931,000003B7,false,Rx,0,8,00,00,00,00,00,07,FD,41,
5526178,00000491,false,Rx,0,8,00,00,00,00,00,00,00,00,
5539722,0000019C,false,Tx,0,8,06,A0,26,9F,7F,FE,06,7F,
5553549,0000033F,false,Tx,0,8,00,00,00,00,28,00,00,48,
5563905,00000297,false,Tx,0,8,00,03,00,00,00,00,20,00,
5581130,0000019C,false,Tx,0,8,06,A0,26,9F,7F,FE,0A,7F,
5606380,00000297,false,Tx,0,8,01,03,E0,00,C3,11,AC,9C,
5612164,00000297,false,Tx,0,8,00,03,00,00,00,00,20,00,
5620286,0000019C,false,Tx,0,8,06,A0,26,9F,7F,FE,0E,7F,
5630642,0000019C,false,Tx,0,8,06,A0,26,9F,7F,FE,0F,7F,
5624588,0000039F,false,Rx,0,8,4D,63,00,00,00,96,05,BD,
5624871,00000323,false,Rx,0,8,00,00,00,00,00,00,D8,97,
5624881,00000324,false,Rx,0,8,70,46,09,54,55,00,00,7B,
5625124,0000033B,false,Rx,0,8,80,00,00,59,00,00,00,00,
5625371,0000033D,false,Rx,0,8,02,5C,60,20,00,18,00,40,
5625624,000003A2,false,Rx,0,8,21,66,00,54,03,FF,00,EF,
5625870,000003A4,false,Rx,0,8,00,00,00,00,00,00,00,00,
5626117,000003B7,false,Rx,0,8,00,00,00,00,00,08,5E,41,
5626364,00000491,false,Rx,0,8,00,00,00,00,00,00,00,00,
5663758,00000297,false,Tx,0,8,00,03,00,00,00,00,20,00,
5680800,0000019C,false,Tx,0,8,06,A0,26,9F,7F,FE,04,7F,
5688759,0000019C,false,Tx,0,8,06,A0,26,9F,7F,FF,05,7F,
5707009,00000297,false,Tx,0,8,01,03,E0,00,C3,11,AE,9E,
5728780,0000019C,false,Tx,0,8,06,A0,26,9F,7F,FE,09,7F,
5724997,0000039F,false,Rx,0,8,4D,63,00,00,00,96,06,BE,
5725246,00000323,false,Rx,0,8,00,00,00,00,00,00,D8,97,
5725504,00000324,false,Rx,0,8,70,46,09,54,55,00,00,7B,
5725803,0000033B,false,Rx,0,8,80,00,00,59,00,00,00,00,
5725814,0000033D,false,Rx,0,8,02,6E,60,20,00,18,00,40,
5726092,000003A2,false,Rx,0,8,21,66,00,58,03,FF,00,E3,
5726383,000003A4,false,Rx,0,8,00,00,00,00,00,00,00,00,
5726636,000003B7,false,Rx,0,8,00,00,00,00,00,09,12,41,
5726880,00000491,false,Rx,0,8,00,00,00,00,00,00,00,00,
5763104,00000297,false,Tx,0,8,00,03,00,00,00,00,20,00,
5781490,0000019C,false,Tx,0,8,06,A0,26,9F,7F,FF,0E,7F,
5801025,0000019C,false,Tx,0,8,06,A0,26,9F,7F,FF,00,7F,
5830958,0000019C,false,Tx,0,8,06,A0,26,9F,7F,FF,03,7F,
5825097,0000039F,false,Rx,0,8,4D,63,00,00,00,96,07,BF,
5825349,00000323,false,Rx,0,8,00,00,00,00,00,00,D8,97,
5825608,00000324,false,Rx,0,8,70,46,09,54,55,00,00,7B,
5825868,0000033B,false,Rx,0,8,80,00,00,59,00,00,00,00,
5826128,0000033D,false,Rx,0,8,02,6E,60,20,00,18,00,40,
5826380,000003A2,false,Rx,0,8,21,66,00,5C,03,FF,00,E7,
5826630,000003A4,false,Rx,0,8,00,00,00,00,00,00,00,00,
5826877,000003B7,false,Rx,0,8,00,00,00,00,00,0A,C6,41,
5827121,00000491,false,Rx,0,8,00,00,00,00,00,00,00,00,
5880315,0000019C,false,Tx,0,8,06,A0,26,9F,7F,FF,08,7F,
5899895,0000019C,false,Tx,0,8,06,A0,26,9F,7F,FE,0A,7F,
5909267,0000019C,false,Tx,0,8,06,A0,26,9F,7F,FF,0B,7F,
5929844,0000019C,false,Tx,0,8,06,A0,26,9F,7F,FE,0D,7F,
5925390,0000039F,false,Rx,0,8,4D,63,00,00,00,96,08,B0,
5925645,00000323,false,Rx,0,8,00,00,00,00,00,00,00,00,
5925891,00000324,false,Rx,0,8,70,46,09,54,55,00,00,7B,
5926135,0000033B,false,Rx,0,8,80,00,00,59,00,00,00,00,
5926179,0000033D,false,Rx,0,8,02,6E,60,20,00,18,00,40,
5926428,000003A2,false,Rx,0,8,21,66,00,60,03,FF,00,DB,
5926673,000003A4,false,Rx,0,8,00,00,00,00,00,00,00,00,
5926920,000003B7,false,Rx,0,8,00,00,00,00,00,0B,8A,41,
5927165,00000491,false,Rx,0,8,00,00,00,00,00,00,00,00,
5941206,0000019C,false,Tx,0,8,06,A0,26,9F,7F,FE,0E,7F,
5950296,0000019C,false,Tx,0,8,06,A0,26,9F,7F,FE,0F,7F,
5957120,00000297,false,Tx,0,8,01,03,E0,00,C3,11,A3,93,
5970836,0000019C,false,Tx,0,8,06,A0,26,9F,7F,FE,01,7F,
5981237,0000019C,false,Tx,0,8,06,A0,26,9F,7F,FF,02,7F,
5990459,0000019C,false,Tx,0,8,06,A0,26,9F,7F,FF,03,7F,
6031460,0000019C,false,Tx,0,8,06,A0,26,A0,7F,FE,07,7F,
6025791,0000039F,false,Rx,0,8,4D,63,00,00,00,96,09,B1,
6026041,00000323,false,Rx,0,8,00,00,00,00,00,00,00,00,
6026290,00000324,false,Rx,0,8,70,46,09,54,55,00,00,7B,
6026543,0000033B,false,Rx,0,8,80,00,00,59,00,00,00,00,
6026789,0000033D,false,Rx,0,8,02,6E,60,20,00,18,00,40,
6027036,000003A2,false,Rx,0,8,21,66,00,64,03,FF,00,DF,
6027285,000003A4,false,Rx,0,8,00,00,00,00,00,00,00,00,
6027538,000003B7,false,Rx,0,8,00,00,00,00,00,0C,73,41,
6027783,00000491,false,Rx,0,8,00,00,00,00,00,00,00,00,
6054376,0000033F,false,Tx,0,8,00,00,00,00,28,00,00,48,
6080908,0000019C,false,Tx,0,8,06,A0,26,9F,7F,FE,0C,7F,
6101594,0000019C,false,Tx,0,8,06,A0,26,9F,7F,FF,0E,7F,
6109680,0000019C,false,Tx,0,8,06,A0,26,9F,7F,FE,0F,7F,
6112037,00000297,false,Tx,0,8,00,03,00,00,00,00,20,00,
6130454,0000019C,false,Tx,0,8,06,A0,26,9F,7F,FF,01,7F,
6125982,0000039F,false,Rx,0,8,4D,63,00,00,00,96,0A,B2,
6126229,00000323,false,Rx,0,8,00,00,00,00,00,00,00,00,
6126481,00000324,false,Rx,0,8,70,46,09,54,54,00,00,7B,
6126726,0000033B,false,Rx,0,8,80,00,00,59,00,00,00,00,
6126972,0000033D,false,Rx,0,8,02,6E,60,20,00,18,00,40,
6127218,000003A2,false,Rx,0,8,21,66,00,68,03,FF,00,D3,
6127473,000003A4,false,Rx,0,8,00,00,00,00,00,00,00,00,
6127719,000003B7,false,Rx,0,8,00,00,00,00,00,0D,3F,41,
6127966,00000491,false,Rx,0,8,00,00,00,00,00,00,00,00,
6151222,0000019C,false,Tx,0,8,06,A0,26,A0,7F,FF,03,7F,
6158247,00000297,false,Tx,0,8,01,03,E0,00,C3,11,A7,97,
6164008,00000297,false,Tx,0,8,00,03,00,00,00,00,20,00,
6181075,0000019C,false,Tx,0,8,06,A0,26,9F,7F,FF,06,7F,
6191300,0000019C,false,Tx,0,8,06,A0,26,9F,7F,FE,07,7F,
6207221,00000297,false,Tx,0,8,01,03,E0,00,C3,11,A8,98,
6219914,0000019C,false,Tx,0,8,06,A0,26,9F,7F,FF,0A,7F,
6230279,0000019C,false,Tx,0,8,06,A0,26,9F,7F,FF,0B,7F,
6226124,0000039F,false,Rx,0,8,4D,63,00,00,00,96,0B,B3,
6226375,00000323,false,Rx,0,8,00,00,00,00,00,00,00,00,
6226629,00000324,false,Rx,0,8,70,46,09,54,54,00,00,7B,
6226874,0000033B,false,Rx,0,8,80,00,00,59,00,00,00,00,
6227155,0000033D,false,Rx,0,8,02,6E,60,20,00,18,00,40,
6227164,000003A2,false,Rx,0,8,21,66,00,6C,03,FF,00,D7,
6227608,000003A4,false,Rx,0,8,00,00,00,00,00,00,00,00,
6227853,000003B7,false,Rx,0,8,00,00,00,00,00,0E,EB,41,
6228099,00000491,false,Rx,0,8,00,00,00,00,00,00,00,00,
6249799,0000019C,false,Tx,0,8,06,A0,26,9F,7F,FE,0D,7F,
6281867,0000019C,false,Tx,0,8,06,A0,26,9F,7F,FE,00,7F,
6330116,0000019C,false,Tx,0,8,06,A0,26,9F,7F,FE,05,7F,
6326375,0000039F,false,Rx,0,8,4D,63,00,00,00,96,0C,B4,
6326632,00000323,false,Rx,0,8,00,00,00,00,00,00,00,00,
6326878,00000324,false,Rx,0,8,70,46,0E,54,54,00,00,7B,
6327123,0000033B,false,Rx,0,8,80,00,00,59,00,00,00,00,
6327371,0000033D,false,Rx,0,8,02,6E,60,20,00,18,00,40,
6327624,000003A2,false,Rx,0,8,21,66,00,70,03,FF,00,CB,
6327871,000003A4,false,Rx,0,8,00,00,00,00,00,00,00,00,
6328116,000003B7,false,Rx,0,8,00,00,00,00,00,00,04,41,
6328364,00000491,false,Rx,0,8,00,00,00,00,00,00,00,00,
6350843,0000019C,false,Tx,0,8,06,A0,26,9F,7F,FE,07,7F,
6361205,0000019C,false,Tx,0,8,06,A0,26,9F,7F,FF,08,7F,
6371637,0000019C,false,Tx,0,8,06,A0,26,9F,7F,FF,09,7F,
6380971,0000019C,false,Tx,0,8,06,A0,26,9F,7F,FF,0A,7F,
6407352,00000297,false,Tx,0,8,01,03,E0,00,C3,11,AC,9C,
6413204,00000297,false,Tx,0,8,00,03,00,00,00,00,20,00,
6431419,0000019C,false,Tx,0,8,06,A0,26,9F,7F,FE,0F,7F,
6426791,0000039F,false,Rx,0,8,4D,63,00,00,00,96,0D,B5,
6427041,00000323,false,Rx,0,8,00,00,00,00,00,00,D8,97,
6427289,00000324,false,Rx,0,8,70,46,09,54,54,00,00,7B,
6427541,0000033B,false,Rx,0,8,80,00,00,59,00,00,00,00,
6427787,0000033D,false,Rx,0,8,02,6E,60,20,00,18,00,40,
6428034,000003A2,false,Rx,0,8,21,66,00,74,03,FF,00,CF,
6428280,000003A4,false,Rx,0,8,00,00,00,00,00,00,00,00,
6428533,000003B7,false,Rx,0,8,00,00,00,00,00,01,48,41,
6428779,00000491,false,Rx,0,8,00,00,00,00,00,00,00,00,
6450717,0000019C,false,Tx,0,8,06,A0,26,9F,7F,FE,01,7F,
6462063,0000019C,false,Tx,0,8,06,A0,26,9F,7F,FE,02,7F,
6465481,00000297,false,Tx,0,8,00,03,00,00,00,00,20,00,
6472287,0000019C,false,Tx,0,8,06,A0,26,9F,7F,FF,03,7F,
6481399,0000019C,false,Tx,0,8,06,A0,26,9F,7F,FE,04,7F,
6513560,00000297,false,Tx,0,8,00,03,00,00,00,00,20,00,
6521638,0000019C,false,Tx,0,8,06,A0,26,9F,7F,FF,08,7F,
6530860,0000019C,false,Tx,0,8,06,A0,26,9F,7F,FF,09,7F,
6527083,0000039F,false,Rx,0,8,4D,63,00,00,00,96,0E,B6,
6527335,00000323,false,Rx,0,8,00,00,00,00,00,00,D8,97,
6527586,00000324,false,Rx,0,8,70,46,09,54,54,00,00,7B,
6527831,0000033B,false,Rx,0,8,80,00,00,59,00,00,00,00,
6528075,0000033D,false,Rx,0,8,02,6E,60,20,00,18,00,40,
6528119,000003A2,false,Rx,0,8,21,66,00,78,03,FF,00,C3,
6528562,000003A4,false,Rx,0,8,00,00,00,00,00,00,00,00,
6528807,000003B7,false,Rx,0,8,00,00,00,00,00,02,9C,41,
6529053,00000491,false,Rx,0,8,00,00,00,00,00,00,00,00,
6551537,0000019C,false,Tx,0,8,06,A0,26,A0,7F,FF,0B,7F,
6582490,0000019C,false,Tx,0,8,06,A0,26,9F,7F,FE,0E,7F,
6609944,0000019C,false,Tx,0,8,06,A0,26,9F,7F,FF,01,7F,
6621358,0000019C,false,Tx,0,8,06,A0,26,9F,7F,FE,02,7F,
6631342,0000019C,false,Tx,0,8,06,A0,26,9F,7F,FE,03,7F,
6627390,0000039F,false,Rx,0,8,4D,63,00,00,00,96,0F,B7,
6627682,00000323,false,Rx,0,8,00,00,00,00,00,00,D8,97,
6627691,00000324,false,Rx,0,8,70,46,05,54,54,00,00,7B,
6627933,0000033B,false,Rx,0,8,80,00,00,59,00,00,00,00,
6628179,0000033D,false,Rx,0,8,02,6E,60,20,00,18,00,40,
6628432,000003A2,false,Rx,0,8,21,66,00,7C,03,FF,00,C7,
6628679,000003A4,false,Rx,0,8,00,00,00,00,00,00,00,00,
6628924,000003B7,false,Rx,0,8,00,00,00,00,00,03,D0,41,
6629171,00000491,false,Rx,0,8,00,00,00,00,00,00,00,00,
6659054,00000297,false,Tx,0,8,01,03,E0,00,C3,11,A1,91,
6681874,0000019C,false,Tx,0,8,06,A0,26,9F,7F,FE,08,7F,
6690988,0000019C,false,Tx,0,8,06,A0,26,9F,7F,FE,09,7F,
6702344,0000019C,false,Tx,0,8,06,A0,26,9F,7F,FE,0A,7F,
6732097,0000019C,false,Tx,0,8,06,A0,26,9F,7F,FE,0D,7F,
6728034,0000039F,false,Rx,0,8,4D,63,00,00,00,96,00,B8,
6728289,00000323,false,Rx,0,8,00,00,00,00,00,00,D8,97,
6728332,00000324,false,Rx,0,8,70,46,05,54,54,00,00,7B,
6728579,0000033B,false,Rx,0,8,80,00,00,59,00,00,00,00,
6728826,0000033D,false,Rx,0,8,02,6E,60,20,00,18,00,40,
6729083,000003A2,false,Rx,0,8,21,66,00,40,03,FF,00,FB,
6729373,000003A4,false,Rx,0,8,00,00,00,00,00,00,00,00,
6729650,000003B7,false,Rx,0,8,00,00,00,00,00,04,29,41,
6729906,00000491,false,Rx,0,8,00,00,00,00,00,00,00,00,
6751679,0000019C,false,Tx,0,8,06,A0,26,9F,7F,FF,0F,7F,
6755185,0000033F,false,Tx,0,8,00,00,00,00,28,00,00,48,
6760974,0000019C,false,Tx,0,8,06,A0,26,A0,7F,FE,00,7F,
6772469,0000019C,false,Tx,0,8,06,A0,26,A0,7F,FF,01,7F,
6782837,0000019C,false,Tx,0,8,06,A0,26,9F,7F,FE,02,7F,
6792045,0000019C,false,Tx,0,8,06,A0,26,9F,7F,FF,03,7F,
6808135,00000297,false,Tx,0,8,01,03,E0,00,C3,11,A4,94,
6813962,00000297,false,Tx,0,8,00,03,00,00,00,00,20,00,
6823124,0000019C,false,Tx,0,8,06,A0,26,9F,7F,FF,06,7F,
6831169,0000019C,false,Tx,0,8,06,A0,26,9F,7F,FE,07,7F,
6841564,0000019C,false,Tx,0,8,06,A0,26,9F,7F,FF,08,7F,
6828136,0000039F,false,Rx,0,8,4D,63,00,00,00,96,01,B9,
6828386,00000323,false,Rx,0,8,00,00,00,00,00,00,D8,97,
6828640,00000324,false,Rx,0,8,70,46,09,54,54,00,00,7B,
6828886,0000033B,false,Rx,0,8,80,00,00,59,00,00,00,00,
6829133,0000033D,false,Rx,0,8,02,6E,60,20,00,18,00,40,
6829380,000003A2,false,Rx,0,8,21,66,00,44,03,FF,00,FF,
6829633,000003A4,false,Rx,0,8,00,00,00,00,00,00,00,00,
6829879,000003B7,false,Rx,0,8,00,00,00,00,00,05,65,41,
6830125,00000491,false,Rx,0,8,00,00,00,00,00,00,00,00,
6850820,0000019C,false,Tx,0,8,06,A0,26,9F,7F,FF,09,7F,
6855394,0000033F,false,Tx,0,8,00,00,00,00,28,00,00,48,
6862265,0000019C,false,Tx,0,8,06,A0,26,9F,7F,FF,0A,7F,
6908230,00000297,false,Tx,0,8,01,03,E0,00,C3,11,A6,96,
6921921,0000019C,false,Tx,0,8,06,A0,26,9F,7F,FE,00,7F,
6932163,0000019C,false,Tx,0,8,06,A0,26,9F,7F,FE,01,7F,
6928392,0000039F,false,Rx,0,8,4D,63,00,00,00,96,02,BA,
6928648,00000323,false,Rx,0,8,00,00,00,00,00,00,00,00,
6928894,00000324,false,Rx,0,8,70,46,09,54,54,00,00,7B,
6929138,0000033B,false,Rx,0,8,80,00,00,59,00,00,00,00,
6929387,0000033D,false,Rx,0,8,02,6E,60,20,00,18,00,40,
6929640,000003A2,false,Rx,0,8,21,66,00,48,03,FF,00,F3,
6929886,000003A4,false,Rx,0,8,00,00,00,00,00,00,00,00,
6930131,000003B7,false,Rx,0,8,00,00,00,00,00,06,B1,41,
6930380,00000491,false,Rx,0,8,00,00,00,00,00,00,00,00,
6952577,0000019C,false,Tx,0,8,06,A0,26,9F,7F,FF,03,7F,
6983392,0000019C,false,Tx,0,8,06,A0,26,9F,7F,FF,06,7F,
6991489,0000019C,false,Tx,0,8,06,A0,26,9F,7F,FF,07,7F,
7001867,0000019C,false,Tx,0,8,06,A0,26,9F,7F,FE,08,7F,
7011076,0000019C,false,Tx,0,8,06,A0,26,9F,7F,FF,09,7F,
7031709,0000019C,false,Tx,0,8,06,A0,26,9F,7F,FF,0B,7F,
7042090,0000019C,false,Tx,0,8,06,A0,26,9F,7F,FF,0C,7F,
7028572,0000039F,false,Rx,0,8,4D,63,00,00,00,96,03,BB,
7028821,00000323,false,Rx,0,8,00,00,00,00,00,00,00,00,
7029066,00000324,false,Rx,0,8,70,46,09,54,54,00,00,7B,
7029351,0000033B,false,Rx,0,8,80,00,00,59,00,00,00,00,
7029360,0000033D,false,Rx,0,8,02,6E,60,20,00,18,00,40,
7029609,000003A2,false,Rx,0,8,21,66,00,4C,03,FF,00,F7,
7029854,000003A4,false,Rx,0,8,00,00,00,00,00,00,00,00,
7030101,000003B7,false,Rx,0,8,00,00,00,00,00,07,FD,41,
7030349,00000491,false,Rx,0,8,00,00,00,00,00,00,00,00,
7073060,0000019C,false,Tx,0,8,06,A0,26,9F,7F,FF,0F,7F,
7083423,0000019C,false,Tx,0,8,06,A0,26,9F,7F,FF,00,7F,
7109755,00000297,false,Tx,0,8,01,03,E0,00,C3,11,AA,9A,
7122444,0000019C,false,Tx,0,8,06,A0,26,9F,7F,FE,04,7F,
7131716,0000019C,false,Tx,0,8,06,A0,26,9F,7F,FF,05,7F,
7142158,0000019C,false,Tx,0,8,06,A0,26,9F,7F,FE,06,7F,
7129056,0000039F,false,Rx,0,8,4D,63,00,00,00,96,04,BC,
7129309,00000323,false,Rx,0,8,00,00,00,00,00,00,00,00,
7129561,00000324,false,Rx,0,8,70,46,09,54,54,00,00,7B,
7129808,0000033B,false,Rx,0,8,80,00,00,59,00,00,00,00,
7130054,0000033D,false,Rx,0,8,02,6E,60,20,00,18,00,40,
7130302,000003A2,false,Rx,0,8,21,66,00,50,03,FF,00,EB,
7130555,000003A4,false,Rx,0,8,00,00,00,00,00,00,00,00,
7130801,000003B7,false,Rx,0,8,00,00,00,00,00,08,5E,41,
7131047,00000491,false,Rx,0,8,00,00,00,00,00,00,00,00,
7159841,00000297,false,Tx,0,8,01,03,E0,00,C3,11,AB,9B,
7163428,0000019C,false,Tx,0,8,06,A0,26,9F,7F,FF,08,7F,
7165761,00000297,false,Tx,0,8,00,03,00,00,00,00,20,00,
7171475,0000019C,false,Tx,0,8,06,A0,26,9F,7F,FE,09,7F,
7182828,0000019C,false,Tx,0,8,06,A0,26,9F,7F,FE,0A,7F,
7191911,0000019C,false,Tx,0,8,06,A0,26,9F,7F,FF,0B,7F,
7202140,0000019C,false,Tx,0,8,06,A0,26,9F,7F,FF,0C,7F,
7209004,00000297,false,Tx,0,8,01,03,E0,00,C3,11,AC,9C,
7233073,0000019C,false,Tx,0,8,06,A0,26,9F,7F,FE,0F,7F,
7229541,0000039F,false,Rx,0,8,4D,63,00,00,00,96,05,BD,
7229824,00000323,false,Rx,0,8,00,00,00,00,00,00,00,00,
7229834,00000324,false,Rx,0,8,70,46,09,54,54,00,00,7B,
7230075,0000033B,false,Rx,0,8,80,00,00,59,00,00,00,00,
7230324,0000033D,false,Rx,0,8,02,6E,60,20,00,18,00,40,
7230576,000003A2,false,Rx,0,8,21,66,00,54,03,FF,00,EF,
7230821,000003A4,false,Rx,0,8,00,00,00,00,00,00,00,00,
7231067,000003B7,false,Rx,0,8,00,00,00,00,00,09,12,41,
7231316,00000491,false,Rx,0,8,00,00,00,00,00,00,00,00,
7252633,0000019C,false,Tx,0,8,06,A0,26,9F,7F,FE,01,7F,
7256124,0000033F,false,Tx,0,8,00,00,00,00,28,00,00,48,
7263038,0000019C,false,Tx,0,8,06,A0,26,9F,7F,FF,02,7F,
7265362,00000297,false,Tx,0,8,00,03,00,00,00,00,20,00,
7282561,0000019C,false,Tx,0,8,06,A0,26,9F,7F,FF,04,7F,
7312367,0000019C,false,Tx,0,8,06,A0,26,9F,7F,FF,07,7F,
7322736,0000019C,false,Tx,0,8,06,A0,26,9F,7F,FF,08,7F,
7332057,0000019C,false,Tx,0,8,06,A0,26,9F,7F,FE,09,7F,
7342355,0000019C,false,Tx,0,8,06,A0,26,9F,7F,FE,0A,7F,
7329897,0000039F,false,Rx,0,8,4D,63,00,00,00,96,06,BE,
7330202,00000323,false,Rx,0,8,00,00,00,00,00,00,00,00,
7330213,00000324,false,Rx,0,8,70,46,0E,54,54,00,00,7B,
7330471,0000033B,false,Rx,0,8,80,00,00,59,00,00,00,00,
7330717,0000033D,false,Rx,0,8,02,6E,60,20,00,18,00,40,
7330962,000003A2,false,Rx,0,8,21,66,00,58,03,FF,00,E3,
7331209,000003A4,false,Rx,0,8,00,00,00,00,00,00,00,00,
7331462,000003B7,false,Rx,0,8,00,00,00,00,00,0A,C6,41,
7331709,00000491,false,Rx,0,8,00,00,00,00,00,00,00,00,
7351632,0000019C,false,Tx,0,8,06,A0,26,9F,7F,FE,0B,7F,
7366622,00000297,false,Tx,0,8,00,03,00,00,00,00,20,00,
7382874,0000019C,false,Tx,0,8,06,A0,26,9F,7F,FE,0E,7F,
7411853,0000019C,false,Tx,0,8,06,A0,26,9F,7F,FE,01,7F,
7432377,0000019C,false,Tx,0,8,06,A0,26,9F,7F,FF,03,7F,
7429963,0000039F,false,Rx,0,8,4D,63,00,00,00,96,07,BF,
7430213,00000323,false,Rx,0,8,00,00,00,00,00,00,D8,97,
7430470,00000324,false,Rx,0,8,70,46,13,54,54,00,00,7B,
7430716,0000033B,false,Rx,0,8,80,00,00,59,00,00,00,00,
7430962,0000033D,false,Rx,0,8,02,6E,60,20,00,18,00,40,
7431209,000003A2,false,Rx,0,8,21,66,00,5C,03,FF,00,E7,
7431462,000003A4,false,Rx,0,8,00,00,00,00,00,00,00,00,
7431709,000003B7,false,Rx,0,8,00,00,00,00,00,0B,8A,41,
7431963,00000491,false,Rx,0,8,00,00,00,00,00,00,00,00,
7473305,0000019C,false,Tx,0,8,06,A0,26,9F,7F,FE,07,7F,
7482559,0000019C,false,Tx,0,8,06,A0,26,9F,7F,FF,08,7F,
7502091,0000019C,false,Tx,0,8,06,A0,26,9F,7F,FE,0A,7F,
7513606,0000019C,false,Tx,0,8,06,A0,26,9F,7F,FF,0B,7F,
7514807,00000297,false,Tx,0,8,00,03,00,00,00,00,20,00,
7524019,0000019C,false,Tx,0,8,06,A0,26,9F,7F,FF,0C,7F,
7533225,0000019C,false,Tx,0,8,06,A0,26,9F,7F,FE,0D,7F,
7530454,0000039F,false,Rx,0,8,4D,63,00,00,00,96,08,B0,
7530702,00000323,false,Rx,0,8,00,00,00,00,00,00,D8,97,
7530746,00000324,false,Rx,0,8,70,46,05,54,54,00,00,7B,
7530987,0000033B,false,Rx,0,8,80,00,00,59,00,00,00,00,
7531234,0000033D,false,Rx,0,8,02,6E,60,20,00,18,00,40,
7531486,000003A2,false,Rx,0,8,21,66,00,60,03,FF,00,DB,
7531733,000003A4,false,Rx,0,8,00,00,00,00,00,00,00,00,
7531979,000003B7,false,Rx,0,8,00,00,00,00,00,0C,73,41,
7532225,00000491,false,Rx,0,8,00,00,00,00,00,00,00,00,
7572246,0000019C,false,Tx,0,8,06,A0,26,9F,7F,FF,01,7F,
7582674,0000019C,false,Tx,0,8,06,A0,26,9F,7F,FE,02,7F,
7622601,0000019C,false,Tx,0,8,06,A0,26,9F,7F,FE,06,7F,
7631763,0000019C,false,Tx,0,8,06,A0,26,9F,7F,FE,07,7F,
7643278,0000019C,false,Tx,0,8,06,A0,26,9F,7F,FF,08,7F,
7630734,0000039F,false,Rx,0,8,4D,63,00,00,00,96,09,B1,
7630983,00000323,false,Rx,0,8,00,00,00,00,00,00,D8,97,
7631283,00000324,false,Rx,0,8,70,46,05,54,54,00,00,7B,
7631293,0000033B,false,Rx,0,8,80,00,00,59,00,00,00,00,
7631566,0000033D,false,Rx,0,8,02,6E,60,20,00,18,00,40,
7631824,000003A2,false,Rx,0,8,21,66,00,64,03,FF,00,DF,
7632070,000003A4,false,Rx,0,8,00,00,00,00,00,00,00,00,
7632318,000003B7,false,Rx,0,8,00,00,00,00,00,0D,3F,41,
7632570,00000491,false,Rx,0,8,00,00,00,00,00,00,00,00,
7653722,0000019C,false,Tx,0,8,06,A0,26,9F,7F,FF,09,7F,
7667626,00000297,false,Tx,0,8,00,03,00,00,00,00,20,00,
7684708,0000019C,false,Tx,0,8,06,A0,26,9F,7F,FE,0C,7F,
7702864,0000019C,false,Tx,0,8,06,A0,26,9F,7F,FF,0E,7F,
7713074,0000019C,false,Tx,0,8,06,A0,26,9F,7F,FF,0F,7F,
7732397,0000019C,false,Tx,0,8,06,A0,26,9F,7F,FF,01,7F,
7742787,0000019C,false,Tx,0,8,06,A0,26,9F,7F,FE,02,7F,
7730657,0000039F,false,Rx,0,8,4D,63,00,00,00,96,0A,B2,
7730907,00000323,false,Rx,0,8,00,00,00,00,00,00,D8,97,
7731153,00000324,false,Rx,0,8,70,46,09,54,54,00,00,7B,
7731407,0000033B,false,Rx,0,8,80,00,00,59,00,00,00,00,
7731658,0000033D,false,Rx,0,8,02,6E,60,20,00,18,00,40,
7731904,000003A2,false,Rx,0,8,21,66,00,68,03,FF,00,D3,
7732150,000003A4,false,Rx,0,8,00,00,00,00,00,00,00,00,
7732397,000003B7,false,Rx,0,8,00,00,00,00,00,0E,EB,41,
7732647,00000491,false,Rx,0,8,00,00,00,00,00,00,00,00,
7760017,00000297,false,Tx,0,8,01,03,E0,00,C3,11,A7,97,
7765805,00000297,false,Tx,0,8,00,03,00,00,00,00,20,00,
7783050,0000019C,false,Tx,0,8,06,A0,26,9F,7F,FE,06,7F,
7792247,0000019C,false,Tx,0,8,06,A0,26,9F,7F,FE,07,7F,
7815197,00000297,false,Tx,0,8,00,03,00,00,00,00,20,00,
7833546,0000019C,false,Tx,0,8,06,A0,26,9F,7F,FE,0B,7F,
7830889,0000039F,false,Rx,0,8,4D,63,00,00,00,96,0B,B3,
7831139,00000323,false,Rx,0,8,00,00,00,00,00,00,D8,97,
7831386,00000324,false,Rx,0,8,70,46,0E,54,54,00,00,7B,
7831640,0000033B,false,Rx,0,8,80,00,00,59,00,00,00,00,
7831886,0000033D,false,Rx,0,8,02,6E,60,20,00,18,00,40,
7832132,000003A2,false,Rx,0,8,21,66,00,6C,03,FF,00,D7,
7832380,000003A4,false,Rx,0,8,00,00,00,00,00,00,00,00,
7832632,000003B7,false,Rx,0,8,00,00,00,00,00,00,04,41,
7832876,00000491,false,Rx,0,8,00,00,00,00,00,00,00,00,
7861030,00000297,false,Tx,0,8,01,03,E0,00,C3,11,A9,99,
7864589,0000019C,false,Tx,0,8,06,A0,26,9F,7F,FF,0E,7F,
7867001,00000297,false,Tx,0,8,00,03,00,00,00,00,20,00,
7884234,0000019C,false,Tx,0,8,06,A0,26,9F,7F,FE,00,7F,
7902455,0000019C,false,Tx,0,8,06,A0,26,9F,7F,FE,02,7F,
7912947,0000019C,false,Tx,0,8,06,A0,26,A0,7F,FF,03,7F,
7923252,0000019C,false,Tx,0,8,06,A0,26,A0,7F,FE,04,7F,
7933485,0000019C,false,Tx,0,8,06,A0,26,9F,7F,FF,05,7F,
7943704,0000019C,false,Tx,0,8,06,A0,26,9F,7F,FE,06,7F,
7931698,0000039F,false,Rx,0,8,4D,63,00,00,00,96,0C,B4,
7931948,00000323,false,Rx,0,8,00,00,00,00,00,00,00,00,
7932193,00000324,false,Rx,0,8,70,46,09,54,54,00,00,7B,
7932449,0000033B,false,Rx,0,8,80,00,00,59,00,00,00,00,
7932694,0000033D,false,Rx,0,8,02,6E,60,20,00,18,00,40,
7932738,000003A2,false,Rx,0,8,21,66,00,70,03,FF,00,CB,
7933170,000003A4,false,Rx,0,8,00,00,00,00,00,00,00,00,
7933423,000003B7,false,Rx,0,8,00,00,00,00,00,01,48,41,
7933669,00000491,false,Rx,0,8,00,00,00,00,00,00,00,00,
7953923,0000019C,false,Tx,0,8,06,A0,26,9F,7F,FE,07,7F,
7960824,00000297,false,Tx,0,8,01,03,E0,00,C3,11,AB,9B,
7966575,00000297,false,Tx,0,8,00,03,00,00,00,00,20,00,
7983821,0000019C,false,Tx,0,8,06,A0,26,9F,7F,FF,0A,7F,
8010240,00000297,false,Tx,0,8,01,03,E0,00,C3,11,AC,9C,
8014866,00000297,false,Tx,0,8,00,03,00,00,00,00,20,00,
8033268,0000019C,false,Tx,0,8,06,A0,26,9F,7F,FF,0F,7F,
8031771,0000039F,false,Rx,0,8,4D,63,00,00,00,96,0D,B5,
8032020,00000323,false,Rx,0,8,00,00,00,00,00,00,00,00,
8032266,00000324,false,Rx,0,8,70,46,0E,54,54,00,00,7B,
8032520,0000033B,false,Rx,0,8,80,00,00,59,00,00,00,00,
8032765,0000033D,false,Rx,0,8,02,6E,60,20,00,18,00,40,
8033010,000003A2,false,Rx,0,8,21,66,00,74,03,FF,00,CF,
8033256,000003A4,false,Rx,0,8,00,00,00,00,00,00,00,00,
8033525,000003B7,false,Rx,0,8,00,00,00,00,00,02,9C,41,
8033797,00000491,false,Rx,0,8,00,00,00,00,00,00,00,00,
8073410,0000019C,false,Tx,0,8,06,A0,26,9F,7F,FE,03,7F,
8104515,0000019C,false,Tx,0,8,06,A0,26,9F,7F,FF,06,7F,
8113805,0000019C,false,Tx,0,8,06,A0,26,9F,7F,FF,07,7F,
8115043,00000297,false,Tx,0,8,00,03,00,00,00,00,20,00,
8124274,0000019C,false,Tx,0,8,06,A0,26,9F,7F,FE,08,7F,
8133499,0000019C,false,Tx,0,8,06,A0,26,9F,7F,FF,09,7F,
8153072,0000019C,false,Tx,0,8,06,A0,26,9F,7F,FF,0B,7F,
8132045,0000039F,false,Rx,0,8,4D,63,00,00,00,96,0E,B6,
8132295,00000323,false,Rx,0,8,00,00,00,00,00,00,00,00,
8132548,00000324,false,Rx,0,8,70,46,09,54,54,00,00,7B,
8132592,0000033B,false,Rx,0,8,80,00,00,59,00,00,00,00,
8132833,0000033D,false,Rx,0,8,02,6E,60,20,00,18,00,40,
8133080,000003A2,false,Rx,0,8,21,66,00,78,03,FF,00,C3,
8133326,000003A4,false,Rx,0,8,00,00,00,00,00,00,00,00,
8133580,000003B7,false,Rx,0,8,00,00,00,00,00,03,D0,41,
8133826,00000491,false,Rx,0,8,00,00,00,00,00,00,00,00,
8163526,0000019C,false,Tx,0,8,06,A0,26,9F,7F,FF,0C,7F,
8167074,00000297,false,Tx,0,8,00,03,00,00,00,00,20,00,
8185358,0000019C,false,Tx,0,8,06,A0,26,9F,7F,FE,0E,7F,
8214872,00000297,false,Tx,0,8,00,03,00,00,00,00,20,00,
8223970,0000019C,false,Tx,0,8,06,A0,26,A0,7F,FF,02,7F,
8234182,0000019C,false,Tx,0,8,06,A0,26,9F,7F,FE,03,7F,
8245518,0000019C,false,Tx,0,8,06,A0,26,9F,7F,FE,04,7F,
8232528,0000039F,false,Rx,0,8,4D,63,00,00,00,96,0F,B7,
8232777,00000323,false,Rx,0,8,00,00,00,00,00,00,00,00,
8233023,00000324,false,Rx,0,8,70,46,0E,54,54,00,00,7B,
8233267,0000033B,false,Rx,0,8,80,00,00,59,00,00,00,00,
8233520,0000033D,false,Rx,0,8,02,6E,60,20,00,18,00,40,
8233766,000003A2,false,Rx,0,8,21,66,00,7C,03,FF,00,C7,
8234012,000003A4,false,Rx,0,8,00,00,00,00,00,00,00,00,
8234258,000003B7,false,Rx,0,8,00,00,00,00,00,04,29,41,
8234511,00000491,false,Rx,0,8,00,00,00,00,00,00,00,00,
8261369,00000297,false,Tx,0,8,01,03,E0,00,C3,11,A1,91,
8264787,0000019C,false,Tx,0,8,06,A0,26,9F,7F,FE,06,7F,
8284039,0000019C,false,Tx,0,8,06,A0,26,9F,7F,FF,08,7F,
8314588,0000019C,false,Tx,0,8,06,A0,26,9F,7F,FE,0B,7F,
8315842,00000297,false,Tx,0,8,00,03,00,00,00,00,20,00,
8325017,0000019C,false,Tx,0,8,06,A0,26,9F,7F,FF,0C,7F,
8334290,0000019C,false,Tx,0,8,06,A0,26,9F,7F,FE,0D,7F,
8332660,0000039F,false,Rx,0,8,4D,63,00,00,00,96,00,B8,
8332909,00000323,false,Rx,0,8,00,00,00,00,00,00,00,00,
8333155,00000324,false,Rx,0,8,70,46,13,54,54,00,00,7B,
8333401,0000033B,false,Rx,0,8,80,00,00,59,00,00,00,00,
8333654,0000033D,false,Rx,0,8,02,6E,60,20,00,18,00,40,
8333899,000003A2,false,Rx,0,8,21,66,00,40,03,FF,00,FB,
8334146,000003A4,false,Rx,0,8,00,00,00,00,00,00,00,00,
8334396,000003B7,false,Rx,0,8,00,00,00,00,00,05,65,41,
8334648,00000491,false,Rx,0,8,00,00,00,00,00,00,00,00,
8361956,00000297,false,Tx,0,8,01,03,E0,00,C3,11,A3,93,
8374655,0000019C,false,Tx,0,8,06,A0,26,9F,7F,FF,01,7F,
8385061,0000019C,false,Tx,0,8,06,A0,26,9F,7F,FE,02,7F,
8403513,0000019C,false,Tx,0,8,06,A0,26,9F,7F,FE,04,7F,
8416237,00000297,false,Tx,0,8,00,03,00,00,00,00,20,00,
8433321,0000019C,false,Tx,0,8,06,A0,26,9F,7F,FE,07,7F,
8444673,0000019C,false,Tx,0,8,06,A0,26,9F,7F,FE,08,7F,
8433160,0000039F,false,Rx,0,8,4D,63,00,00,00,96,01,B9,
8433419,00000323,false,Rx,0,8,00,00,00,00,00,00,D8,97,
8433666,00000324,false,Rx,0,8,70,46,0E,54,54,00,00,7B,
8433912,0000033B,false,Rx,0,8,80,00,00,59,00,00,00,00,
8434157,0000033D,false,Rx,0,8,02,6E,60,20,00,18,00,40,
8434202,000003A2,false,Rx,0,8,21,66,00,44,03,FF,00,FF,
8434638,000003A4,false,Rx,0,8,00,00,00,00,00,00,00,00,
8434884,000003B7,false,Rx,0,8,00,00,00,00,00,06,B1,41,
8435131,00000491,false,Rx,0,8,00,00,00,00,00,00,00,00,
8454927,0000019C,false,Tx,0,8,06,A0,26,9F,7F,FE,09,7F,
8457226,0000033F,false,Tx,0,8,00,00,00,00,28,00,00,48,
8464068,0000019C,false,Tx,0,8,06,A0,26,9F,7F,FF,0A,7F,
8474405,0000019C,false,Tx,0,8,06,A0,26,9F,7F,FF,0B,7F,
8484803,0000019C,false,Tx,0,8,06,A0,26,9F,7F,FF,0C,7F,
8504263,0000019C,false,Tx,0,8,06,A0,26,9F,7F,FE,0E,7F,
8513461,0000019C,false,Tx,0,8,06,A0,26,9F,7F,FE,0F,7F,
8534132,0000019C,false,Tx,0,8,06,A0,26,9F,7F,FE,01,7F,
8544495,0000019C,false,Tx,0,8,06,A0,26,9F,7F,FF,02,7F,
8533516,0000039F,false,Rx,0,8,4D,63,00,00,00,96,02,BA,
8533765,00000323,false,Rx,0,8,00,00,00,00,00,00,D8,97,
8534011,00000324,false,Rx,0,8,70,46,0E,54,54,00,00,7B,
8534257,0000033B,false,Rx,0,8,80,00,00,59,00,00,00,00,
8534511,0000033D,false,Rx,0,8,02,6E,60,20,00,18,00,40,
8534756,000003A2,false,Rx,0,8,21,66,00,48,03,FF,00,F3,
8535003,000003A4,false,Rx,0,8,00,00,00,00,00,00,00,00,
8535248,000003B7,false,Rx,0,8,00,00,00,00,00,07,FD,41,
8535504,00000491,false,Rx,0,8,00,00,00,00,00,00,00,00,
8554859,0000019C,false,Tx,0,8,06,A0,26,9F,7F,FF,03,7F,
8568636,00000297,false,Tx,0,8,00,03,00,00,00,00,20,00,
8574501,0000019C,false,Tx,0,8,06,A0,26,A0,7F,FE,05,7F,
8584918,0000019C,false,Tx,0,8,06,A0,26,9F,7F,FE,06,7F,
8604549,0000019C,false,Tx,0,8,06,A0,26,9F,7F,FF,08,7F,
8613660,0000019C,false,Tx,0,8,06,A0,26,9F,7F,FE,09,7F,
8625085,0000019C,false,Tx,0,8,06,A0,26,9F,7F,FE,0A,7F,
8634475,0000019C,false,Tx,0,8,06,A0,26,9F,7F,FF,0B,7F,
8645201,0000019C,false,Tx,0,8,06,A0,26,9F,7F,FF,0C,7F,
8633586,0000039F,false,Rx,0,8,4D,63,00,00,00,96,03,BB,
8633836,00000323,false,Rx,0,8,00,00,00,00,00,00,D8,97,
8634081,00000324,false,Rx,0,8,70,46,09,54,54,00,00,7B,
8634330,0000033B,false,Rx,0,8,80,00,00,59,00,00,00,00,
8634583,0000033D,false,Rx,0,8,02,6E,60,20,00,18,00,40,
8634829,000003A2,false,Rx,0,8,21,66,00,4C,03,FF,00,F7,
8635074,000003A4,false,Rx,0,8,00,00,00,00,00,00,00,00,
8635325,000003B7,false,Rx,0,8,00,00,00,00,00,08,5E,41,
8635577,00000491,false,Rx,0,8,00,00,00,00,00,00,00,00,
8664114,0000019C,false,Tx,0,8,06,A0,26,9F,7F,FF,0E,7F,
8667610,00000297,false,Tx,0,8,00,03,00,00,00,00,20,00,
8684706,0000019C,false,Tx,0,8,06,A0,26,9F,7F,FF,00,7F,
8694933,0000019C,false,Tx,0,8,06,A0,26,9F,7F,FE,01,7F,
8714322,0000019C,false,Tx,0,8,06,A0,26,9F,7F,FE,03,7F,
8734912,0000019C,false,Tx,0,8,06,A0,26,9F,7F,FF,05,7F,
8734028,0000039F,false,Rx,0,8,4D,63,00,00,00,96,04,BC,
8734277,00000323,false,Rx,0,8,00,00,00,00,00,00,D8,97,
8734531,00000324,false,Rx,0,8,70,46,09,54,54,00,00,7B,
8734777,0000033B,false,Rx,0,8,80,00,00,59,00,00,00,00,
8735024,0000033D,false,Rx,0,8,02,6E,60,20,00,18,00,40,
8735268,000003A2,false,Rx,0,8,21,66,00,50,03,FF,00,EB,
8735522,000003A4,false,Rx,0,8,00,00,00,00,00,00,00,00,
8735767,000003B7,false,Rx,0,8,00,00,00,00,00,09,12,41,
8736013,00000491,false,Rx,0,8,00,00,00,00,00,00,00,00,
8765861,0000019C,false,Tx,0,8,06,A0,26,9F,7F,FF,08,7F,
8773931,0000019C,false,Tx,0,8,06,A0,26,9F,7F,FE,09,7F,
8785420,0000019C,false,Tx,0,8,06,A0,26,9F,7F,FE,0A,7F,
8794642,0000019C,false,Tx,0,8,06,A0,26,9F,7F,FE,0B,7F,
8804997,0000019C,false,Tx,0,8,06,A0,26,9F,7F,FE,0C,7F,
8814202,0000019C,false,Tx,0,8,06,A0,26,9F,7F,FE,0D,7F,
8824631,0000019C,false,Tx,0,8,06,A0,26,9F,7F,FF,0E,7F,
8833846,0000019C,false,Tx,0,8,06,A0,26,9F,7F,FF,0F,7F,
8834264,0000039F,false,Rx,0,8,4D,63,00,00,00,96,05,BD,
8834520,00000323,false,Rx,0,8,00,00,00,00,00,00,D8,97,
8834766,00000324,false,Rx,0,8,70,46,0E,54,54,00,00,7B,
8835012,0000033B,false,Rx,0,8,80,00,00,59,00,00,00,00,
8835259,0000033D,false,Rx,0,8,02,6E,60,20,00,18,00,40,
8835510,000003A2,false,Rx,0,8,21,66,00,54,03,FF,00,EF,
8835755,000003A4,false,Rx,0,8,00,00,00,00,00,00,00,00,
8835998,000003B7,false,Rx,0,8,00,00,00,00,00,0A,C6,41,
8836244,00000491,false,Rx,0,8,00,00,00,00,00,00,00,00,
8863732,0000019C,false,Tx,0,8,06,A0,26,9F,7F,FF,02,7F,
8884547,0000019C,false,Tx,0,8,06,A0,26,9F,7F,FE,04,7F,
8905319,0000019C,false,Tx,0,8,06,A0,26,9F,7F,FF,06,7F,
8914613,0000019C,false,Tx,0,8,06,A0,26,9F,7F,FE,07,7F,
8918098,00000297,false,Tx,0,8,00,03,00,00,00,00,20,00,
8934040,0000019C,false,Tx,0,8,06,A0,26,9F,7F,FE,09,7F,
8934552,0000039F,false,Rx,0,8,4D,63,00,00,00,96,06,BE,
8934801,00000323,false,Rx,0,8,00,00,00,00,00,00,00,00,
8935048,00000324,false,Rx,0,8,70,46,09,54,54,00,00,7B,
8935295,0000033B,false,Rx,0,8,80,00,00,59,00,00,00,00,
8935549,0000033D,false,Rx,0,8,02,6E,60,20,00,18,00,40,
8935794,000003A2,false,Rx,0,8,21,66,00,58,03,FF,00,E3,
8936040,000003A4,false,Rx,0,8,00,00,00,00,00,00,00,00,
8936289,000003B7,false,Rx,0,8,00,00,00,00,00,0B,8A,41,
8936541,00000491,false,Rx,0,8,00,00,00,00,00,00,00,00,
8962414,00000297,false,Tx,0,8,01,03,E0,00,C3,11,AF,9F,
8964725,0000019C,false,Tx,0,8,06,A0,26,9F,7F,FE,0C,7F,
8969283,00000297,false,Tx,0,8,00,03,00,00,00,00,20,00,
8974958,0000019C,false,Tx,0,8,06,A0,26,9F,7F,FF,0D,7F,
8986417,0000019C,false,Tx,0,8,06,A0,26,9F,7F,FE,0E,7F,
8994514,0000019C,false,Tx,0,8,06,A0,26,9F,7F,FE,0F,7F,
9004898,0000019C,false,Tx,0,8,06,A0,26,9F,7F,FF,00,7F,
9034729,0000019C,false,Tx,0,8,06,A0,26,9F,7F,FF,03,7F,
9034552,0000039F,false,Rx,0,8,4D,63,00,00,00,96,07,BF,
9034802,00000323,false,Rx,0,8,00,00,00,00,00,00,00,00,
9035048,00000324,false,Rx,0,8,70,46,05,54,54,00,00,7B,
9035295,0000033B,false,Rx,0,8,80,00,00,59,00,00,00,00,
9035546,0000033D,false,Rx,0,8,02,6E,60,20,00,18,00,40,
9035793,000003A2,false,Rx,0,8,21,66,00,5C,03,FF,00,E7,
9036041,000003A4,false,Rx,0,8,00,00,00,00,00,00,00,00,
9036301,000003B7,false,Rx,0,8,00,00,00,00,00,0C,73,41,
9036564,00000491,false,Rx,0,8,00,00,00,00,00,00,00,00,
9055380,0000019C,false,Tx,0,8,06,A0,26,9F,7F,FF,05,7F,
9058872,0000033F,false,Tx,0,8,00,00,00,00,28,00,00,48,
9062357,00000297,false,Tx,0,8,01,03,E0,00,C3,11,A1,91,
9069288,00000297,false,Tx,0,8,00,03,00,00,00,00,20,00,
9085386,0000019C,false,Tx,0,8,06,A0,26,9F,7F,FE,08,7F,
9104883,0000019C,false,Tx,0,8,06,A0,26,9F,7F,FF,0A,7F,
9114147,0000019C,false,Tx,0,8,06,A0,26,9F,7F,FF,0B,7F,
9116549,00000297,false,Tx,0,8,00,03,00,00,00,00,20,00,
9125873,0000019C,false,Tx,0,8,06,A0,26,9F,7F,FF,0C,7F,
9135141,0000019C,false,Tx,0,8,06,A0,26,9F,7F,FE,0D,7F,
9144389,0000019C,false,Tx,0,8,06,A0,26,9F,7F,FF,0E,7F,
9135224,0000039F,false,Rx,0,8,4D,63,00,00,00,96,08,B0,
9135484,00000323,false,Rx,0,8,00,00,00,00,00,00,00,00,
9135730,00000324,false,Rx,0,8,70,46,09,54,54,00,00,7B,
9135976,0000033B,false,Rx,0,8,80,00,00,59,00,00,00,00,
9136222,0000033D,false,Rx,0,8,02,6E,60,20,00,18,00,40,
9136478,000003A2,false,Rx,0,8,21,66,00,60,03,FF,00,DB,
9136723,000003A4,false,Rx,0,8,00,00,00,00,00,00,00,00,
9136970,000003B7,false,Rx,0,8,00,00,00,00,00,0D,3F,41,
9137215,00000491,false,Rx,0,8,00,00,00,00,00,00,00,00,
9156040,0000019C,false,Tx,0,8,06,A0,26,9F,7F,FF,0F,7F,
9161871,00000297,false,Tx,0,8,01,03,E0,00,C3,11,A3,93,
9175587,0000019C,false,Tx,0,8,06,A0,26,9F,7F,FE,01,7F,
9185824,0000019C,false,Tx,0,8,06,A0,26,9F,7F,FF,02,7F,
9194919,0000019C,false,Tx,0,8,06,A0,26,9F,7F,FE,03,7F,
9205131,0000019C,false,Tx,0,8,06,A0,26,9F,7F,FE,04,7F,
9214281,0000019C,false,Tx,0,8,06,A0,26,9F,7F,FE,05,7F,
9234880,0000019C,false,Tx,0,8,06,A0,26,9F,7F,FE,07,7F,
9254365,0000019C,false,Tx,0,8,06,A0,26,9F,7F,FF,09,7F,
9235273,0000039F,false,Rx,0,8,4D,63,00,00,00,96,09,B1,
9235529,00000323,false,Rx,0,8,00,00,00,00,00,00,00,00,
9235776,00000324,false,Rx,0,8,70,46,09,54,54,00,00,7B,
9236020,0000033B,false,Rx,0,8,80,00,00,59,00,00,00,00,
9236267,0000033D,false,Rx,0,8,02,6E,60,20,00,18,00,40,
9236520,000003A2,false,Rx,0,8,21,66,00,64,03,FF,00,DF,
9236767,000003A4,false,Rx,0,8,00,00,00,00,00,00,00,00,
9237012,000003B7,false,Rx,0,8,00,00,00,00,00,0E,EB,41,
9237259,00000491,false,Rx,0,8,00,00,00,00,00,00,00,00,
9257870,0000033F,false,Tx,0,8,00,00,00,00,28,00,00,48,
9269339,00000297,false,Tx,0,8,00,03,00,00,00,00,20,00,
9275137,0000019C,false,Tx,0,8,06,A0,26,9F,7F,FF,0B,7F,
9285514,0000019C,false,Tx,0,8,06,A0,26,9F,7F,FF,0C,7F,
9306168,0000019C,false,Tx,0,8,06,A0,26,9F,7F,FF,0E,7F,
9315384,0000019C,false,Tx,0,8,06,A0,26,9F,7F,FF,0F,7F,
9335047,0000019C,false,Tx,0,8,06,A0,26,9F,7F,FF,01,7F,
9345517,0000019C,false,Tx,0,8,06,A0,26,9F,7F,FE,02,7F,
9335993,0000039F,false,Rx,0,8,4D,63,00,00,00,96,0A,B2,
9336242,00000323,false,Rx,0,8,00,00,00,00,00,00,00,00,
9336497,00000324,false,Rx,0,8,70,46,09,54,54,00,00,7B,
9336742,0000033B,false,Rx,0,8,80,00,00,59,00,00,00,00,
9336988,0000033D,false,Rx,0,8,02,6E,60,20,00,18,00,40,
9337234,000003A2,false,Rx,0,8,21,66,00,68,03,FF,00,D3,
9337489,000003A4,false,Rx,0,8,00,00,00,00,00,00,00,00,
9337733,000003B7,false,Rx,0,8,00,00,00,00,00,00,04,41,
9337980,00000491,false,Rx,0,8,00,00,00,00,00,00,00,00,
9375319,0000019C,false,Tx,0,8,06,A0,26,9F,7F,FE,05,7F,
9386859,0000019C,false,Tx,0,8,06,A0,26,9F,7F,FE,06,7F,
9395089,0000019C,false,Tx,0,8,06,A0,26,9F,7F,FF,07,7F,
9405535,0000019C,false,Tx,0,8,06,A0,26,9F,7F,FF,08,7F,
9415943,0000019C,false,Tx,0,8,06,A0,26,9F,7F,FE,09,7F,
9417114,00000297,false,Tx,0,8,00,03,00,00,00,00,20,00,
9425081,0000019C,false,Tx,0,8,06,A0,26,9F,7F,FF,0A,7F,
9435295,0000019C,false,Tx,0,8,06,A0,26,9F,7F,FE,0B,7F,
9435814,0000039F,false,Rx,0,8,4D,63,00,00,00,96,0B,B3,
9436064,00000323,false,Rx,0,8,00,00,00,00,00,00,D8,97,
9436313,00000324,false,Rx,0,8,70,46,09,54,54,00,00,7B,
9446652,0000019C,false,Tx,0,8,06,A0,26,9F,7F,FF,0C,7F,
9455744,0000019C,false,Tx,0,8,06,A0,26,9F,7F,FE,0D,7F,
9437937,0000033B,false,Rx,0,8,80,00,00,59,00,00,00,00,
9437951,0000033D,false,Rx,0,8,02,6E,60,20,00,18,00,40,
9437957,000003A2,false,Rx,0,8,21,66,00,6C,03,FF,00,D7,
9437963,000003A4,false,Rx,0,8,00,00,00,00,00,00,00,00,
9437969,000003B7,false,Rx,0,8,00,00,00,00,00,01,48,41,
9437975,00000491,false,Rx,0,8,00,00,00,00,00,00,00,00,
9459226,0000033F,false,Tx,0,8,00,00,00,00,28,00,00,48,
9486601,0000019C,false,Tx,0,8,06,A0,26,9F,7F,FF,00,7F,
9506133,0000019C,false,Tx,0,8,06,A0,26,9F,7F,FF,02,7F,
9515333,0000019C,false,Tx,0,8,06,A0,26,9F,7F,FE,03,7F,
9536008,0000019C,false,Tx,0,8,06,A0,26,9F,7F,FF,05,7F,
9536264,0000039F,false,Rx,0,8,4D,63,00,00,00,96,0C,B4,
9536514,00000323,false,Rx,0,8,00,00,00,00,00,00,D8,97,
9536766,00000324,false,Rx,0,8,70,46,09,54,54,00,00,7B,
9546266,0000019C,false,Tx,0,8,06,A0,26,9F,7F,FE,06,7F,
9539043,0000033B,false,Rx,0,8,80,00,00,59,00,00,00,00,
9539058,0000033D,false,Rx,0,8,02,6E,60,20,00,18,00,40,
9539065,000003A2,false,Rx,0,8,21,66,00,70,03,FF,00,CB,
9539071,000003A4,false,Rx,0,8,00,00,00,00,00,00,00,00,
9539077,000003B7,false,Rx,0,8,00,00,00,00,00,02,9C,41,
9539083,00000491,false,Rx,0,8,00,00,00,00,00,00,00,00,
9560058,0000033F,false,Tx,0,8,00,00,00,00,28,00,00,48,
9563553,00000297,false,Tx,0,8,01,03,E0,00,C3,0B,AB,81,
9567047,0000019C,false,Tx,0,8,06,A0,26,9F,7F,FE,08,7F,
9586626,0000019C,false,Tx,0,8,06,A0,26,9F,7F,FF,0A,7F,
9606116,0000019C,false,Tx,0,8,06,A0,26,9F,7F,FE,0C,7F,
9611940,00000297,false,Tx,0,8,01,03,E0,00,C3,0B,AC,86,
9615350,0000019C,false,Tx,0,8,06,A0,26,9F,7F,FE,0D,7F,
9636024,0000019C,false,Tx,0,8,06,A0,26,9F,7F,FF,0F,7F,
9636462,0000039F,false,Rx,0,8,4D,63,00,00,00,96,0D,B5,
9636719,00000323,false,Rx,0,8,00,00,00,00,00,00,D8,97,
9636965,00000324,false,Rx,0,8,70,46,09,54,54,00,00,7B,
9637211,0000033B,false,Rx,0,8,80,00,00,59,00,00,00,00,
9656804,0000019C,false,Tx,0,8,06,A0,26,9F,7F,FF,01,7F,
9639460,0000033D,false,Rx,0,8,02,6E,60,20,00,18,00,40,
9639474,000003A2,false,Rx,0,8,21,66,00,74,03,FF,00,CF,
9639480,000003A4,false,Rx,0,8,00,00,00,00,00,00,00,00,
9639486,000003B7,false,Rx,0,8,00,00,00,00,00,03,D0,41,
9639492,00000491,false,Rx,0,8,00,00,00,00,00,00,00,00,
9660322,0000033F,false,Tx,0,8,00,00,00,00,28,00,00,48,
9686467,0000019C,false,Tx,0,8,06,A0,26,A0,7F,FE,04,7F,
9706874,0000019C,false,Tx,0,8,06,A0,26,9F,7F,FE,06,7F,
9716070,0000019C,false,Tx,0,8,06,A0,26,9F,7F,FE,07,7F,
9718449,00000297,false,Tx,0,8,00,03,00,00,00,00,20,00,
9727596,0000019C,false,Tx,0,8,06,A0,26,9F,7F,FE,08,7F,
9735666,0000019C,false,Tx,0,8,06,A0,26,9F,7F,FE,09,7F,
9736849,0000039F,false,Rx,0,8,4D,63,00,00,00,96,0E,B6,
9737097,00000323,false,Rx,0,8,00,00,00,00,00,00,D8,97,
9737346,00000324,false,Rx,0,8,70,46,09,54,54,00,00,7B,
9737597,0000033B,false,Rx,0,8,80,00,00,59,00,00,00,00,
9745995,0000019C,false,Tx,0,8,06,A0,26,9F,7F,FE,0A,7F,
9756325,0000019C,false,Tx,0,8,06,A0,26,9F,7F,FF,0B,7F,
9739308,0000033D,false,Rx,0,8,02,6E,60,20,00,18,00,40,
9739324,000003A2,false,Rx,0,8,21,66,00,78,03,FF,00,C3,
9739330,000003A4,false,Rx,0,8,00,00,00,00,00,00,00,00,
9739336,000003B7,false,Rx,0,8,00,00,00,00,00,04,29,41,
9739342,00000491,false,Rx,0,8,00,00,00,00,00,00,00,00,
9762097,00000297,false,Tx,0,8,01,03,E0,00,C3,0B,AF,85,
9765586,0000019C,false,Tx,0,8,06,A0,26,A0,7F,FE,0C,7F,
9775932,0000019C,false,Tx,0,8,06,A0,26,A0,7F,FF,0D,7F,
9786287,0000019C,false,Tx,0,8,06,A0,26,A0,7F,FF,0E,7F,
9805823,0000019C,false,Tx,0,8,06,A0,26,A0,7F,FF,00,7F,
9815050,0000019C,false,Tx,0,8,06,A0,26,A0,7F,FF,01,7F,
9826614,0000019C,false,Tx,0,8,06,A0,26,A0,7F,FE,02,7F,
9835859,0000019C,false,Tx,0,8,06,A0,26,A0,7F,FF,03,7F,
9837363,0000039F,false,Rx,0,8,4D,63,00,00,00,96,0F,B7,
9837618,00000323,false,Rx,0,8,00,00,00,00,00,00,D8,97,
9837865,00000324,false,Rx,0,8,70,46,09,54,54,00,00,7B,
9838110,0000033B,false,Rx,0,8,80,00,00,59,00,00,00,00,
9847340,0000019C,false,Tx,0,8,06,A0,26,A0,7F,FF,04,7F,
9857703,0000019C,false,Tx,0,8,06,A0,26,A0,7F,FF,05,7F,
9840380,0000033D,false,Rx,0,8,02,6E,60,20,00,18,00,40,
9840395,000003A2,false,Rx,0,8,21,66,00,7C,03,FF,00,C7,
9840401,000003A4,false,Rx,0,8,00,00,00,00,00,00,00,00,
9840407,000003B7,false,Rx,0,8,00,00,00,00,00,05,65,41,
9840420,00000491,false,Rx,0,8,00,00,00,00,00,00,00,00,
9866919,0000019C,false,Tx,0,8,06,A0,26,A0,7F,FE,06,7F,
9870448,00000297,false,Tx,0,8,00,03,00,00,00,00,20,00,
9886561,0000019C,false,Tx,0,8,06,A0,26,A0,7F,FE,08,7F,
9906203,0000019C,false,Tx,0,8,06,A0,26,A0,7F,FF,0A,7F,
9913146,00000297,false,Tx,0,8,01,03,E0,00,C3,0B,A2,88,
9915504,0000019C,false,Tx,0,8,06,A0,26,A0,7F,FE,0B,7F,
9934830,0000019C,false,Tx,0,8,06,A0,26,9F,7F,FE,0D,7F,
9937681,0000039F,false,Rx,0,8,4D,63,00,00,00,96,00,B8,
9937930,00000323,false,Rx,0,8,00,00,00,00,00,00,00,00,
9937974,00000324,false,Rx,0,8,70,46,05,54,54,00,00,7B,
9938216,0000033B,false,Rx,0,8,80,00,00,59,00,00,00,00,
9938473,0000033D,false,Rx,0,8,02,6E,60,20,00,18,00,40,
9938718,000003A2,false,Rx,0,8,21,66,00,40,03,FF,00,FB,
9940939,000003A4,false,Rx,0,8,00,00,00,00,00,00,00,00,
9940955,000003B7,false,Rx,0,8,00,00,00,00,00,06,B1,41,
9940961,00000491,false,Rx,0,8,00,00,00,00,00,00,00,00,
9960911,0000033F,false,Tx,0,8,00,00,00,00,28,00,00,48,
9966640,0000019C,false,Tx,0,8,06,A0,26,9F,7F,FF,00,7F,
9975834,0000019C,false,Tx,0,8,06,A0,26,9F,7F,FF,01,7F,
9987308,0000019C,false,Tx,0,8,06,A0,26,9F,7F,FE,02,7F,
9996500,0000019C,false,Tx,0,8,06,A0,26,9F,7F,FE,03,7F,
10016049,0000019C,false,Tx,0,8,06,A0,26,9F,7F,FE,05,7F,
10027546,0000019C,false,Tx,0,8,06,A0,26,9F,7F,FF,06,7F,
10036740,0000019C,false,Tx,0,8,06,A0,26,9F,7F,FE,07,7F,
10037596,0000039F,false,Rx,0,8,4D,63,00,00,00,96,01,B9,
10037845,00000323,false,Rx,0,8,00,00,00,00,00,00,00,00,
10038091,00000324,false,Rx,0,8,70,46,09,54,54,00,00,7B,
10038339,0000033B,false,Rx,0,8,80,00,00,59,00,00,00,00,
10038592,0000033D,false,Rx,0,8,02,6E,60,20,00,18,00,40,
10038838,000003A2,false,Rx,0,8,21,66,00,44,03,FF,00,FF,
10039084,000003A4,false,Rx,0,8,00,00,00,00,00,00,00,00,
10039334,000003B7,false,Rx,0,8,00,00,00,00,00,07,FD,41,
10047067,0000019C,false,Tx,0,8,06,A0,26,9F,7F,FE,08,7F,
10057410,0000019C,false,Tx,0,8,06,A0,26,9F,7F,FF,09,7F,
10041512,00000491,false,Rx,0,8,00,00,00,00,00,00,00,00,
10070043,00000297,false,Tx,0,8,00,03,00,00,00,00,20,00,
10075889,0000019C,false,Tx,0,8,06,A0,26,9F,7F,FE,0B,7F,
10086247,0000019C,false,Tx,0,8,06,A0,26,9F,7F,FE,0C,7F,
10095472,0000019C,false,Tx,0,8,06,A0,26,A0,7F,FF,0D,7F,
10108132,0000019C,false,Tx,0,8,06,A0,26,A0,7F,FE,0E,7F,
10117345,0000019C,false,Tx,0,8,06,A0,26,A0,7F,FE,0F,7F,
10127754,0000019C,false,Tx,0,8,06,A0,26,A0,7F,FE,00,7F,
10138240,0000039F,false,Rx,0,8,4D,63,00,00,00,96,02,BA,
10138496,00000323,false,Rx,0,8,00,00,00,00,00,00,00,00,
10138742,00000324,false,Rx,0,8,70,46,09,54,54,00,00,7B,
10138988,0000033B,false,Rx,0,8,80,00,00,59,00,00,00,00,
10139235,0000033D,false,Rx,0,8,02,6E,60,20,00,18,00,40,
10139489,000003A2,false,Rx,0,8,21,66,00,48,03,FF,00,F3,
10139736,000003A4,false,Rx,0,8,00,00,00,00,00,00,00,00,
10139981,000003B7,false,Rx,0,8,00,00,00,00,00,08,5E,41,
10147382,0000019C,false,Tx,0,8,06,A0,26,A0,7F,FE,02,7F,
10142137,00000491,false,Rx,0,8,00,00,00,00,00,00,00,00,
10176057,0000019C,false,Tx,0,8,06,A0,26,9F,7F,FF,05,7F,
10187410,0000019C,false,Tx,0,8,06,A0,26,9F,7F,FE,06,7F,
10207888,0000019C,false,Tx,0,8,06,A0,26,9F,7F,FE,08,7F,
10213647,00000297,false,Tx,0,8,01,03,E0,00,C3,0B,A8,82,
10217111,0000019C,false,Tx,0,8,06,A0,26,9F,7F,FF,09,7F,
10236591,0000019C,false,Tx,0,8,06,A0,26,9F,7F,FE,0B,7F,
10238587,0000039F,false,Rx,0,8,4D,63,00,00,00,96,03,BB,
10238836,00000323,false,Rx,0,8,00,00,00,00,00,00,00,00,
10239082,00000324,false,Rx,0,8,70,46,09,54,54,00,00,7B,
10239330,0000033B,false,Rx,0,8,80,00,00,59,00,00,00,00,
10239582,0000033D,false,Rx,0,8,02,6E,60,20,00,18,00,40,
10239828,000003A2,false,Rx,0,8,21,66,00,4C,03,FF,00,F7,
10240073,000003A4,false,Rx,0,8,00,00,00,00,00,00,00,00,
10240322,000003B7,false,Rx,0,8,00,00,00,00,00,09,12,41,
10248103,0000019C,false,Tx,0,8,06,A0,26,9F,7F,FE,0C,7F,
10241970,00000491,false,Rx,0,8,00,00,00,00,00,00,00,00,
10267603,0000019C,false,Tx,0,8,06,A0,26,A0,7F,FE,0E,7F,
10271084,00000297,false,Tx,0,8,00,03,00,00,00,00,20,00,
10287145,0000019C,false,Tx,0,8,06,A0,26,A0,7F,FF,00,7F,
10307773,0000019C,false,Tx,0,8,06,A0,26,A0,7F,FE,02,7F,
10317065,0000019C,false,Tx,0,8,06,A0,26,A0,7F,FE,03,7F,
10336483,0000019C,false,Tx,0,8,06,A0,26,A0,7F,FE,05,7F,
10346795,0000019C,false,Tx,0,8,06,A0,26,9F,7F,FE,06,7F,
10338726,0000039F,false,Rx,0,8,4D,63,00,00,00,96,04,BC,
10338975,00000323,false,Rx,0,8,00,00,00,00,00,00,00,00,
10339222,00000324,false,Rx,0,8,70,46,09,54,54,00,00,7B,
10339473,0000033B,false,Rx,0,8,80,00,00,59,00,00,00,00,
10339719,0000033D,false,Rx,0,8,02,6E,60,20,00,18,00,40,
10339965,000003A2,false,Rx,0,8,21,66,00,50,03,FF,00,EB,
10340212,000003A4,false,Rx,0,8,00,00,00,00,00,00,00,00,
10340467,000003B7,false,Rx,0,8,00,00,00,00,00,0A,C6,41,
10340714,00000491,false,Rx,0,8,00,00,00,00,00,00,00,00,
10367452,0000019C,false,Tx,0,8,06,A0,26,9F,7F,FF,08,7F,
10377933,0000019C,false,Tx,0,8,06,A0,26,A0,7F,FE,09,7F,
10387251,0000019C,false,Tx,0,8,06,A0,26,A0,7F,FF,0A,7F,
10396547,0000019C,false,Tx,0,8,06,A0,26,A0,7F,FF,0B,7F,
10408141,0000019C,false,Tx,0,8,06,A0,26,A0,7F,FF,0C,7F,
10416241,0000019C,false,Tx,0,8,06,A0,26,A0,7F,FE,0D,7F,
10427672,0000019C,false,Tx,0,8,06,A0,26,9F,7F,FF,0E,7F,
10439114,0000039F,false,Rx,0,8,4D,63,00,00,00,96,05,BD,
10439366,00000323,false,Rx,0,8,00,00,00,00,00,00,D8,97,
10439618,00000324,false,Rx,0,8,70,46,05,54,54,00,00,7B,
10439865,0000033B,false,Rx,0,8,80,00,00,59,00,00,00,00,
10440111,0000033D,false,Rx,0,8,02,6E,60,20,00,18,00,40,
10440359,000003A2,false,Rx,0,8,21,66,00,54,03,FF,00,EF,
10440612,000003A4,false,Rx,0,8,00,00,00,00,00,00,00,00,
10440858,000003B7,false,Rx,0,8,00,00,00,00,00,0B,8A,41,
10441104,00000491,false,Rx,0,8,00,00,00,00,00,00,00,00,
10448095,0000019C,false,Tx,0,8,06,A0,26,9F,7F,FE,00,7F,
10477753,0000019C,false,Tx,0,8,06,A0,26,9F,7F,FE,03,7F,
10487005,0000019C,false,Tx,0,8,06,A0,26,A0,7F,FF,04,7F,
10497350,0000019C,false,Tx,0,8,06,A0,26,A0,7F,FE,05,7F,
10507671,0000019C,false,Tx,0,8,06,A0,26,9F,7F,FE,06,7F,
10516859,0000019C,false,Tx,0,8,06,A0,26,9F,7F,FF,07,7F,
10519182,00000297,false,Tx,0,8,00,03,00,00,00,00,20,00,
10539359,0000039F,false,Rx,0,8,4D,63,00,00,00,96,06,BE,
10539614,00000323,false,Rx,0,8,00,00,00,00,00,00,D8,97,
10539861,00000324,false,Rx,0,8,70,46,09,54,54,00,00,7B,
10540106,0000033B,false,Rx,0,8,80,00,00,59,00,00,00,00,
10540354,0000033D,false,Rx,0,8,02,6E,60,20,00,18,00,40,
10540607,000003A2,false,Rx,0,8,21,66,00,58,03,FF,00,E3,
10540853,000003A4,false,Rx,0,8,00,00,00,00,00,00,00,00,
10541099,000003B7,false,Rx,0,8,00,00,00,00,00,0C,73,41,
10541347,00000491,false,Rx,0,8,00,00,00,00,00,00,00,00,
10547827,0000019C,false,Tx,0,8,06,A0,26,9F,7F,FF,0A,7F,
10558132,0000019C,false,Tx,0,8,06,A0,26,9F,7F,FE,0B,7F,
10588038,0000019C,false,Tx,0,8,06,A0,26,A0,7F,FF,0E,7F,
10607603,0000019C,false,Tx,0,8,06,A0,26,A0,7F,FF,00,7F,
10613435,00000297,false,Tx,0,8,01,03,E0,00,C3,0B,A0,8A,
10616866,0000019C,false,Tx,0,8,06,A0,26,A0,7F,FF,01,7F,
10637575,0000019C,false,Tx,0,8,06,A0,26,9F,7F,FF,03,7F,
10639752,0000039F,false,Rx,0,8,4D,63,00,00,00,96,07,BF,
10640001,00000323,false,Rx,0,8,00,00,00,00,00,00,D8,97,
10640246,00000324,false,Rx,0,8,70,46,09,54,54,00,00,7B,
10640503,0000033B,false,Rx,0,8,80,00,00,59,00,00,00,00,
10640748,0000033D,false,Rx,0,8,02,6E,60,20,00,18,00,40,
10640995,000003A2,false,Rx,0,8,21,66,00,5C,03,FF,00,E7,
10641240,000003A4,false,Rx,0,8,00,00,00,00,00,00,00,00,
10641495,000003B7,false,Rx,0,8,00,00,00,00,00,0D,3F,41,
10641741,00000491,false,Rx,0,8,00,00,00,00,00,00,00,00,
10647978,0000019C,false,Tx,0,8,06,A0,26,9F,7F,FE,04,7F,
10665202,00000297,false,Tx,0,8,01,03,E0,00,C3,0B,A1,8B,
10668707,0000019C,false,Tx,0,8,06,A0,26,9F,7F,FF,06,7F,
10671027,00000297,false,Tx,0,8,00,03,00,00,00,00,20,00,
10676742,0000019C,false,Tx,0,8,06,A0,26,9F,7F,FE,07,7F,
10688129,0000019C,false,Tx,0,8,06,A0,26,9F,7F,FF,08,7F,
10698068,0000019C,false,Tx,0,8,06,A0,26,9F,7F,FE,09,7F,
10707151,0000019C,false,Tx,0,8,06,A0,26,9F,7F,FF,0A,7F,
10717392,0000019C,false,Tx,0,8,06,A0,26,9F,7F,FE,0B,7F,
10718624,00000297,false,Tx,0,8,00,03,00,00,00,00,20,00,
10736947,0000019C,false,Tx,0,8,06,A0,26,9F,7F,FF,0D,7F,
10740018,0000039F,false,Rx,0,8,4D,63,00,00,00,96,08,B0,
10740268,00000323,false,Rx,0,8,00,00,00,00,00,00,D8,97,
10740521,00000324,false,Rx,0,8,70,46,09,54,54,00,00,7B,
10740767,0000033B,false,Rx,0,8,80,00,00,59,00,00,00,00,
10741013,0000033D,false,Rx,0,8,02,6E,60,20,00,18,00,40,
10741259,000003A2,false,Rx,0,8,21,66,00,60,03,FF,00,DB,
10741513,000003A4,false,Rx,0,8,00,00,00,00,00,00,00,00,
10741758,000003B7,false,Rx,0,8,00,00,00,00,00,0E,EB,41,
10742005,00000491,false,Rx,0,8,00,00,00,00,00,00,00,00,
10748424,0000019C,false,Tx,0,8,06,A0,26,9F,7F,FF,0E,7F,
10764555,00000297,false,Tx,0,8,01,03,E0,00,C3,0B,A3,89,
10777219,0000019C,false,Tx,0,8,06,A0,26,9F,7F,FF,01,7F,
10788733,0000019C,false,Tx,0,8,06,A0,26,A0,7F,FF,02,7F,
10797924,0000019C,false,Tx,0,8,06,A0,26,9F,7F,FE,03,7F,
10808279,0000019C,false,Tx,0,8,06,A0,26,9F,7F,FE,04,7F,
10818682,0000019C,false,Tx,0,8,06,A0,26,A0,7F,FF,05,7F,
10827930,0000019C,false,Tx,0,8,06,A0,26,A0,7F,FE,06,7F,
10848660,0000019C,false,Tx,0,8,06,A0,26,9F,7F,FF,08,7F,
10857922,0000019C,false,Tx,0,8,06,A0,26,9F,7F,FE,09,7F,
10845645,0000039F,false,Rx,0,8,4D,63,00,00,00,96,09,B1,
10845894,00000323,false,Rx,0,8,00,00,00,00,00,00,D8,97,
10846141,00000324,false,Rx,0,8,70,46,09,54,54,00,00,7B,
10846185,0000033B,false,Rx,0,8,80,00,00,59,00,00,00,00,
10846427,0000033D,false,Rx,0,8,02,6E,60,20,00,18,00,40,
10846681,000003A2,false,Rx,0,8,21,66,00,64,03,FF,00,DF,
10846927,000003A4,false,Rx,0,8,00,00,00,00,00,00,00,00,
10847173,000003B7,false,Rx,0,8,00,00,00,00,00,00,04,41,
10847427,00000491,false,Rx,0,8,00,00,00,00,00,00,00,00,
10888970,0000019C,false,Tx,0,8,06,A0,26,A0,7F,FE,0C,7F,
10898275,0000019C,false,Tx,0,8,06,A0,26,9F,7F,FF,0D,7F,
10908750,0000019C,false,Tx,0,8,06,A0,26,9F,7F,FF,0E,7F,
10914527,00000297,false,Tx,0,8,01,03,E0,00,C3,0B,A6,8C,
10917968,0000019C,false,Tx,0,8,06,A0,26,9F,7F,FF,0F,7F,
10929381,0000019C,false,Tx,0,8,06,A0,26,9F,7F,FF,00,7F,
10937347,0000019C,false,Tx,0,8,06,A0,26,9F,7F,FF,01,7F,
10948701,0000019C,false,Tx,0,8,06,A0,26,9F,7F,FE,02,7F,
10958958,0000019C,false,Tx,0,8,06,A0,26,9F,7F,FF,03,7F,
10945480,0000039F,false,Rx,0,8,4D,63,00,00,00,96,0A,B2,
10945729,00000323,false,Rx,0,8,00,00,00,00,00,00,00,00,
10945975,00000324,false,Rx,0,8,70,46,09,54,54,00,00,7B,
10946221,0000033B,false,Rx,0,8,80,00,00,59,00,00,00,00,
10946478,0000033D,false,Rx,0,8,02,6E,60,20,00,18,00,40,
10946724,000003A2,false,Rx,0,8,21,66,00,68,03,FF,00,D3,
10946971,000003A4,false,Rx,0,8,00,00,00,00,00,00,00,00,
10947216,000003B7,false,Rx,0,8,00,00,00,00,00,01,48,41,
10947476,00000491,false,Rx,0,8,00,00,00,00,00,00,00,00,
10987661,0000019C,false,Tx,0,8,06,A0,26,9F,7F,FE,06,7F,
11009430,0000019C,false,Tx,0,8,06,A0,26,9F,7F,FF,08,7F,
11018628,0000019C,false,Tx,0,8,06,A0,26,9F,7F,FE,09,7F,
11039282,0000019C,false,Tx,0,8,06,A0,26,9F,7F,FE,0B,7F,
11049656,0000019C,false,Tx,0,8,06,A0,26,9F,7F,FF,0C,7F,
11062306,0000033F,false,Tx,0,8,00,00,00,00,28,00,00,48,
11065793,00000297,false,Tx,0,8,01,03,E0,00,C3,0B,A9,83,
11045918,0000039F,false,Rx,0,8,4D,63,00,00,00,96,0B,B3,
11046168,00000323,false,Rx,0,8,00,00,00,00,00,00,00,00,
11046420,00000324,false,Rx,0,8,70,46,09,54,54,00,00,7B,
11046667,0000033B,false,Rx,0,8,80,00,00,59,00,00,00,00,
11046913,0000033D,false,Rx,0,8,02,6E,60,20,00,18,00,40,
11047159,000003A2,false,Rx,0,8,21,66,00,6C,03,FF,00,D7,
11047404,000003A4,false,Rx,0,8,00,00,00,00,00,00,00,00,
11047657,000003B7,false,Rx,0,8,00,00,00,00,00,02,9C,41,
11047902,00000491,false,Rx,0,8,00,00,00,00,00,00,00,00,
11069361,0000019C,false,Tx,0,8,06,A0,26,9F,7F,FE,0E,7F,
11071785,00000297,false,Tx,0,8,00,03,00,00,00,00,20,00,
11077473,0000019C,false,Tx,0,8,06,A0,26,9F,7F,FE,0F,7F,
11088983,0000019C,false,Tx,0,8,06,A0,26,9F,7F,FF,00,7F,
11109686,0000019C,false,Tx,0,8,06,A0,26,9F,7F,FE,02,7F,
11118910,0000019C,false,Tx,0,8,06,A0,26,9F,7F,FE,03,7F,
11129354,0000019C,false,Tx,0,8,06,A0,26,9F,7F,FF,04,7F,
11138640,0000019C,false,Tx,0,8,06,A0,26,9F,7F,FF,05,7F,
11149062,0000019C,false,Tx,0,8,06,A0,26,9F,7F,FE,06,7F,
11165335,00000297,false,Tx,0,8,01,03,E0,00,C3,0B,AB,81,
11177906,0000019C,false,Tx,0,8,06,A0,26,9F,7F,FE,09,7F,
11189272,0000019C,false,Tx,0,8,06,A0,26,9F,7F,FF,0A,7F,
11146398,0000039F,false,Rx,0,8,4D,63,00,00,00,96,0C,B4,
11146652,00000323,false,Rx,0,8,00,00,00,00,00,00,00,00,
11146899,00000324,false,Rx,0,8,70,46,0E,54,55,00,00,7B,
11147144,0000033B,false,Rx,0,8,80,00,00,59,00,00,00,00,
11147390,0000033D,false,Rx,0,8,02,6E,60,20,00,18,00,40,
11147636,000003A2,false,Rx,0,8,21,66,00,70,03,FF,00,CB,
11147883,000003A4,false,Rx,0,8,00,00,00,00,00,00,00,00,
11148129,000003B7,false,Rx,0,8,00,00,00,00,00,03,D0,41,
11148375,00000491,false,Rx,0,8,00,00,00,00,00,00,00,00,
