Time Stamp,ID,Extended,Dir,Bus,LEN,D1,D2,D3,D4,D5,D6,D7,D8
2236989,0000019C,false,Tx,0,8,06,A0,26,9F,7F,FF,0B,7F,
2274174,00000297,false,Tx,0,8,01,03,E0,00,C3,0C,A6,8B,
2280035,00000297,false,Tx,0,8,00,03,00,00,00,00,20,00,
2297419,0000019C,false,Tx,0,8,06,A0,26,9F,7F,FF,01,7F,
2327477,0000019C,false,Tx,0,8,06,A0,26,9F,7F,FE,04,7F,
2397399,0000019C,false,Tx,0,8,06,A0,26,9F,7F,FE,0B,7F,
2424038,00000297,false,Tx,0,8,01,03,E0,00,C3,0C,A9,84,
2437983,0000019C,false,Tx,0,8,06,A0,26,9F,7F,FE,0F,7F,
2448340,0000019C,false,Tx,0,8,06,A0,26,9F,7F,FF,00,7F,
2488886,0000019C,false,Tx,0,8,06,A0,26,9F,7F,FF,04,7F,
2497021,0000019C,false,Tx,0,8,06,A0,26,9F,7F,FF,05,7F,
2521429,0000033F,false,Tx,0,8,00,00,00,00,28,00,00,46,
2537680,0000019C,false,Tx,0,8,06,A0,26,9F,7F,FF,09,7F,
2548175,0000019C,false,Tx,0,8,06,A0,26,9F,7F,FF,0A,7F,
2558589,0000019C,false,Tx,0,8,06,A0,26,9F,7F,FE,0B,7F,
2569137,0000019C,false,Tx,0,8,06,A0,26,9F,7F,FF,0C,7F,
2587509,0000019C,false,Tx,0,8,06,A0,26,A0,7F,FF,0E,7F,
2596821,0000019C,false,Tx,0,8,06,A0,26,9F,7F,FF,0F,7F,
2631056,00000297,false,Tx,0,8,00,03,00,00,00,00,20,00,
2674636,00000297,false,Tx,0,8,01,03,E0,00,C3,0C,AE,83,
2677000,0000019C,false,Tx,0,8,06,A0,26,9F,7F,FF,07,7F,
2688550,0000019C,false,Tx,0,8,06,A0,26,9F,7F,FF,08,7F,
2697832,0000019C,false,Tx,0,8,06,A0,26,9F,7F,FF,09,7F,
2748692,0000019C,false,Tx,0,8,06,A0,26,9F,7F,FF,0E,7F,
2797381,0000019C,false,Tx,0,8,06,A0,26,9F,7F,FF,03,7F,
2818209,0000019C,false,Tx,0,8,06,A0,26,9F,7F,FE,05,7F,
2825123,00000297,false,Tx,0,8,01,03,E0,00,C3,0C,A1,8C,
2837710,0000019C,false,Tx,0,8,06,A0,26,9F,7F,FF,07,7F,
2857205,0000019C,false,Tx,0,8,06,A0,26,9F,7F,FF,09,7F,
2877702,0000019C,false,Tx,0,8,06,A0,26,9F,7F,FF,0B,7F,
2889122,0000019C,false,Tx,0,8,06,A0,26,9F,7F,FE,0C,7F,
2898381,0000019C,false,Tx,0,8,06,A0,26,9F,7F,FF,0D,7F,
2907632,0000019C,false,Tx,0,8,06,A0,26,9F,7F,FE,0E,7F,
2931980,00000297,false,Tx,0,8,00,03,00,00,00,00,20,00,
2967924,0000019C,false,Tx,0,8,06,A0,26,9F,7F,FE,04,7F,
2980648,00000297,false,Tx,0,8,00,03,00,00,00,00,20,00,
2997999,0000019C,false,Tx,0,8,06,A0,26,9F,7F,FE,07,7F,
3025938,00000297,false,Tx,0,8,01,03,E0,00,C3,0C,A5,88,
3028238,0000019C,false,Tx,0,8,06,A0,26,9F,7F,FF,0A,7F,
3031772,00000297,false,Tx,0,8,00,03,00,00,00,00,20,00,
3081061,00000297,false,Tx,0,8,00,03,00,00,00,00,20,00,
3087997,0000019C,false,Tx,0,8,06,A0,26,9F,7F,FE,00,7F,
3097294,0000019C,false,Tx,0,8,06,A0,26,9F,7F,FF,01,7F,
3128139,0000019C,false,Tx,0,8,06,A0,26,9F,7F,FF,04,7F,
3131558,00000297,false,Tx,0,8,00,03,00,00,00,00,20,00,
3149761,0000019C,false,Tx,0,8,06,A0,26,9F,7F,FE,06,7F,
3159036,0000019C,false,Tx,0,8,06,A0,26,9F,7F,FF,07,7F,
3168348,0000019C,false,Tx,0,8,06,A0,26,9F,7F,FF,08,7F,
3179857,00000297,false,Tx,0,8,00,03,00,00,00,00,20,00,
3187951,0000019C,false,Tx,0,8,06,A0,26,9F,7F,FF,0A,7F,
3198410,0000019C,false,Tx,0,8,06,A0,26,A0,7F,FF,0B,7F,
3221487,0000033F,false,Tx,0,8,00,00,00,00,28,00,00,46,
3280414,00000297,false,Tx,0,8,00,03,00,00,00,00,20,00,
3298889,0000019C,false,Tx,0,8,06,A0,26,9F,7F,FF,05,7F,
3321921,0000033F,false,Tx,0,8,00,00,00,00,28,00,00,46,
3325422,00000297,false,Tx,0,8,01,03,E0,00,C3,0C,AB,86,
3328879,0000019C,false,Tx,0,8,06,A0,26,9F,7F,FE,08,7F,
3398901,0000019C,false,Tx,0,8,06,A0,26,9F,7F,FF,0F,7F,
3421677,0000033F,false,Tx,0,8,00,00,00,00,28,00,00,46,
3433063,00000297,false,Tx,0,8,00,03,00,00,00,00,20,00,
3469377,0000019C,false,Tx,0,8,06,A0,26,9F,7F,FE,06,7F,
3488628,0000019C,false,Tx,0,8,06,A0,26,9F,7F,FF,08,7F,
3499078,0000019C,false,Tx,0,8,06,A0,26,9F,7F,FF,09,7F,
3522370,0000033F,false,Tx,0,8,00,00,00,00,28,00,00,46,
3529358,0000019C,false,Tx,0,8,06,A0,26,9F,7F,FF,0C,7F,
3532856,00000297,false,Tx,0,8,00,03,00,00,00,00,20,00,
3549044,0000019C,false,Tx,0,8,06,A0,26,9F,7F,FE,0E,7F,
3575891,00000297,false,Tx,0,8,01,03,E0,00,C3,11,A0,90,
3581686,00000297,false,Tx,0,8,00,03,00,00,00,00,20,00,
3598975,0000019C,false,Tx,0,8,06,A0,26,9F,7F,FE,03,7F,
3609259,0000019C,false,Tx,0,8,06,A0,26,9F,7F,FE,04,7F,
3628782,0000019C,false,Tx,0,8,06,A0,26,9F,7F,FF,06,7F,
3632220,00000297,false,Tx,0,8,00,03,00,00,00,00,20,00,
3637928,0000019C,false,Tx,0,8,06,A0,26,9F,7F,FE,07,7F,
3649295,0000019C,false,Tx,0,8,06,A0,26,9F,7F,FE,08,7F,
3668954,0000019C,false,Tx,0,8,06,A0,26,A0,7F,FF,0A,7F,
3688556,0000019C,false,Tx,0,8,06,A0,26,9F,7F,FF,0C,7F,
3697873,0000019C,false,Tx,0,8,06,A0,26,9F,7F,FF,0D,7F,
3709405,0000019C,false,Tx,0,8,06,A0,26,9F,7F,FF,0E,7F,
3726877,00000297,false,Tx,0,8,01,03,E0,00,C3,11,A3,93,
3729226,0000019C,false,Tx,0,8,06,A0,26,9F,7F,FE,00,7F,
3732724,00000297,false,Tx,0,8,00,03,00,00,00,00,20,00,
3748899,0000019C,false,Tx,0,8,06,A0,26,9F,7F,FE,02,7F,
3777895,0000019C,false,Tx,0,8,06,A0,26,9F,7F,FE,05,7F,
3798788,0000019C,false,Tx,0,8,06,A0,26,9F,7F,FF,07,7F,
3826669,00000297,false,Tx,0,8,01,03,E0,00,C3,11,A5,95,
3839559,0000019C,false,Tx,0,8,06,A0,26,9F,7F,FF,0B,7F,
3849903,0000019C,false,Tx,0,8,06,A0,26,9F,7F,FE,0C,7F,
3878473,0000019C,false,Tx,0,8,06,A0,26,9F,7F,FF,0F,7F,
3880771,00000297,false,Tx,0,8,00,03,00,00,00,00,20,00,
3897934,0000019C,false,Tx,0,8,06,A0,26,9F,7F,FE,01,7F,
3909474,0000019C,false,Tx,0,8,06,A0,26,9F,7F,FF,02,7F,
3922180,0000033F,false,Tx,0,8,00,00,00,00,28,00,00,48,
3933711,00000297,false,Tx,0,8,00,03,00,00,00,00,20,00,
3949855,0000019C,false,Tx,0,8,06,A0,26,9F,7F,FF,06,7F,
3976480,00000297,false,Tx,0,8,01,03,E0,00,C3,11,A8,98,
3989168,0000019C,false,Tx,0,8,06,A0,26,9F,7F,FE,0A,7F,
3998584,0000019C,false,Tx,0,8,06,A0,26,9F,7F,FE,0B,7F,
4010253,0000019C,false,Tx,0,8,06,A0,26,9F,7F,FE,0C,7F,
4039168,0000019C,false,Tx,0,8,06,A0,26,9F,7F,FE,0F,7F,
4049613,0000019C,false,Tx,0,8,06,A0,26,9F,7F,FF,00,7F,
4075391,00000297,false,Tx,0,8,01,03,E0,00,C3,11,AA,9A,
4089203,0000019C,false,Tx,0,8,06,A0,26,9F,7F,FF,04,7F,
4099624,0000019C,false,Tx,0,8,06,A0,26,9F,7F,FF,05,7F,
4108754,0000019C,false,Tx,0,8,06,A0,26,9F,7F,FE,06,7F,
4122434,0000033F,false,Tx,0,8,00,00,00,00,28,00,00,48,
4132712,00000297,false,Tx,0,8,00,03,00,00,00,00,20,00,
4182286,00000297,false,Tx,0,8,00,03,00,00,00,00,20,00,
4198461,0000019C,false,Tx,0,8,06,A0,26,9F,7F,FF,0F,7F,
4219249,0000019C,false,Tx,0,8,06,A0,26,9F,7F,FE,01,7F,
4222805,0000033F,false,Tx,0,8,00,00,00,00,28,00,00,48,
4229716,0000019C,false,Tx,0,8,06,A0,26,9F,7F,FF,02,7F,
4239043,0000019C,false,Tx,0,8,06,A0,26,9F,7F,FE,03,7F,
4289982,0000019C,false,Tx,0,8,06,A0,26,9F,7F,FF,08,7F,
4299399,0000019C,false,Tx,0,8,06,A0,26,9F,7F,FF,09,7F,
4338881,0000019C,false,Tx,0,8,06,A0,26,9F,7F,FF,0D,7F,
4350340,0000019C,false,Tx,0,8,06,A0,26,9F,7F,FE,0E,7F,
4369776,0000019C,false,Tx,0,8,06,A0,26,9F,7F,FF,00,7F,
4390387,0000019C,false,Tx,0,8,06,A0,26,9F,7F,FE,02,7F,
4399573,0000019C,false,Tx,0,8,06,A0,26,A0,7F,FE,03,7F,
4423822,0000033F,false,Tx,0,8,00,00,00,00,28,00,00,48,
4427316,00000297,false,Tx,0,8,01,03,E0,00,C3,11,A1,91,
4481700,00000297,false,Tx,0,8,00,03,00,00,00,00,20,00,
4489840,0000019C,false,Tx,0,8,06,A0,26,9F,7F,FF,0C,7F,
4499148,0000019C,false,Tx,0,8,06,A0,26,9F,7F,FF,0D,7F,
4571009,0000019C,false,Tx,0,8,06,A0,26,9F,7F,FF,04,7F,
4598809,0000019C,false,Tx,0,8,06,A0,26,A0,7F,FE,07,7F,
4629619,0000019C,false,Tx,0,8,06,A0,26,9F,7F,FF,0A,7F,
4679231,0000019C,false,Tx,0,8,06,A0,26,9F,7F,FF,0F,7F,
4700002,0000019C,false,Tx,0,8,06,A0,26,9F,7F,FF,01,7F,
4709221,0000019C,false,Tx,0,8,06,A0,26,9F,7F,FE,02,7F,
4769495,0000019C,false,Tx,0,8,06,A0,26,9F,7F,FF,08,7F,
4779976,0000019C,false,Tx,0,8,06,A0,26,9F,7F,FF,09,7F,
4799543,0000019C,false,Tx,0,8,06,A0,26,9F,7F,FE,0B,7F,
4810027,0000019C,false,Tx,0,8,06,A0,26,A0,7F,FE,0C,7F,
4823960,0000033F,false,Tx,0,8,00,00,00,00,28,00,00,48,
4882326,00000297,false,Tx,0,8,00,03,00,00,00,00,20,00,
4899673,0000019C,false,Tx,0,8,06,A0,26,9F,7F,FE,05,7F,
4910040,0000019C,false,Tx,0,8,06,A0,26,9F,7F,FE,06,7F,
4923959,0000033F,false,Tx,0,8,00,00,00,00,28,00,00,48,
4934293,00000297,false,Tx,0,8,00,03,00,00,00,00,20,00,
4951575,0000019C,false,Tx,0,8,06,A0,26,9F,7F,FE,0A,7F,
4977073,00000297,false,Tx,0,8,01,03,E0,00,C3,11,AC,9C,
4982849,00000297,false,Tx,0,8,00,03,00,00,00,00,20,00,
4989932,0000019C,false,Tx,0,8,06,A0,26,9F,7F,FE,0E,7F,
5000525,0000019C,false,Tx,0,8,06,A0,26,9F,7F,FE,0F,7F,
5033903,00000297,false,Tx,0,8,00,03,00,00,00,00,20,00,
5050706,0000019C,false,Tx,0,8,06,A0,26,9F,7F,FE,04,7F,
5058954,0000019C,false,Tx,0,8,06,A0,26,9F,7F,FF,05,7F,
5077511,00000297,false,Tx,0,8,01,03,E0,00,C3,11,AE,9E,
5099367,0000019C,false,Tx,0,8,06,A0,26,9F,7F,FE,09,7F,
5133668,00000297,false,Tx,0,8,00,03,00,00,00,00,20,00,
5151032,0000019C,false,Tx,0,8,06,A0,26,9F,7F,FF,0E,7F,
5170665,0000019C,false,Tx,0,8,06,A0,26,9F,7F,FF,00,7F,
5200721,0000019C,false,Tx,0,8,06,A0,26,9F,7F,FF,03,7F,
5250534,0000019C,false,Tx,0,8,06,A0,26,9F,7F,FF,08,7F,
5270137,0000019C,false,Tx,0,8,06,A0,26,9F,7F,FE,0A,7F,
5279488,0000019C,false,Tx,0,8,06,A0,26,9F,7F,FF,0B,7F,
5299348,0000019C,false,Tx,0,8,06,A0,26,9F,7F,FE,0D,7F,
5310935,0000019C,false,Tx,0,8,06,A0,26,9F,7F,FE,0E,7F,
5320381,0000019C,false,Tx,0,8,06,A0,26,9F,7F,FE,0F,7F,
5327479,00000297,false,Tx,0,8,01,03,E0,00,C3,11,A3,93,
5341298,0000019C,false,Tx,0,8,06,A0,26,9F,7F,FE,01,7F,
5351621,0000019C,false,Tx,0,8,06,A0,26,9F,7F,FF,02,7F,
5360803,0000019C,false,Tx,0,8,06,A0,26,9F,7F,FF,03,7F,
5400855,0000019C,false,Tx,0,8,06,A0,26,A0,7F,FE,07,7F,
5423979,0000033F,false,Tx,0,8,00,00,00,00,28,00,00,48,
5450536,0000019C,false,Tx,0,8,06,A0,26,9F,7F,FE,0C,7F,
5471427,0000019C,false,Tx,0,8,06,A0,26,9F,7F,FF,0E,7F,
5479586,0000019C,false,Tx,0,8,06,A0,26,9F,7F,FE,0F,7F,
5481931,00000297,false,Tx,0,8,00,03,00,00,00,00,20,00,
5500499,0000019C,false,Tx,0,8,06,A0,26,9F,7F,FF,01,7F,
5521354,0000019C,false,Tx,0,8,06,A0,26,A0,7F,FF,03,7F,
5528175,00000297,false,Tx,0,8,01,03,E0,00,C3,11,A7,97,
5534093,00000297,false,Tx,0,8,00,03,00,00,00,00,20,00,
5551444,0000019C,false,Tx,0,8,06,A0,26,9F,7F,FF,06,7F,
5560871,0000019C,false,Tx,0,8,06,A0,26,9F,7F,FE,07,7F,
5577344,00000297,false,Tx,0,8,01,03,E0,00,C3,11,A8,98,
5589966,0000019C,false,Tx,0,8,06,A0,26,9F,7F,FF,0A,7F,
5600306,0000019C,false,Tx,0,8,06,A0,26,9F,7F,FF,0B,7F,
5619756,0000019C,false,Tx,0,8,06,A0,26,9F,7F,FE,0D,7F,
5651924,0000019C,false,Tx,0,8,06,A0,26,9F,7F,FE,00,7F,
5700444,0000019C,false,Tx,0,8,06,A0,26,9F,7F,FE,05,7F,
5720102,0000019C,false,Tx,0,8,06,A0,26,9F,7F,FE,07,7F,
5730494,0000019C,false,Tx,0,8,06,A0,26,9F,7F,FF,08,7F,
5740939,0000019C,false,Tx,0,8,06,A0,26,9F,7F,FF,09,7F,
5751336,0000019C,false,Tx,0,8,06,A0,26,9F,7F,FF,0A,7F,
5776934,00000297,false,Tx,0,8,01,03,E0,00,C3,11,AC,9C,
5782740,00000297,false,Tx,0,8,00,03,00,00,00,00,20,00,
5801252,0000019C,false,Tx,0,8,06,A0,26,9F,7F,FE,0F,7F,
5820939,0000019C,false,Tx,0,8,06,A0,26,9F,7F,FE,01,7F,
5831400,0000019C,false,Tx,0,8,06,A0,26,9F,7F,FE,02,7F,
5834850,00000297,false,Tx,0,8,00,03,00,00,00,00,20,00,
5841846,0000019C,false,Tx,0,8,06,A0,26,9F,7F,FF,03,7F,
5851023,0000019C,false,Tx,0,8,06,A0,26,9F,7F,FE,04,7F,
5882970,00000297,false,Tx,0,8,00,03,00,00,00,00,20,00,
5891078,0000019C,false,Tx,0,8,06,A0,26,9F,7F,FF,08,7F,
5900433,0000019C,false,Tx,0,8,06,A0,26,9F,7F,FF,09,7F,
5921241,0000019C,false,Tx,0,8,06,A0,26,A0,7F,FF,0B,7F,
5952209,0000019C,false,Tx,0,8,06,A0,26,9F,7F,FE,0E,7F,
5980066,0000019C,false,Tx,0,8,06,A0,26,9F,7F,FF,01,7F,
5991603,0000019C,false,Tx,0,8,06,A0,26,9F,7F,FE,02,7F,
6000994,0000019C,false,Tx,0,8,06,A0,26,9F,7F,FE,03,7F,
6028760,00000297,false,Tx,0,8,01,03,E0,00,C3,11,A1,91,
6051701,0000019C,false,Tx,0,8,06,A0,26,9F,7F,FE,08,7F,
6061063,0000019C,false,Tx,0,8,06,A0,26,9F,7F,FE,09,7F,
6071561,0000019C,false,Tx,0,8,06,A0,26,9F,7F,FE,0A,7F,
6101682,0000019C,false,Tx,0,8,06,A0,26,9F,7F,FE,0D,7F,
6121082,0000019C,false,Tx,0,8,06,A0,26,9F,7F,FF,0F,7F,
6124555,0000033F,false,Tx,0,8,00,00,00,00,28,00,00,48,
6130265,0000019C,false,Tx,0,8,06,A0,26,A0,7F,FE,00,7F,
6141706,0000019C,false,Tx,0,8,06,A0,26,A0,7F,FF,01,7F,
6152064,0000019C,false,Tx,0,8,06,A0,26,9F,7F,FE,02,7F,
6161339,0000019C,false,Tx,0,8,06,A0,26,9F,7F,FF,03,7F,
6177569,00000297,false,Tx,0,8,01,03,E0,00,C3,11,A4,94,
6183359,00000297,false,Tx,0,8,00,03,00,00,00,00,20,00,
6192585,0000019C,false,Tx,0,8,06,A0,26,9F,7F,FF,06,7F,
6200713,0000019C,false,Tx,0,8,06,A0,26,9F,7F,FE,07,7F,
6211096,0000019C,false,Tx,0,8,06,A0,26,9F,7F,FF,08,7F,
6220409,0000019C,false,Tx,0,8,06,A0,26,9F,7F,FF,09,7F,
6225047,0000033F,false,Tx,0,8,00,00,00,00,28,00,00,48,
6231966,0000019C,false,Tx,0,8,06,A0,26,9F,7F,FF,0A,7F,
6278237,00000297,false,Tx,0,8,01,03,E0,00,C3,11,A6,96,
6291913,0000019C,false,Tx,0,8,06,A0,26,9F,7F,FE,00,7F,
6301155,0000019C,false,Tx,0,8,06,A0,26,9F,7F,FE,01,7F,
6322020,0000019C,false,Tx,0,8,06,A0,26,9F,7F,FF,03,7F,
6352412,0000019C,false,Tx,0,8,06,A0,26,9F,7F,FF,06,7F,
6360476,0000019C,false,Tx,0,8,06,A0,26,9F,7F,FF,07,7F,
6371942,0000019C,false,Tx,0,8,06,A0,26,9F,7F,FE,08,7F,
6381113,0000019C,false,Tx,0,8,06,A0,26,9F,7F,FF,09,7F,
6401730,0000019C,false,Tx,0,8,06,A0,26,9F,7F,FF,0B,7F,
6412137,0000019C,false,Tx,0,8,06,A0,26,9F,7F,FF,0C,7F,
6442250,0000019C,false,Tx,0,8,06,A0,26,9F,7F,FF,0F,7F,
6452651,0000019C,false,Tx,0,8,06,A0,26,9F,7F,FF,00,7F,
6479297,00000297,false,Tx,0,8,01,03,E0,00,C3,11,AA,9A,
6492031,0000019C,false,Tx,0,8,06,A0,26,9F,7F,FE,04,7F,
6501355,0000019C,false,Tx,0,8,06,A0,26,9F,7F,FF,05,7F,
6511796,0000019C,false,Tx,0,8,06,A0,26,9F,7F,FE,06,7F,
6529252,00000297,false,Tx,0,8,01,03,E0,00,C3,11,AB,9B,
6532762,0000019C,false,Tx,0,8,06,A0,26,9F,7F,FF,08,7F,
6535127,00000297,false,Tx,0,8,00,03,00,00,00,00,20,00,
6540988,0000019C,false,Tx,0,8,06,A0,26,9F,7F,FE,09,7F,
6552520,0000019C,false,Tx,0,8,06,A0,26,9F,7F,FE,0A,7F,
6561882,0000019C,false,Tx,0,8,06,A0,26,9F,7F,FF,0B,7F,
6571207,0000019C,false,Tx,0,8,06,A0,26,9F,7F,FF,0C,7F,
6578289,00000297,false,Tx,0,8,01,03,E0,00,C3,11,AC,9C,
6602435,0000019C,false,Tx,0,8,06,A0,26,9F,7F,FE,0F,7F,
6621805,0000019C,false,Tx,0,8,06,A0,26,9F,7F,FE,01,7F,
6625233,0000033F,false,Tx,0,8,00,00,00,00,28,00,00,48,
6632068,0000019C,false,Tx,0,8,06,A0,26,9F,7F,FF,02,7F,
6634390,00000297,false,Tx,0,8,00,03,00,00,00,00,20,00,
6651759,0000019C,false,Tx,0,8,06,A0,26,9F,7F,FF,04,7F,
6681823,0000019C,false,Tx,0,8,06,A0,26,9F,7F,FF,07,7F,
6692222,0000019C,false,Tx,0,8,06,A0,26,9F,7F,FF,08,7F,
6701525,0000019C,false,Tx,0,8,06,A0,26,9F,7F,FE,09,7F,
6711873,0000019C,false,Tx,0,8,06,A0,26,9F,7F,FE,0A,7F,
6721212,0000019C,false,Tx,0,8,06,A0,26,9F,7F,FE,0B,7F,
6736329,00000297,false,Tx,0,8,00,03,00,00,00,00,20,00,
6752529,0000019C,false,Tx,0,8,06,A0,26,9F,7F,FE,0E,7F,
6781513,0000019C,false,Tx,0,8,06,A0,26,9F,7F,FE,01,7F,
6801126,0000019C,false,Tx,0,8,06,A0,26,9F,7F,FF,03,7F,
6842601,0000019C,false,Tx,0,8,06,A0,26,9F,7F,FE,07,7F,
6851682,0000019C,false,Tx,0,8,06,A0,26,9F,7F,FF,08,7F,
6871148,0000019C,false,Tx,0,8,06,A0,26,9F,7F,FE,0A,7F,
6882549,0000019C,false,Tx,0,8,06,A0,26,9F,7F,FF,0B,7F,
6883705,00000297,false,Tx,0,8,00,03,00,00,00,00,20,00,
6892839,0000019C,false,Tx,0,8,06,A0,26,9F,7F,FF,0C,7F,
6902090,0000019C,false,Tx,0,8,06,A0,26,9F,7F,FE,0D,7F,
6941353,0000019C,false,Tx,0,8,06,A0,26,9F,7F,FF,01,7F,
6951733,0000019C,false,Tx,0,8,06,A0,26,9F,7F,FE,02,7F,
6992190,0000019C,false,Tx,0,8,06,A0,26,9F,7F,FE,06,7F,
7001518,0000019C,false,Tx,0,8,06,A0,26,9F,7F,FE,07,7F,
7013030,0000019C,false,Tx,0,8,06,A0,26,9F,7F,FF,08,7F,
7022357,0000019C,false,Tx,0,8,06,A0,26,9F,7F,FF,09,7F,
7036292,00000297,false,Tx,0,8,00,03,00,00,00,00,20,00,
7053740,0000019C,false,Tx,0,8,06,A0,26,9F,7F,FE,0C,7F,
7072520,0000019C,false,Tx,0,8,06,A0,26,9F,7F,FF,0E,7F,
7082024,0000019C,false,Tx,0,8,06,A0,26,9F,7F,FF,0F,7F,
7101970,0000019C,false,Tx,0,8,06,A0,26,9F,7F,FF,01,7F,
7112291,0000019C,false,Tx,0,8,06,A0,26,9F,7F,FE,02,7F,
7129441,00000297,false,Tx,0,8,01,03,E0,00,C3,11,A7,97,
7135192,00000297,false,Tx,0,8,00,03,00,00,00,00,20,00,
7152424,0000019C,false,Tx,0,8,06,A0,26,9F,7F,FE,06,7F,
7161751,0000019C,false,Tx,0,8,06,A0,26,9F,7F,FE,07,7F,
7184879,00000297,false,Tx,0,8,00,03,00,00,00,00,20,00,
7202145,0000019C,false,Tx,0,8,06,A0,26,9F,7F,FE,0B,7F,
7229791,00000297,false,Tx,0,8,01,03,E0,00,C3,11,A9,99,
7233283,0000019C,false,Tx,0,8,06,A0,26,9F,7F,FF,0E,7F,
7235652,00000297,false,Tx,0,8,00,03,00,00,00,00,20,00,
7253038,0000019C,false,Tx,0,8,06,A0,26,9F,7F,FE,00,7F,
7271698,0000019C,false,Tx,0,8,06,A0,26,9F,7F,FE,02,7F,
7282171,0000019C,false,Tx,0,8,06,A0,26,A0,7F,FF,03,7F,
7292509,0000019C,false,Tx,0,8,06,A0,26,A0,7F,FE,04,7F,
7302942,0000019C,false,Tx,0,8,06,A0,26,9F,7F,FF,05,7F,
7312226,0000019C,false,Tx,0,8,06,A0,26,9F,7F,FE,06,7F,
7322720,0000019C,false,Tx,0,8,06,A0,26,9F,7F,FE,07,7F,
7329796,00000297,false,Tx,0,8,01,03,E0,00,C3,11,AB,9B,
7335644,00000297,false,Tx,0,8,00,03,00,00,00,00,20,00,
7352902,0000019C,false,Tx,0,8,06,A0,26,9F,7F,FF,0A,7F,
7379139,00000297,false,Tx,0,8,01,03,E0,00,C3,11,AC,9C,
7383689,00000297,false,Tx,0,8,00,03,00,00,00,00,20,00,
7402172,0000019C,false,Tx,0,8,06,A0,26,9F,7F,FF,0F,7F,
7442613,0000019C,false,Tx,0,8,06,A0,26,9F,7F,FE,03,7F,
7473788,0000019C,false,Tx,0,8,06,A0,26,9F,7F,FF,06,7F,
7483084,0000019C,false,Tx,0,8,06,A0,26,9F,7F,FF,07,7F,
7484270,00000297,false,Tx,0,8,00,03,00,00,00,00,20,00,
7493481,0000019C,false,Tx,0,8,06,A0,26,9F,7F,FE,08,7F,
7502833,0000019C,false,Tx,0,8,06,A0,26,9F,7F,FF,09,7F,
7522592,0000019C,false,Tx,0,8,06,A0,26,9F,7F,FF,0B,7F,
7533006,0000019C,false,Tx,0,8,06,A0,26,9F,7F,FF,0C,7F,
7536532,00000297,false,Tx,0,8,00,03,00,00,00,00,20,00,
7553921,0000019C,false,Tx,0,8,06,A0,26,9F,7F,FE,0E,7F,
7584173,00000297,false,Tx,0,8,00,03,00,00,00,00,20,00,
7593387,0000019C,false,Tx,0,8,06,A0,26,A0,7F,FF,02,7F,
7602583,0000019C,false,Tx,0,8,06,A0,26,9F,7F,FE,03,7F,
7613983,0000019C,false,Tx,0,8,06,A0,26,9F,7F,FE,04,7F,
7629972,00000297,false,Tx,0,8,01,03,E0,00,C3,11,A1,91,
7633423,0000019C,false,Tx,0,8,06,A0,26,9F,7F,FE,06,7F,
7652924,0000019C,false,Tx,0,8,06,A0,26,9F,7F,FF,08,7F,
7683038,0000019C,false,Tx,0,8,06,A0,26,9F,7F,FE,0B,7F,
7684229,00000297,false,Tx,0,8,00,03,00,00,00,00,20,00,
7693432,0000019C,false,Tx,0,8,06,A0,26,9F,7F,FF,0C,7F,
7702676,0000019C,false,Tx,0,8,06,A0,26,9F,7F,FE,0D,7F,
7730385,00000297,false,Tx,0,8,01,03,E0,00,C3,11,A3,93,
7743132,0000019C,false,Tx,0,8,06,A0,26,9F,7F,FF,01,7F,
7753648,0000019C,false,Tx,0,8,06,A0,26,9F,7F,FE,02,7F,
7772368,0000019C,false,Tx,0,8,06,A0,26,9F,7F,FE,04,7F,
7785147,00000297,false,Tx,0,8,00,03,00,00,00,00,20,00,
7802607,0000019C,false,Tx,0,8,06,A0,26,9F,7F,FE,07,7F,
7813048,0000019C,false,Tx,0,8,06,A0,26,9F,7F,FE,08,7F,
7823637,0000019C,false,Tx,0,8,06,A0,26,9F,7F,FE,09,7F,
7826010,0000033F,false,Tx,0,8,00,00,00,00,28,00,00,48,
7832977,0000019C,false,Tx,0,8,06,A0,26,9F,7F,FF,0A,7F,
7843418,0000019C,false,Tx,0,8,06,A0,26,9F,7F,FF,0B,7F,
7853764,0000019C,false,Tx,0,8,06,A0,26,9F,7F,FF,0C,7F,
7873214,0000019C,false,Tx,0,8,06,A0,26,9F,7F,FE,0E,7F,
7882373,0000019C,false,Tx,0,8,06,A0,26,9F,7F,FE,0F,7F,
7902886,0000019C,false,Tx,0,8,06,A0,26,9F,7F,FE,01,7F,
7913250,0000019C,false,Tx,0,8,06,A0,26,9F,7F,FF,02,7F,
7923715,0000019C,false,Tx,0,8,06,A0,26,9F,7F,FF,03,7F,
7937673,00000297,false,Tx,0,8,00,03,00,00,00,00,20,00,
7943592,0000019C,false,Tx,0,8,06,A0,26,A0,7F,FE,05,7F,
7953986,0000019C,false,Tx,0,8,06,A0,26,9F,7F,FE,06,7F,
7973665,0000019C,false,Tx,0,8,06,A0,26,9F,7F,FF,08,7F,
7982948,0000019C,false,Tx,0,8,06,A0,26,9F,7F,FE,09,7F,
7993392,0000019C,false,Tx,0,8,06,A0,26,9F,7F,FE,0A,7F,
8002754,0000019C,false,Tx,0,8,06,A0,26,9F,7F,FF,0B,7F,
8014298,0000019C,false,Tx,0,8,06,A0,26,9F,7F,FF,0C,7F,
8032817,0000019C,false,Tx,0,8,06,A0,26,9F,7F,FF,0E,7F,
8036441,00000297,false,Tx,0,8,00,03,00,00,00,00,20,00,
8053793,0000019C,false,Tx,0,8,06,A0,26,9F,7F,FF,00,7F,
8063175,0000019C,false,Tx,0,8,06,A0,26,9F,7F,FE,01,7F,
8082919,0000019C,false,Tx,0,8,06,A0,26,9F,7F,FE,03,7F,
8103545,0000019C,false,Tx,0,8,06,A0,26,9F,7F,FF,05,7F,
8134414,0000019C,false,Tx,0,8,06,A0,26,9F,7F,FF,08,7F,
8142500,0000019C,false,Tx,0,8,06,A0,26,9F,7F,FE,09,7F,
8153990,0000019C,false,Tx,0,8,06,A0,26,9F,7F,FE,0A,7F,
8163251,0000019C,false,Tx,0,8,06,A0,26,9F,7F,FE,0B,7F,
8173759,0000019C,false,Tx,0,8,06,A0,26,9F,7F,FE,0C,7F,
8183025,0000019C,false,Tx,0,8,06,A0,26,9F,7F,FE,0D,7F,
8193385,0000019C,false,Tx,0,8,06,A0,26,9F,7F,FF,0E,7F,
8202659,0000019C,false,Tx,0,8,06,A0,26,9F,7F,FF,0F,7F,
8232793,0000019C,false,Tx,0,8,06,A0,26,9F,7F,FF,02,7F,
8253723,0000019C,false,Tx,0,8,06,A0,26,9F,7F,FE,04,7F,
8273535,0000019C,false,Tx,0,8,06,A0,26,9F,7F,FF,06,7F,
8282771,0000019C,false,Tx,0,8,06,A0,26,9F,7F,FE,07,7F,
8286264,00000297,false,Tx,0,8,00,03,00,00,00,00,20,00,
8302488,0000019C,false,Tx,0,8,06,A0,26,9F,7F,FE,09,7F,
8331391,00000297,false,Tx,0,8,01,03,E0,00,C3,11,AF,9F,
8333813,0000019C,false,Tx,0,8,06,A0,26,9F,7F,FE,0C,7F,
8337330,00000297,false,Tx,0,8,00,03,00,00,00,00,20,00,
8343136,0000019C,false,Tx,0,8,06,A0,26,9F,7F,FF,0D,7F,
8354563,0000019C,false,Tx,0,8,06,A0,26,9F,7F,FE,0E,7F,
8362611,0000019C,false,Tx,0,8,06,A0,26,9F,7F,FE,0F,7F,
8373996,0000019C,false,Tx,0,8,06,A0,26,9F,7F,FF,00,7F,
8402723,0000019C,false,Tx,0,8,06,A0,26,9F,7F,FF,03,7F,
8423550,0000019C,false,Tx,0,8,06,A0,26,9F,7F,FF,05,7F,
8427034,0000033F,false,Tx,0,8,00,00,00,00,28,00,00,48,
8430534,00000297,false,Tx,0,8,01,03,E0,00,C3,11,A1,91,
8437535,00000297,false,Tx,0,8,00,03,00,00,00,00,20,00,
8453772,0000019C,false,Tx,0,8,06,A0,26,9F,7F,FE,08,7F,
8473476,0000019C,false,Tx,0,8,06,A0,26,9F,7F,FF,0A,7F,
8482804,0000019C,false,Tx,0,8,06,A0,26,9F,7F,FF,0B,7F,
8485152,00000297,false,Tx,0,8,00,03,00,00,00,00,20,00,
8494503,0000019C,false,Tx,0,8,06,A0,26,9F,7F,FF,0C,7F,
8503863,0000019C,false,Tx,0,8,06,A0,26,9F,7F,FE,0D,7F,
8513110,0000019C,false,Tx,0,8,06,A0,26,9F,7F,FF,0E,7F,
8524730,0000019C,false,Tx,0,8,06,A0,26,9F,7F,FF,0F,7F,
8530598,00000297,false,Tx,0,8,01,03,E0,00,C3,11,A3,93,
8544598,0000019C,false,Tx,0,8,06,A0,26,9F,7F,FE,01,7F,
8553919,0000019C,false,Tx,0,8,06,A0,26,9F,7F,FF,02,7F,
8563446,0000019C,false,Tx,0,8,06,A0,26,9F,7F,FE,03,7F,
8573962,0000019C,false,Tx,0,8,06,A0,26,9F,7F,FE,04,7F,
8583221,0000019C,false,Tx,0,8,06,A0,26,9F,7F,FE,05,7F,
8603872,0000019C,false,Tx,0,8,06,A0,26,9F,7F,FE,07,7F,
8623251,0000019C,false,Tx,0,8,06,A0,26,9F,7F,FF,09,7F,
8626680,0000033F,false,Tx,0,8,00,00,00,00,28,00,00,48,
8638140,00000297,false,Tx,0,8,00,03,00,00,00,00,20,00,
8643938,0000019C,false,Tx,0,8,06,A0,26,9F,7F,FF,0B,7F,
8654366,0000019C,false,Tx,0,8,06,A0,26,9F,7F,FF,0C,7F,
8674072,0000019C,false,Tx,0,8,06,A0,26,9F,7F,FF,0E,7F,
8683342,0000019C,false,Tx,0,8,06,A0,26,9F,7F,FF,0F,7F,
8703046,0000019C,false,Tx,0,8,06,A0,26,9F,7F,FF,01,7F,
8713426,0000019C,false,Tx,0,8,06,A0,26,9F,7F,FE,02,7F,
8743649,0000019C,false,Tx,0,8,06,A0,26,9F,7F,FE,05,7F,
8755234,0000019C,false,Tx,0,8,06,A0,26,9F,7F,FE,06,7F,
8763460,0000019C,false,Tx,0,8,06,A0,26,9F,7F,FF,07,7F,
8773953,0000019C,false,Tx,0,8,06,A0,26,9F,7F,FF,08,7F,
8784299,0000019C,false,Tx,0,8,06,A0,26,9F,7F,FE,09,7F,
8785520,00000297,false,Tx,0,8,00,03,00,00,00,00,20,00,
8793649,0000019C,false,Tx,0,8,06,A0,26,9F,7F,FF,0A,7F,
8804187,0000019C,false,Tx,0,8,06,A0,26,9F,7F,FE,0B,7F,
8814606,0000019C,false,Tx,0,8,06,A0,26,9F,7F,FF,0C,7F,
8823908,0000019C,false,Tx,0,8,06,A0,26,9F,7F,FE,0D,7F,
8827371,0000033F,false,Tx,0,8,00,00,00,00,28,00,00,48,
8854949,0000019C,false,Tx,0,8,06,A0,26,9F,7F,FF,00,7F,
8874367,0000019C,false,Tx,0,8,06,A0,26,9F,7F,FF,02,7F,
8883461,0000019C,false,Tx,0,8,06,A0,26,9F,7F,FE,03,7F,
8903973,0000019C,false,Tx,0,8,06,A0,26,9F,7F,FF,05,7F,
8914325,0000019C,false,Tx,0,8,06,A0,26,9F,7F,FE,06,7F,
8928254,0000033F,false,Tx,0,8,00,00,00,00,28,00,00,48,
8931745,00000297,false,Tx,0,8,01,03,E0,00,C3,0B,AB,81,
8935248,0000019C,false,Tx,0,8,06,A0,26,9F,7F,FE,08,7F,
8954965,0000019C,false,Tx,0,8,06,A0,26,9F,7F,FF,0A,7F,
8974727,0000019C,false,Tx,0,8,06,A0,26,9F,7F,FE,0C,7F,
8980595,00000297,false,Tx,0,8,01,03,E0,00,C3,0B,AC,86,
8984086,0000019C,false,Tx,0,8,06,A0,26,9F,7F,FE,0D,7F,
9003714,0000019C,false,Tx,0,8,06,A0,26,9F,7F,FF,0F,7F,
9024532,0000019C,false,Tx,0,8,06,A0,26,9F,7F,FF,01,7F,
9028020,0000033F,false,Tx,0,8,00,00,00,00,28,00,00,48,
9054847,0000019C,false,Tx,0,8,06,A0,26,A0,7F,FE,04,7F,
9074567,0000019C,false,Tx,0,8,06,A0,26,9F,7F,FE,06,7F,
9083783,0000019C,false,Tx,0,8,06,A0,26,9F,7F,FE,07,7F,
9086113,00000297,false,Tx,0,8,00,03,00,00,00,00,20,00,
9095318,0000019C,false,Tx,0,8,06,A0,26,9F,7F,FE,08,7F,
9103369,0000019C,false,Tx,0,8,06,A0,26,9F,7F,FE,09,7F,
9114743,0000019C,false,Tx,0,8,06,A0,26,9F,7F,FE,0A,7F,
9125019,0000019C,false,Tx,0,8,06,A0,26,9F,7F,FF,0B,7F,
9130783,00000297,false,Tx,0,8,01,03,E0,00,C3,0B,AF,85,
9134212,0000019C,false,Tx,0,8,06,A0,26,A0,7F,FE,0C,7F,
9144428,0000019C,false,Tx,0,8,06,A0,26,A0,7F,FF,0D,7F,
9154800,0000019C,false,Tx,0,8,06,A0,26,A0,7F,FF,0E,7F,
9174410,0000019C,false,Tx,0,8,06,A0,26,A0,7F,FF,00,7F,
9183771,0000019C,false,Tx,0,8,06,A0,26,A0,7F,FF,01,7F,
9195289,0000019C,false,Tx,0,8,06,A0,26,A0,7F,FE,02,7F,
9203458,0000019C,false,Tx,0,8,06,A0,26,A0,7F,FF,03,7F,
9214927,0000019C,false,Tx,0,8,06,A0,26,A0,7F,FF,04,7F,
9225354,0000019C,false,Tx,0,8,06,A0,26,A0,7F,FF,05,7F,
9234603,0000019C,false,Tx,0,8,06,A0,26,A0,7F,FE,06,7F,
9238080,00000297,false,Tx,0,8,00,03,00,00,00,00,20,00,
9254368,0000019C,false,Tx,0,8,06,A0,26,A0,7F,FE,08,7F,
9274222,0000019C,false,Tx,0,8,06,A0,26,A0,7F,FF,0A,7F,
9281277,00000297,false,Tx,0,8,01,03,E0,00,C3,0B,A2,88,
9283651,0000019C,false,Tx,0,8,06,A0,26,A0,7F,FE,0B,7F,
9303398,0000019C,false,Tx,0,8,06,A0,26,9F,7F,FE,0D,7F,
9328815,0000033F,false,Tx,0,8,00,00,00,00,28,00,00,48,
9334665,0000019C,false,Tx,0,8,06,A0,26,9F,7F,FF,00,7F,
9344058,0000019C,false,Tx,0,8,06,A0,26,9F,7F,FF,01,7F,
9355489,0000019C,false,Tx,0,8,06,A0,26,9F,7F,FE,02,7F,
9364665,0000019C,false,Tx,0,8,06,A0,26,9F,7F,FE,03,7F,
9384038,0000019C,false,Tx,0,8,06,A0,26,9F,7F,FE,05,7F,
9395513,0000019C,false,Tx,0,8,06,A0,26,9F,7F,FF,06,7F,
9404729,0000019C,false,Tx,0,8,06,A0,26,9F,7F,FE,07,7F,
9415138,0000019C,false,Tx,0,8,06,A0,26,9F,7F,FE,08,7F,
9425577,0000019C,false,Tx,0,8,06,A0,26,9F,7F,FF,09,7F,
9438400,00000297,false,Tx,0,8,00,03,00,00,00,00,20,00,
9444228,0000019C,false,Tx,0,8,06,A0,26,9F,7F,FE,0B,7F,
9454710,0000019C,false,Tx,0,8,06,A0,26,9F,7F,FE,0C,7F,
9464015,0000019C,false,Tx,0,8,06,A0,26,A0,7F,FF,0D,7F,
9475627,0000019C,false,Tx,0,8,06,A0,26,A0,7F,FE,0E,7F,
9484907,0000019C,false,Tx,0,8,06,A0,26,A0,7F,FE,0F,7F,
9495338,0000019C,false,Tx,0,8,06,A0,26,A0,7F,FE,00,7F,
9515052,0000019C,false,Tx,0,8,06,A0,26,A0,7F,FE,02,7F,
9544080,0000019C,false,Tx,0,8,06,A0,26,9F,7F,FF,05,7F,
9555643,0000019C,false,Tx,0,8,06,A0,26,9F,7F,FE,06,7F,
9575387,0000019C,false,Tx,0,8,06,A0,26,9F,7F,FE,08,7F,
9581336,00000297,false,Tx,0,8,01,03,E0,00,C3,0B,A8,82,
9584811,0000019C,false,Tx,0,8,06,A0,26,9F,7F,FF,09,7F,
9604388,0000019C,false,Tx,0,8,06,A0,26,9F,7F,FE,0B,7F,
9615766,0000019C,false,Tx,0,8,06,A0,26,9F,7F,FE,0C,7F,
9635110,0000019C,false,Tx,0,8,06,A0,26,A0,7F,FE,0E,7F,
9638547,00000297,false,Tx,0,8,00,03,00,00,00,00,20,00,
9655662,0000019C,false,Tx,0,8,06,A0,26,A0,7F,FF,00,7F,
9675340,0000019C,false,Tx,0,8,06,A0,26,A0,7F,FE,02,7F,
9684605,0000019C,false,Tx,0,8,06,A0,26,A0,7F,FE,03,7F,
9704306,0000019C,false,Tx,0,8,06,A0,26,A0,7F,FE,05,7F,
9714693,0000019C,false,Tx,0,8,06,A0,26,9F,7F,FE,06,7F,
9735490,0000019C,false,Tx,0,8,06,A0,26,9F,7F,FF,08,7F,
9745965,0000019C,false,Tx,0,8,06,A0,26,A0,7F,FE,09,7F,
9755237,0000019C,false,Tx,0,8,06,A0,26,A0,7F,FF,0A,7F,
9764536,0000019C,false,Tx,0,8,06,A0,26,A0,7F,FF,0B,7F,
9776090,0000019C,false,Tx,0,8,06,A0,26,A0,7F,FF,0C,7F,
9784307,0000019C,false,Tx,0,8,06,A0,26,A0,7F,FE,0D,7F,
9795936,0000019C,false,Tx,0,8,06,A0,26,9F,7F,FF,0E,7F,
9815671,0000019C,false,Tx,0,8,06,A0,26,9F,7F,FE,00,7F,
9845684,0000019C,false,Tx,0,8,06,A0,26,9F,7F,FE,03,7F,
9854834,0000019C,false,Tx,0,8,06,A0,26,A0,7F,FF,04,7F,
9865118,0000019C,false,Tx,0,8,06,A0,26,A0,7F,FE,05,7F,
9875373,0000019C,false,Tx,0,8,06,A0,26,9F,7F,FE,06,7F,
9884512,0000019C,false,Tx,0,8,06,A0,26,9F,7F,FF,07,7F,
9886852,00000297,false,Tx,0,8,00,03,00,00,00,00,20,00,
9915650,0000019C,false,Tx,0,8,06,A0,26,9F,7F,FF,0A,7F,
9926099,0000019C,false,Tx,0,8,06,A0,26,9F,7F,FE,0B,7F,
9956088,0000019C,false,Tx,0,8,06,A0,26,A0,7F,FF,0E,7F,
9975806,0000019C,false,Tx,0,8,06,A0,26,A0,7F,FF,00,7F,
9981674,00000297,false,Tx,0,8,01,03,E0,00,C3,0B,A0,8A,
9985172,0000019C,false,Tx,0,8,06,A0,26,A0,7F,FF,01,7F,
10004940,0000019C,false,Tx,0,8,06,A0,26,9F,7F,FF,03,7F,
10015399,0000019C,false,Tx,0,8,06,A0,26,9F,7F,FE,04,7F,
10032818,00000297,false,Tx,0,8,01,03,E0,00,C3,0B,A1,8B,
10036334,0000019C,false,Tx,0,8,06,A0,26,9F,7F,FF,06,7F,
10038709,00000297,false,Tx,0,8,00,03,00,00,00,00,20,00,
10044624,0000019C,false,Tx,0,8,06,A0,26,9F,7F,FE,07,7F,
10056263,0000019C,false,Tx,0,8,06,A0,26,9F,7F,FF,08,7F,
10065647,0000019C,false,Tx,0,8,06,A0,26,9F,7F,FE,09,7F,
10075106,0000019C,false,Tx,0,8,06,A0,26,9F,7F,FF,0A,7F,
10085455,0000019C,false,Tx,0,8,06,A0,26,9F,7F,FE,0B,7F,
10086653,00000297,false,Tx,0,8,00,03,00,00,00,00,20,00,
10105018,0000019C,false,Tx,0,8,06,A0,26,9F,7F,FF,0D,7F,
10116395,0000019C,false,Tx,0,8,06,A0,26,9F,7F,FF,0E,7F,
10132455,00000297,false,Tx,0,8,01,03,E0,00,C3,0B,A3,89,
10145138,0000019C,false,Tx,0,8,06,A0,26,9F,7F,FF,01,7F,
10156724,0000019C,false,Tx,0,8,06,A0,26,A0,7F,FF,02,7F,
10166028,0000019C,false,Tx,0,8,06,A0,26,9F,7F,FE,03,7F,
10176483,0000019C,false,Tx,0,8,06,A0,26,9F,7F,FE,04,7F,
10185759,0000019C,false,Tx,0,8,06,A0,26,A0,7F,FF,05,7F,
10196142,0000019C,false,Tx,0,8,06,A0,26,A0,7F,FE,06,7F,
10215767,0000019C,false,Tx,0,8,06,A0,26,9F,7F,FF,08,7F,
10225093,0000019C,false,Tx,0,8,06,A0,26,9F,7F,FE,09,7F,
10256554,0000019C,false,Tx,0,8,06,A0,26,A0,7F,FE,0C,7F,
10265812,0000019C,false,Tx,0,8,06,A0,26,9F,7F,FF,0D,7F,
10276238,0000019C,false,Tx,0,8,06,A0,26,9F,7F,FF,0E,7F,
10282030,00000297,false,Tx,0,8,01,03,E0,00,C3,0B,A6,8C,
10285488,0000019C,false,Tx,0,8,06,A0,26,9F,7F,FF,0F,7F,
10297130,0000019C,false,Tx,0,8,06,A0,26,9F,7F,FF,00,7F,
10305355,0000019C,false,Tx,0,8,06,A0,26,9F,7F,FF,01,7F,
10315789,0000019C,false,Tx,0,8,06,A0,26,9F,7F,FE,02,7F,
10326268,0000019C,false,Tx,0,8,06,A0,26,9F,7F,FF,03,7F,
10355321,0000019C,false,Tx,0,8,06,A0,26,9F,7F,FE,06,7F,
10377072,0000019C,false,Tx,0,8,06,A0,26,9F,7F,FF,08,7F,
10386292,0000019C,false,Tx,0,8,06,A0,26,9F,7F,FE,09,7F,
10406755,0000019C,false,Tx,0,8,06,A0,26,9F,7F,FE,0B,7F,
10417010,0000019C,false,Tx,0,8,06,A0,26,9F,7F,FF,0C,7F,
10429516,0000033F,false,Tx,0,8,00,00,00,00,28,00,00,48,
10432929,00000297,false,Tx,0,8,01,03,E0,00,C3,0B,A9,83,
10436341,0000019C,false,Tx,0,8,06,A0,26,9F,7F,FE,0E,7F,
10439666,00000297,false,Tx,0,8,00,03,00,00,00,00,20,00,
10445392,0000019C,false,Tx,0,8,06,A0,26,9F,7F,FE,0F,7F,
10456716,0000019C,false,Tx,0,8,06,A0,26,9F,7F,FF,00,7F,
10477161,0000019C,false,Tx,0,8,06,A0,26,9F,7F,FE,02,7F,
10486316,0000019C,false,Tx,0,8,06,A0,26,9F,7F,FE,03,7F,
10496647,0000019C,false,Tx,0,8,06,A0,26,9F,7F,FF,04,7F,
10505944,0000019C,false,Tx,0,8,06,A0,26,9F,7F,FF,05,7F,
10516323,0000019C,false,Tx,0,8,06,A0,26,9F,7F,FE,06,7F,
10532713,00000297,false,Tx,0,8,01,03,E0,00,C3,0B,AB,81,
10545588,0000019C,false,Tx,0,8,06,A0,26,9F,7F,FE,09,7F,
10557255,0000019C,false,Tx,0,8,06,A0,26,9F,7F,FF,0A,7F,
10565494,0000019C,false,Tx,0,8,06,A0,26,9F,7F,FE,0B,7F,
10577369,0000019C,false,Tx,0,8,06,A0,26,9F,7F,FF,0C,7F,
10583255,00000297,false,Tx,0,8,01,03,E0,00,C3,0B,AC,86,
10585628,0000019C,false,Tx,0,8,06,A0,26,9F,7F,FE,0D,7F,
10587881,00000297,false,Tx,0,8,00,03,00,00,00,00,20,00,
10595940,0000019C,false,Tx,0,8,06,A0,26,9F,7F,FF,0E,7F,
10606251,0000019C,false,Tx,0,8,06,A0,26,9F,7F,FF,0F,7F,
10617613,0000019C,false,Tx,0,8,06,A0,26,9F,7F,FF,00,7F,
10625647,0000019C,false,Tx,0,8,06,A0,26,9F,7F,FF,01,7F,
10637024,0000019C,false,Tx,0,8,06,A0,26,9F,7F,FE,02,7F,
10646238,0000019C,false,Tx,0,8,06,A0,26,9F,7F,FF,03,7F,
10656591,0000019C,false,Tx,0,8,06,A0,26,9F,7F,FE,04,7F,
10676313,0000019C,false,Tx,0,8,06,A0,26,9F,7F,FF,06,7F,
10683267,00000297,false,Tx,0,8,01,03,E0,00,C3,0B,AE,84,
10686767,0000019C,false,Tx,0,8,06,A0,26,9F,7F,FE,07,7F,
10697178,0000019C,false,Tx,0,8,06,A0,26,9F,7F,FF,08,7F,
10706462,0000019C,false,Tx,0,8,06,A0,26,9F,7F,FF,09,7F,
10716819,0000019C,false,Tx,0,8,06,A0,26,9F,7F,FE,0A,7F,
10726086,0000019C,false,Tx,0,8,06,A0,26,A0,7F,FE,0B,7F,
10736577,0000019C,false,Tx,0,8,06,A0,26,A0,7F,FE,0C,7F,
10745901,0000019C,false,Tx,0,8,06,A0,26,9F,7F,FF,0D,7F,
10756365,0000019C,false,Tx,0,8,06,A0,26,9F,7F,FF,0E,7F,
10777306,0000019C,false,Tx,0,8,06,A0,26,A0,7F,FF,00,7F,
10786451,0000019C,false,Tx,0,8,06,A0,26,A0,7F,FF,01,7F,
10795826,0000019C,false,Tx,0,8,06,A0,26,A0,7F,FE,02,7F,
10806311,0000019C,false,Tx,0,8,06,A0,26,9F,7F,FF,03,7F,
10816750,0000019C,false,Tx,0,8,06,A0,26,9F,7F,FE,04,7F,
10826153,0000019C,false,Tx,0,8,06,A0,26,9F,7F,FF,05,7F,
10839963,00000297,false,Tx,0,8,00,03,00,00,00,00,20,00,
10857184,0000019C,false,Tx,0,8,06,A0,26,9F,7F,FF,08,7F,
10865206,0000019C,false,Tx,0,8,06,A0,26,9F,7F,FE,09,7F,
10876602,0000019C,false,Tx,0,8,06,A0,26,9F,7F,FE,0A,7F,
10883424,00000297,false,Tx,0,8,01,03,E0,00,C3,0B,A2,88,
10885719,0000019C,false,Tx,0,8,06,A0,26,9F,7F,FF,0B,7F,
10896089,0000019C,false,Tx,0,8,06,A0,26,9F,7F,FF,0C,7F,
10905399,0000019C,false,Tx,0,8,06,A0,26,9F,7F,FE,0D,7F,
10916866,0000019C,false,Tx,0,8,06,A0,26,9F,7F,FE,0E,7F,
10926096,0000019C,false,Tx,0,8,06,A0,26,9F,7F,FF,0F,7F,
10936440,0000019C,false,Tx,0,8,06,A0,26,9F,7F,FE,00,7F,
10939923,00000297,false,Tx,0,8,00,03,00,00,00,00,20,00,
10957214,0000019C,false,Tx,0,8,06,A0,26,9F,7F,FF,02,7F,
10966487,0000019C,false,Tx,0,8,06,A0,26,9F,7F,FF,03,7F,
10976890,0000019C,false,Tx,0,8,06,A0,26,9F,7F,FE,04,7F,
10986124,0000019C,false,Tx,0,8,06,A0,26,9F,7F,FF,05,7F,
10996573,0000019C,false,Tx,0,8,06,A0,26,9F,7F,FF,06,7F,
11017411,0000019C,false,Tx,0,8,06,A0,26,A0,7F,FE,08,7F,
11026715,0000019C,false,Tx,0,8,06,A0,26,9F,7F,FF,09,7F,
11037245,0000019C,false,Tx,0,8,06,A0,26,9F,7F,FE,0A,7F,
11046668,0000019C,false,Tx,0,8,06,A0,26,9F,7F,FF,0B,7F,
11057077,0000019C,false,Tx,0,8,06,A0,26,9F,7F,FE,0C,7F,
11066463,0000019C,false,Tx,0,8,06,A0,26,9F,7F,FE,0D,7F,
11077010,0000019C,false,Tx,0,8,06,A0,26,9F,7F,FE,0E,7F,
11085227,0000019C,false,Tx,0,8,06,A0,26,9F,7F,FE,0F,7F,
11096780,0000019C,false,Tx,0,8,06,A0,26,9F,7F,FF,00,7F,
11105948,0000019C,false,Tx,0,8,06,A0,26,9F,7F,FF,01,7F,
11117304,0000019C,false,Tx,0,8,06,A0,26,9F,7F,FE,02,7F,
11126437,0000019C,false,Tx,0,8,06,A0,26,9F,7F,FF,03,7F,
11128728,0000033F,false,Tx,0,8,00,00,00,00,28,00,00,48,
11157325,0000019C,false,Tx,0,8,06,A0,26,A0,7F,FF,06,7F,
11166525,0000019C,false,Tx,0,8,06,A0,26,9F,7F,FE,07,7F,
11177993,0000019C,false,Tx,0,8,06,A0,26,9F,7F,FE,08,7F,
11186160,0000019C,false,Tx,0,8,06,A0,26,9F,7F,FF,09,7F,
11197658,0000019C,false,Tx,0,8,06,A0,26,9F,7F,FE,0A,7F,
11205795,0000019C,false,Tx,0,8,06,A0,26,9F,7F,FF,0B,7F,
11217251,0000019C,false,Tx,0,8,06,A0,26,A0,7F,FE,0C,7F,
11226618,0000019C,false,Tx,0,8,06,A0,26,A0,7F,FF,0D,7F,
11247591,0000019C,false,Tx,0,8,06,A0,26,9F,7F,FE,0F,7F,
11258070,0000019C,false,Tx,0,8,06,A0,26,9F,7F,FE,00,7F,
11277837,0000019C,false,Tx,0,8,06,A0,26,9F,7F,FF,02,7F,
11285934,0000019C,false,Tx,0,8,06,A0,26,9F,7F,FE,03,7F,
11296415,0000019C,false,Tx,0,8,06,A0,26,9F,7F,FF,04,7F,
11306979,0000019C,false,Tx,0,8,06,A0,26,9F,7F,FE,05,7F,
11317384,0000019C,false,Tx,0,8,06,A0,26,9F,7F,FF,06,7F,
11327878,0000019C,false,Tx,0,8,06,A0,26,9F,7F,FE,07,7F,
11337357,0000019C,false,Tx,0,8,06,A0,26,9F,7F,FF,08,7F,
11347716,0000019C,false,Tx,0,8,06,A0,26,9F,7F,FE,09,7F,
11356861,0000019C,false,Tx,0,8,06,A0,26,9F,7F,FF,0A,7F,
11367131,0000019C,false,Tx,0,8,06,A0,26,9F,7F,FE,0B,7F,
11377402,0000019C,false,Tx,0,8,06,A0,26,9F,7F,FE,0C,7F,
11383094,00000297,false,Tx,0,8,01,03,E0,00,C3,08,AC,85,
11385373,0000019C,false,Tx,0,8,06,A0,26,9F,7F,FF,0D,7F,
11396692,0000019C,false,Tx,0,8,06,A0,26,9F,7F,FF,0E,7F,
11417305,0000019C,false,Tx,0,8,06,A0,26,9F,7F,FE,00,7F,
11427752,0000019C,false,Tx,0,8,06,A0,26,9F,7F,FF,01,7F,
11457731,0000019C,false,Tx,0,8,06,A0,26,9F,7F,FE,04,7F,
11476278,0000019C,false,Tx,0,8,06,A0,26,9F,7F,FF,06,7F,
11486733,0000019C,false,Tx,0,8,06,A0,26,9F,7F,FE,07,7F,
11498210,0000019C,false,Tx,0,8,06,A0,26,9F,7F,FE,08,7F,
11517814,0000019C,false,Tx,0,8,06,A0,26,9F,7F,FE,0A,7F,
11533999,00000297,false,Tx,0,8,01,03,E0,00,C3,08,AF,86,
11537530,0000019C,false,Tx,0,8,06,A0,26,9F,7F,FE,0C,7F,
11548197,0000019C,false,Tx,0,8,06,A0,26,9F,7F,FE,0D,7F,
11557551,0000019C,false,Tx,0,8,06,A0,26,9F,7F,FE,0E,7F,
11566818,0000019C,false,Tx,0,8,06,A0,26,9F,7F,FF,0F,7F,
11578474,0000019C,false,Tx,0,8,06,A0,26,9F,7F,FE,00,7F,
11583220,00000297,false,Tx,0,8,01,03,E0,00,C3,08,A0,89,
11586723,0000019C,false,Tx,0,8,06,A0,26,9F,7F,FF,01,7F,
11597185,0000019C,false,Tx,0,8,06,A0,26,9F,7F,FE,02,7F,
11617680,0000019C,false,Tx,0,8,06,A0,26,9F,7F,FE,04,7F,
11626856,0000019C,false,Tx,0,8,06,A0,26,9F,7F,FE,05,7F,
11640512,00000297,false,Tx,0,8,00,03,00,00,00,00,20,00,
11647306,0000019C,false,Tx,0,8,06,A0,26,9F,7F,FE,07,7F,
11657603,0000019C,false,Tx,0,8,06,A0,26,A0,7F,FF,08,7F,
11666864,0000019C,false,Tx,0,8,06,A0,26,9F,7F,FF,09,7F,
11677322,0000019C,false,Tx,0,8,06,A0,26,9F,7F,FE,0A,7F,
11684264,00000297,false,Tx,0,8,01,03,E0,00,C3,08,A2,8B,
11687717,0000019C,false,Tx,0,8,06,A0,26,9F,7F,FF,0B,7F,
11698048,0000019C,false,Tx,0,8,06,A0,26,9F,7F,FE,0C,7F,
11717588,0000019C,false,Tx,0,8,06,A0,26,9F,7F,FF,0E,7F,
2230920,00000297,false,Tx,0,8,00,03,00,00,00,00,20,00,
