Time Stamp,ID,Extended,Dir,Bus,LEN,D1,D2,D3,D4,D5,D6,D7,D8
11390139,0000039F,false,Rx,0,8,4A,71,00,00,04,89,0B,BD,
11390389,00000323,false,Rx,0,8,00,00,00,00,00,00,D8,97,
11390634,00000324,false,Rx,0,8,70,44,D9,54,4E,00,00,7B,
11390881,0000033B,false,Rx,0,8,00,00,00,5C,00,00,00,00,
11391133,0000033D,false,Rx,0,8,00,00,10,20,00,18,00,00,
11391379,000003A2,false,Rx,0,8,21,60,10,6C,03,FF,00,C1,
11391625,000003A4,false,Rx,0,8,00,00,07,00,01,00,00,00,
11391872,000003B7,false,Rx,0,8,00,00,00,00,00,00,04,41,
11392125,00000491,false,Rx,0,8,00,00,00,00,00,00,00,00,
11439305,0000019C,false,Rx,0,8,06,A0,26,00,00,00,00,7F,
11439552,000001F1,false,Rx,0,8,0E,00,00,00,00,00,20,00,
11439796,00000297,false,Rx,0,8,00,03,00,00,00,00,20,00,
11440052,000002A6,false,Rx,0,8,01,00,00,00,00,00,00,00,
11440297,0000033F,false,Rx,0,8,00,00,00,00,28,00,00,48,
11490009,0000039F,false,Rx,0,8,4A,71,00,00,04,89,0C,BA,
11490258,00000323,false,Rx,0,8,00,00,00,00,00,00,D7,63,
11490503,00000324,false,Rx,0,8,70,44,E2,54,4E,00,00,7B,
11490749,0000033B,false,Rx,0,8,00,00,00,5C,00,00,00,00,
11491003,0000033D,false,Rx,0,8,00,00,10,20,00,18,00,00,
11491250,000003A2,false,Rx,0,8,21,60,10,70,03,FF,00,DD,
11491495,000003A4,false,Rx,0,8,00,00,07,00,01,00,00,00,
11491742,000003B7,false,Rx,0,8,00,00,00,00,00,01,48,41,
11491997,00000491,false,Rx,0,8,00,00,00,00,00,00,00,00,
11539303,0000019C,false,Rx,0,8,06,A0,26,00,00,00,00,7F,
11539551,000001F1,false,Rx,0,8,0E,00,00,00,00,00,20,00,
11539796,00000297,false,Rx,0,8,00,03,00,00,00,00,20,00,
11540051,000002A6,false,Rx,0,8,01,00,00,00,00,00,00,00,
11540296,0000033F,false,Rx,0,8,00,00,00,00,28,00,00,48,
11590700,0000039F,false,Rx,0,8,4A,71,00,00,04,89,0D,BB,
11590950,00000323,false,Rx,0,8,00,00,00,00,00,00,D7,63,
11591203,00000324,false,Rx,0,8,70,44,F2,54,4E,00,00,7B,
11591449,0000033B,false,Rx,0,8,00,00,00,5C,00,00,00,00,
11591694,0000033D,false,Rx,0,8,00,00,10,20,00,18,00,00,
11591942,000003A2,false,Rx,0,8,21,61,10,74,03,FF,00,D8,
11592195,000003A4,false,Rx,0,8,00,00,07,00,01,00,00,00,
11592442,000003B7,false,Rx,0,8,00,00,00,00,00,02,9C,41,
11592688,00000491,false,Rx,0,8,00,00,00,00,00,00,00,00,
11639376,0000019C,false,Rx,0,8,06,A0,26,00,00,00,00,7F,
11639623,000001F1,false,Rx,0,8,0E,00,00,00,00,00,20,00,
11639872,00000297,false,Rx,0,8,00,03,00,00,00,00,20,00,
11640124,000002A6,false,Rx,0,8,01,00,00,00,00,00,00,00,
11640370,0000033F,false,Rx,0,8,00,00,00,00,28,00,00,48,
11691020,0000039F,false,Rx,0,8,4A,71,00,00,04,89,0E,B8,
11691266,00000323,false,Rx,0,8,00,00,00,00,00,00,D7,63,
11691512,00000324,false,Rx,0,8,70,44,F2,54,4E,00,00,7B,
11691758,0000033B,false,Rx,0,8,00,00,00,5C,00,00,00,00,
11692012,0000033D,false,Rx,0,8,00,00,10,20,00,18,00,00,
11692257,000003A2,false,Rx,0,8,21,61,10,78,03,FF,00,D4,
11692504,000003A4,false,Rx,0,8,00,00,07,00,01,00,00,00,
11692749,000003B7,false,Rx,0,8,00,00,00,00,00,03,D0,41,
11693007,00000491,false,Rx,0,8,00,00,00,00,00,00,00,00,
11739332,0000019C,false,Rx,0,8,06,A0,26,00,00,00,00,7F,
11739580,000001F1,false,Rx,0,8,0E,00,00,00,00,00,20,00,
11739827,00000297,false,Rx,0,8,00,03,00,00,00,00,20,00,
11740080,000002A6,false,Rx,0,8,00,00,00,00,00,00,00,00,
11740326,0000033F,false,Rx,0,8,00,00,00,00,28,00,00,48,
11791146,0000039F,false,Rx,0,8,4A,71,00,00,04,89,0F,B9,
11791393,00000323,false,Rx,0,8,00,00,00,00,00,00,D7,63,
11791639,00000324,false,Rx,0,8,70,44,E2,54,4E,00,00,7B,
11791887,0000033B,false,Rx,0,8,00,00,00,5C,00,00,00,00,
11792139,0000033D,false,Rx,0,8,00,00,10,20,00,18,00,00,
11792384,000003A2,false,Rx,0,8,21,60,10,7C,03,FF,00,D1,
11792630,000003A4,false,Rx,0,8,00,00,07,00,01,00,00,00,
11792880,000003B7,false,Rx,0,8,00,00,00,00,00,04,29,41,
11793128,00000491,false,Rx,0,8,00,00,00,00,00,00,00,00,
11839235,0000019C,false,Rx,0,8,06,A0,26,00,00,00,00,7F,
11839483,000001F1,false,Rx,0,8,0E,00,00,00,00,00,20,00,
11839729,00000297,false,Rx,0,8,00,03,00,00,00,00,20,00,
11839987,000002A6,false,Rx,0,8,01,00,00,00,00,00,00,00,
11840232,0000033F,false,Rx,0,8,00,00,00,00,28,00,00,48,
11891528,0000039F,false,Rx,0,8,4A,71,00,00,04,89,00,B6,
11891775,00000323,false,Rx,0,8,00,00,00,00,00,00,D7,63,
11892066,00000324,false,Rx,0,8,70,44,D9,54,4E,00,00,7B,
11892076,0000033B,false,Rx,0,8,00,00,00,5C,00,00,00,00,
11892316,0000033D,false,Rx,0,8,00,00,10,20,00,18,00,00,
11892563,000003A2,false,Rx,0,8,21,60,10,40,03,FF,00,ED,
11892808,000003A4,false,Rx,0,8,00,00,07,00,01,00,00,00,
11893066,000003B7,false,Rx,0,8,00,00,00,00,00,05,65,41,
11893311,00000491,false,Rx,0,8,00,00,00,00,00,00,00,00,
11939217,0000019C,false,Rx,0,8,06,A0,26,00,00,00,00,7F,
11939465,000001F1,false,Rx,0,8,0E,00,00,00,00,00,20,00,
11939711,00000297,false,Rx,0,8,00,03,00,00,00,00,20,00,
11939958,000002A6,false,Rx,0,8,01,00,00,00,00,00,00,00,
11940212,0000033F,false,Rx,0,8,00,00,00,00,28,00,00,48,
11991789,0000039F,false,Rx,0,8,4A,71,00,00,04,89,01,B7,
11992047,00000323,false,Rx,0,8,00,00,00,00,00,00,C1,51,
11992293,00000324,false,Rx,0,8,70,44,D3,54,4E,00,00,7B,
11992539,0000033B,false,Rx,0,8,00,00,00,5C,00,00,00,00,
11992785,0000033D,false,Rx,0,8,00,00,10,20,00,18,00,00,
11993042,000003A2,false,Rx,0,8,21,60,10,44,03,FF,00,E9,
11993288,000003A4,false,Rx,0,8,00,00,07,00,01,00,00,00,
11993534,000003B7,false,Rx,0,8,00,00,00,00,00,06,B1,41,
11993780,00000491,false,Rx,0,8,00,00,00,00,00,00,00,00,
12039262,0000019C,false,Rx,0,8,06,A0,26,00,00,00,00,7F,
12039511,000001F1,false,Rx,0,8,0E,00,00,00,00,00,20,00,
12039757,00000297,false,Rx,0,8,00,03,00,00,00,00,20,00,
12040012,000002A6,false,Rx,0,8,00,00,00,00,00,00,00,00,
12040258,0000033F,false,Rx,0,8,00,00,00,00,28,00,00,48,
12092154,0000039F,false,Rx,0,8,4A,71,00,00,04,89,02,B4,
12092404,00000323,false,Rx,0,8,00,00,00,00,00,00,C1,51,
12092649,00000324,false,Rx,0,8,70,44,E2,54,4E,00,00,7B,
12092898,0000033B,false,Rx,0,8,00,00,00,5C,00,00,00,00,
12093149,0000033D,false,Rx,0,8,00,00,10,20,00,18,00,00,
12093395,000003A2,false,Rx,0,8,21,60,10,48,03,FF,00,E5,
12093641,000003A4,false,Rx,0,8,00,00,07,00,01,00,00,00,
12093889,000003B7,false,Rx,0,8,00,00,00,00,00,07,FD,41,
12094142,00000491,false,Rx,0,8,00,00,00,00,00,00,00,00,
12139375,0000019C,false,Rx,0,8,06,A0,26,00,00,00,00,7F,
12139623,000001F1,false,Rx,0,8,0E,00,00,00,00,00,20,00,
12139872,00000297,false,Rx,0,8,00,03,00,00,00,00,20,00,
12140124,000002A6,false,Rx,0,8,01,00,00,00,00,00,00,00,
12140371,0000033F,false,Rx,0,8,00,00,00,00,28,00,00,48,
12192492,0000039F,false,Rx,0,8,4A,71,00,00,04,89,03,B5,
12192741,00000323,false,Rx,0,8,00,00,00,00,00,00,C1,51,
12192994,00000324,false,Rx,0,8,70,44,D9,54,4E,00,00,7B,
12193241,0000033B,false,Rx,0,8,00,00,00,5C,00,00,00,00,
12193486,0000033D,false,Rx,0,8,00,00,10,20,00,18,00,00,
12193733,000003A2,false,Rx,0,8,21,60,10,4C,03,FF,00,E1,
12193987,000003A4,false,Rx,0,8,00,00,07,00,01,00,00,00,
12194233,000003B7,false,Rx,0,8,00,00,00,00,00,08,5E,41,
12194478,00000491,false,Rx,0,8,00,00,00,00,00,00,00,00,
12239242,0000019C,false,Rx,0,8,06,A0,26,00,00,00,00,7F,
12239489,000001F1,false,Rx,0,8,0E,00,00,00,00,00,20,00,
12239735,00000297,false,Rx,0,8,00,03,00,00,00,00,20,00,
12239992,000002A6,false,Rx,0,8,01,00,00,00,00,00,00,00,
12240238,0000033F,false,Rx,0,8,00,00,00,00,28,00,00,48,
12292482,0000039F,false,Rx,0,8,4A,71,00,00,04,89,04,B2,
12292731,00000323,false,Rx,0,8,00,00,00,00,00,00,C1,51,
12292986,00000324,false,Rx,0,8,70,44,DD,54,4E,00,00,7B,
12293232,0000033B,false,Rx,0,8,00,00,00,5C,00,00,00,00,
12293478,0000033D,false,Rx,0,8,00,00,10,20,00,18,00,00,
12293724,000003A2,false,Rx,0,8,21,60,10,50,03,FF,00,FD,
12293978,000003A4,false,Rx,0,8,00,00,07,00,01,00,00,00,
12294225,000003B7,false,Rx,0,8,00,00,00,00,00,09,12,41,
12294470,00000491,false,Rx,0,8,00,00,00,00,00,00,00,00,
12339256,0000019C,false,Rx,0,8,06,A0,26,00,00,00,00,7F,
12339504,000001F1,false,Rx,0,8,0E,00,00,00,00,00,20,00,
12339750,00000297,false,Rx,0,8,00,03,00,00,00,00,20,00,
12340004,000002A6,false,Rx,0,8,01,00,00,00,00,00,00,00,
12340251,0000033F,false,Rx,0,8,00,00,00,00,28,00,00,48,
12393009,0000039F,false,Rx,0,8,4A,71,00,00,04,89,05,B3,
12393257,00000323,false,Rx,0,8,00,00,00,00,00,00,C1,51,
12393503,00000324,false,Rx,0,8,70,44,C4,54,4E,00,00,7B,
12393748,0000033B,false,Rx,0,8,00,00,00,5C,00,00,00,00,
12394002,0000033D,false,Rx,0,8,00,00,10,20,00,18,00,00,
12394248,000003A2,false,Rx,0,8,21,60,10,54,03,FF,00,F9,
12394493,000003A4,false,Rx,0,8,00,00,07,00,01,00,00,00,
12394737,000003B7,false,Rx,0,8,00,00,00,00,00,0A,C6,41,
12394993,00000491,false,Rx,0,8,00,00,00,00,00,00,00,00,
12439246,0000019C,false,Rx,0,8,06,A0,26,00,00,00,00,7F,
12439493,000001F1,false,Rx,0,8,0E,00,00,00,00,00,20,00,
12439740,00000297,false,Rx,0,8,00,03,00,00,00,00,20,00,
12439995,000002A6,false,Rx,0,8,01,00,00,00,00,00,00,00,
12440269,0000033F,false,Rx,0,8,00,00,00,00,28,00,00,48,
12493412,0000039F,false,Rx,0,8,4A,71,00,00,04,89,06,B0,
12493660,00000323,false,Rx,0,8,00,00,00,00,00,00,00,00,
12493907,00000324,false,Rx,0,8,70,44,D3,54,4E,00,00,7B,
12494159,0000033B,false,Rx,0,8,00,00,00,5C,00,00,00,00,
12494406,0000033D,false,Rx,0,8,00,00,10,20,00,18,00,00,
12494450,000003A2,false,Rx,0,8,21,60,10,58,03,FF,00,F5,
12494885,000003A4,false,Rx,0,8,00,00,07,00,01,00,00,00,
12495137,000003B7,false,Rx,0,8,00,00,00,00,00,0B,8A,41,
12495382,00000491,false,Rx,0,8,00,00,00,00,00,00,00,00,
12539324,0000019C,false,Rx,0,8,06,A0,26,00,00,00,00,7F,
12539573,000001F1,false,Rx,0,8,0E,00,00,00,00,00,20,00,
12539819,00000297,false,Rx,0,8,00,03,00,00,00,00,20,00,
12540072,000002A6,false,Rx,0,8,01,00,00,00,00,00,00,00,
12540317,0000033F,false,Rx,0,8,00,00,00,00,28,00,00,48,
12593725,0000039F,false,Rx,0,8,4A,71,00,00,04,89,07,B1,
12595516,00000323,false,Rx,0,8,00,00,00,00,00,00,00,00,
12595528,00000324,false,Rx,0,8,70,44,D9,54,4E,00,00,7B,
12595534,0000033B,false,Rx,0,8,00,00,00,5C,00,00,00,00,
12595540,0000033D,false,Rx,0,8,00,00,10,20,00,18,00,00,
12595546,000003A2,false,Rx,0,8,21,60,10,5C,03,FF,00,F1,
12595552,000003A4,false,Rx,0,8,00,00,07,00,01,00,00,00,
12595558,000003B7,false,Rx,0,8,00,00,00,00,00,0C,73,41,
12595564,00000491,false,Rx,0,8,00,00,00,00,00,00,00,00,
12639216,0000019C,false,Rx,0,8,06,A0,26,00,00,00,00,7F,
12639464,000001F1,false,Rx,0,8,0E,00,00,00,00,00,20,00,
12639710,00000297,false,Rx,0,8,00,03,00,00,00,00,20,00,
12639957,000002A6,false,Rx,0,8,01,00,00,00,00,00,00,00,
12640210,0000033F,false,Rx,0,8,00,00,00,00,28,00,00,48,
12694054,0000039F,false,Rx,0,8,4A,71,00,00,04,89,08,BE,
12694336,00000323,false,Rx,0,8,00,00,00,00,00,00,00,00,
12694345,00000324,false,Rx,0,8,70,44,D9,54,4E,00,00,7B,
12696095,0000033B,false,Rx,0,8,00,00,00,5C,00,00,00,00,
12696111,0000033D,false,Rx,0,8,00,00,10,20,00,18,00,00,
12696117,000003A2,false,Rx,0,8,21,60,10,60,03,FF,00,CD,
12696123,000003A4,false,Rx,0,8,00,00,07,00,01,00,00,00,
12696129,000003B7,false,Rx,0,8,00,00,00,00,00,0D,3F,41,
12696135,00000491,false,Rx,0,8,00,00,00,00,00,00,00,00,
12739340,0000019C,false,Rx,0,8,06,A0,26,00,00,00,00,7F,
12739589,000001F1,false,Rx,0,8,0E,00,00,00,00,00,20,00,
12739835,00000297,false,Rx,0,8,00,03,00,00,00,00,20,00,
12740088,000002A6,false,Rx,0,8,00,00,00,00,00,00,00,00,
12740332,0000033F,false,Rx,0,8,00,00,00,00,28,00,00,48,
12794253,0000039F,false,Rx,0,8,4A,71,00,00,04,89,09,BF,
12794502,00000323,false,Rx,0,8,00,00,00,00,00,00,00,00,
12794748,00000324,false,Rx,0,8,70,44,DD,54,4E,00,00,7B,
12796439,0000033B,false,Rx,0,8,00,00,00,5C,00,00,00,00,
12796455,0000033D,false,Rx,0,8,00,00,10,20,00,18,00,00,
12796462,000003A2,false,Rx,0,8,21,60,10,64,03,FF,00,C9,
12796468,000003A4,false,Rx,0,8,00,00,07,00,01,00,00,00,
12796474,000003B7,false,Rx,0,8,00,00,00,00,00,0E,EB,41,
12796480,00000491,false,Rx,0,8,00,00,00,00,00,00,00,00,
12839367,0000019C,false,Rx,0,8,06,A0,26,00,00,00,00,7F,
12839615,000001F1,false,Rx,0,8,0E,00,00,00,00,00,20,00,
12839866,00000297,false,Rx,0,8,00,03,00,00,00,00,20,00,
12840116,000002A6,false,Rx,0,8,01,00,00,00,00,00,00,00,
12840362,0000033F,false,Rx,0,8,00,00,00,00,28,00,00,48,
12894683,0000039F,false,Rx,0,8,4A,71,00,00,04,89,0A,BC,
12894933,00000323,false,Rx,0,8,00,00,00,00,00,00,00,00,
12895186,00000324,false,Rx,0,8,70,44,CE,54,4E,00,00,7B,
12895431,0000033B,false,Rx,0,8,00,00,00,5C,00,00,00,00,
12897156,0000033D,false,Rx,0,8,00,00,10,20,00,18,00,00,
12897172,000003A2,false,Rx,0,8,21,60,10,68,03,FF,00,C5,
12897178,000003A4,false,Rx,0,8,00,00,07,00,01,00,00,00,
12897184,000003B7,false,Rx,0,8,00,00,00,00,00,00,04,41,
12897190,00000491,false,Rx,0,8,00,00,00,00,00,00,00,00,
12939272,0000019C,false,Rx,0,8,06,A0,26,00,00,00,00,7F,
12939520,000001F1,false,Rx,0,8,0E,00,00,00,00,00,20,00,
12939767,00000297,false,Rx,0,8,00,03,00,00,00,00,20,00,
12940022,000002A6,false,Rx,0,8,01,00,00,00,00,00,00,00,
12940269,0000033F,false,Rx,0,8,00,00,00,00,28,00,00,48,
12995060,0000039F,false,Rx,0,8,4A,71,00,00,04,89,0B,BD,
12995310,00000323,false,Rx,0,8,00,00,00,00,00,00,D8,97,
12995555,00000324,false,Rx,0,8,70,44,D9,54,4E,00,00,7B,
12995801,0000033B,false,Rx,0,8,00,00,00,5C,00,00,00,00,
12996056,0000033D,false,Rx,0,8,00,00,10,20,00,18,00,00,
12997844,000003A2,false,Rx,0,8,21,60,10,6C,03,FF,00,C1,
12997860,000003A4,false,Rx,0,8,00,00,07,00,01,00,00,00,
12997866,000003B7,false,Rx,0,8,00,00,00,00,00,01,48,41,
12997872,00000491,false,Rx,0,8,00,00,00,00,00,00,00,00,
13039381,0000019C,false,Rx,0,8,06,A0,26,00,00,00,00,7F,
13039630,000001F1,false,Rx,0,8,0E,00,00,00,00,00,20,00,
13039879,00000297,false,Rx,0,8,00,03,00,00,00,00,20,00,
13040133,000002A6,false,Rx,0,8,00,00,00,00,00,00,00,00,
13040377,0000033F,false,Rx,0,8,00,00,00,00,28,00,00,48,
13094798,0000039F,false,Rx,0,8,4A,71,00,00,04,89,0C,BA,
13095057,00000323,false,Rx,0,8,00,00,00,00,00,00,D8,97,
13095304,00000324,false,Rx,0,8,70,44,D9,54,4E,00,00,7B,
13095549,0000033B,false,Rx,0,8,00,00,00,5C,00,00,00,00,
13095795,0000033D,false,Rx,0,8,00,00,10,20,00,18,00,00,
13096044,000003A2,false,Rx,0,8,21,60,10,70,03,FF,00,DD,
13096290,000003A4,false,Rx,0,8,00,00,07,00,01,00,00,00,
13096535,000003B7,false,Rx,0,8,00,00,00,00,00,02,9C,41,
13096782,00000491,false,Rx,0,8,00,00,00,00,00,00,00,00,
13139389,0000019C,false,Rx,0,8,06,A0,26,00,00,00,00,7F,
13139636,000001F1,false,Rx,0,8,0E,00,00,00,00,00,20,00,
13139884,00000297,false,Rx,0,8,00,03,00,00,00,00,20,00,
13140135,000002A6,false,Rx,0,8,01,00,00,00,00,00,00,00,
13140382,0000033F,false,Rx,0,8,00,00,00,00,28,00,00,48,
13195207,0000039F,false,Rx,0,8,4A,71,00,00,04,89,0D,BB,
13195455,00000323,false,Rx,0,8,00,00,00,00,00,00,D8,97,
13195701,00000324,false,Rx,0,8,70,44,E2,54,4E,00,00,7B,
13195950,0000033B,false,Rx,0,8,00,00,00,5C,00,00,00,00,
13196202,0000033D,false,Rx,0,8,00,00,10,20,00,18,00,00,
13196449,000003A2,false,Rx,0,8,21,60,10,74,03,FF,00,D9,
13196695,000003A4,false,Rx,0,8,00,00,07,00,01,00,00,00,
13196945,000003B7,false,Rx,0,8,00,00,00,00,00,03,D0,41,
13197195,00000491,false,Rx,0,8,00,00,00,00,00,00,00,00,
13239228,0000019C,false,Rx,0,8,06,A0,26,00,00,00,00,7F,
13239477,000001F1,false,Rx,0,8,0E,00,00,00,00,00,20,00,
13239723,00000297,false,Rx,0,8,00,03,00,00,00,00,20,00,
13239978,000002A6,false,Rx,0,8,01,00,00,00,00,00,00,00,
13240225,0000033F,false,Rx,0,8,00,00,00,00,28,00,00,48,
13295856,0000039F,false,Rx,0,8,4A,71,00,00,04,89,0E,B8,
13296111,00000323,false,Rx,0,8,00,00,00,00,00,00,D8,97,
13296356,00000324,false,Rx,0,8,70,44,DD,54,4E,00,00,7B,
13296602,0000033B,false,Rx,0,8,00,00,00,5C,00,00,00,00,
13296850,0000033D,false,Rx,0,8,00,00,10,20,00,18,00,00,
13297097,000003A2,false,Rx,0,8,21,60,10,78,03,FF,00,D5,
13297344,000003A4,false,Rx,0,8,00,00,07,00,01,00,00,00,
13297589,000003B7,false,Rx,0,8,00,00,00,00,00,04,29,41,
13299124,00000491,false,Rx,0,8,00,00,00,00,00,00,00,00,
13339319,0000019C,false,Rx,0,8,06,A0,26,00,00,00,00,7F,
13339568,000001F1,false,Rx,0,8,0E,00,00,00,00,00,20,00,
13339814,00000297,false,Rx,0,8,00,03,00,00,00,00,20,00,
13340067,000002A6,false,Rx,0,8,01,00,00,00,00,00,00,00,
13340313,0000033F,false,Rx,0,8,00,00,00,00,28,00,00,48,
13396343,0000039F,false,Rx,0,8,4A,71,00,00,04,89,0F,B9,
13396592,00000323,false,Rx,0,8,00,00,00,00,00,00,D8,97,
13396840,00000324,false,Rx,0,8,70,44,DD,54,4E,00,00,7B,
13397092,0000033B,false,Rx,0,8,00,00,00,5C,00,00,00,00,
13397137,0000033D,false,Rx,0,8,00,00,10,20,00,18,00,00,
13397379,000003A2,false,Rx,0,8,21,60,10,7C,03,FF,00,D1,
13397624,000003A4,false,Rx,0,8,00,00,07,00,01,00,00,00,
13397871,000003B7,false,Rx,0,8,00,00,00,00,00,05,65,41,
13398125,00000491,false,Rx,0,8,00,00,00,00,00,00,00,00,
13439260,0000019C,false,Rx,0,8,06,A0,26,00,00,00,00,7F,
13439508,000001F1,false,Rx,0,8,0E,00,00,00,00,00,20,00,
13439755,00000297,false,Rx,0,8,00,03,00,00,00,00,20,00,
13440009,000002A6,false,Rx,0,8,01,00,00,00,00,00,00,00,
13440255,0000033F,false,Rx,0,8,00,00,00,00,28,00,00,48,
13496589,0000039F,false,Rx,0,8,4A,71,00,00,04,89,00,B6,
13496840,00000323,false,Rx,0,8,00,00,00,00,00,00,D7,63,
13497087,00000324,false,Rx,0,8,70,44,D3,54,4E,00,00,7B,
13497333,0000033B,false,Rx,0,8,00,00,00,5C,00,00,00,00,
13497579,0000033D,false,Rx,0,8,00,00,10,20,00,18,00,00,
13497826,000003A2,false,Rx,0,8,21,60,10,40,03,FF,00,ED,
13498078,000003A4,false,Rx,0,8,00,00,07,00,01,00,00,00,
13498324,000003B7,false,Rx,0,8,00,00,00,00,00,06,B1,41,
13498570,00000491,false,Rx,0,8,00,00,00,00,00,00,00,00,
13539282,0000019C,false,Rx,0,8,06,A0,26,00,00,00,00,7F,
13539531,000001F1,false,Rx,0,8,0E,00,00,00,00,00,20,00,
13539777,00000297,false,Rx,0,8,00,03,00,00,00,00,20,00,
13540034,000002A6,false,Rx,0,8,00,00,00,00,00,00,00,00,
13540278,0000033F,false,Rx,0,8,00,00,00,00,28,00,00,48,
13596376,0000039F,false,Rx,0,8,4A,71,00,00,04,89,01,B7,
13596625,00000323,false,Rx,0,8,00,00,00,00,00,00,D7,63,
13596872,00000324,false,Rx,0,8,70,44,D9,54,4E,00,00,7B,
13597125,0000033B,false,Rx,0,8,00,00,00,5C,00,00,00,00,
13597371,0000033D,false,Rx,0,8,00,00,10,20,00,18,00,00,
13597617,000003A2,false,Rx,0,8,21,60,10,44,03,FF,00,E9,
13597864,000003A4,false,Rx,0,8,00,00,07,00,01,00,00,00,
13598118,000003B7,false,Rx,0,8,00,00,00,00,00,07,FD,41,
13598364,00000491,false,Rx,0,8,00,00,00,00,00,00,00,00,
13639273,0000019C,false,Rx,0,8,06,A0,26,00,00,00,00,7F,
13639521,000001F1,false,Rx,0,8,0E,00,00,00,00,00,20,00,
13639768,00000297,false,Rx,0,8,00,03,00,00,00,00,20,00,
13640022,000002A6,false,Rx,0,8,01,00,00,00,00,00,00,00,
13640269,0000033F,false,Rx,0,8,00,00,00,00,28,00,00,48,
13696991,0000039F,false,Rx,0,8,4A,71,00,00,04,89,02,B4,
13697239,00000323,false,Rx,0,8,00,00,00,00,00,00,D7,63,
13697486,00000324,false,Rx,0,8,70,44,E2,54,4E,00,00,7B,
13697731,0000033B,false,Rx,0,8,00,00,00,5C,00,00,00,00,
13697988,0000033D,false,Rx,0,8,00,00,10,20,00,18,00,00,
13698233,000003A2,false,Rx,0,8,21,60,10,48,03,FF,00,E5,
13698480,000003A4,false,Rx,0,8,00,00,07,00,01,00,00,00,
13698724,000003B7,false,Rx,0,8,00,00,00,00,00,08,5E,41,
13698978,00000491,false,Rx,0,8,00,00,00,00,00,00,00,00,
13739280,0000019C,false,Rx,0,8,06,A0,26,00,00,00,00,7F,
13739528,000001F1,false,Rx,0,8,0E,00,00,00,00,00,20,00,
13741228,00000297,false,Rx,0,8,00,03,00,00,00,00,20,00,
13741244,000002A6,false,Rx,0,8,01,00,00,00,00,00,00,00,
13741250,0000033F,false,Rx,0,8,00,00,00,00,28,00,00,48,
13797376,0000039F,false,Rx,0,8,4A,71,00,00,04,89,03,B5,
13797625,00000323,false,Rx,0,8,00,00,00,00,00,00,D7,63,
13797872,00000324,false,Rx,0,8,70,44,E2,54,4E,00,00,7B,
13798126,0000033B,false,Rx,0,8,00,00,00,5C,00,00,00,00,
13798370,0000033D,false,Rx,0,8,00,00,10,20,00,18,00,00,
13798617,000003A2,false,Rx,0,8,21,60,10,4C,03,FF,00,E1,
13798864,000003A4,false,Rx,0,8,00,00,07,00,01,00,00,00,
13799118,000003B7,false,Rx,0,8,00,00,00,00,00,09,12,41,
13799362,00000491,false,Rx,0,8,00,00,00,00,00,00,00,00,
13839282,0000019C,false,Rx,0,8,06,A0,26,00,00,00,00,7F,
13839531,000001F1,false,Rx,0,8,0E,00,00,00,00,00,20,00,
13839776,00000297,false,Rx,0,8,00,03,00,00,00,00,20,00,
13840034,000002A6,false,Rx,0,8,01,00,00,00,00,00,00,00,
13841663,0000033F,false,Rx,0,8,00,00,00,00,28,00,00,48,
13897771,0000039F,false,Rx,0,8,4A,71,00,00,04,89,04,B2,
13898028,00000323,false,Rx,0,8,00,00,00,00,00,00,D7,63,
13898275,00000324,false,Rx,0,8,70,44,D9,54,4E,00,00,7B,
13898520,0000033B,false,Rx,0,8,00,00,00,5C,00,00,00,00,
13898767,0000033D,false,Rx,0,8,00,00,10,20,00,18,00,00,
13899021,000003A2,false,Rx,0,8,21,60,10,50,03,FF,00,FD,
13899267,000003A4,false,Rx,0,8,00,00,07,00,01,00,00,00,
13899513,000003B7,false,Rx,0,8,00,00,00,00,00,0A,C6,41,
13899760,00000491,false,Rx,0,8,00,00,00,00,00,00,00,00,
13939291,0000019C,false,Rx,0,8,06,A0,26,00,00,00,00,7F,
13939539,000001F1,false,Rx,0,8,0E,00,00,00,00,00,20,00,
13939786,00000297,false,Rx,0,8,00,03,00,00,00,00,20,00,
13940043,000002A6,false,Rx,0,8,01,00,00,00,00,00,00,00,
13940289,0000033F,false,Rx,0,8,00,00,00,00,28,00,00,48,
13997663,0000039F,false,Rx,0,8,4A,71,00,00,04,89,05,B3,
13997913,00000323,false,Rx,0,8,00,00,00,00,00,00,C1,51,
13998165,00000324,false,Rx,0,8,70,44,D3,54,4E,00,00,7B,
13998412,0000033B,false,Rx,0,8,00,00,00,5C,00,00,00,00,
13998658,0000033D,false,Rx,0,8,00,00,10,20,00,18,00,00,
13998905,000003A2,false,Rx,0,8,21,60,10,54,03,FF,00,F9,
13999158,000003A4,false,Rx,0,8,00,00,07,00,01,00,00,00,
13999404,000003B7,false,Rx,0,8,00,00,00,00,00,0B,8A,41,
13999650,00000491,false,Rx,0,8,00,00,00,00,00,00,00,00,
14039372,0000019C,false,Rx,0,8,06,A0,26,00,00,00,00,7F,
14039620,000001F1,false,Rx,0,8,0E,00,00,00,00,00,20,00,
14039869,00000297,false,Rx,0,8,00,03,00,00,00,00,20,00,
14040121,000002A6,false,Rx,0,8,01,00,00,00,00,00,00,00,
14040367,0000033F,false,Rx,0,8,00,00,00,00,28,00,00,48,
14097917,0000039F,false,Rx,0,8,4A,71,00,00,04,89,06,B0,
14098173,00000323,false,Rx,0,8,00,00,00,00,00,00,C1,51,
14098419,00000324,false,Rx,0,8,70,44,D9,54,4E,00,00,7B,
14098665,0000033B,false,Rx,0,8,00,00,00,5C,00,00,00,00,
14098914,0000033D,false,Rx,0,8,00,00,10,20,00,18,00,00,
14099167,000003A2,false,Rx,0,8,21,60,10,58,03,FF,00,F5,
14099413,000003A4,false,Rx,0,8,00,00,07,00,01,00,00,00,
14099660,000003B7,false,Rx,0,8,00,00,00,00,00,0C,73,41,
14099907,00000491,false,Rx,0,8,00,00,00,00,00,00,00,00,
14139319,0000019C,false,Rx,0,8,06,A0,26,00,00,00,00,7F,
14139566,000001F1,false,Rx,0,8,0E,00,00,00,00,00,20,00,
14139813,00000297,false,Rx,0,8,00,03,00,00,00,00,20,00,
14140065,000002A6,false,Rx,0,8,01,00,00,00,00,00,00,00,
14140311,0000033F,false,Rx,0,8,00,00,00,00,28,00,00,48,
14198435,0000039F,false,Rx,0,8,4A,71,00,00,04,89,07,B1,
14198683,00000323,false,Rx,0,8,00,00,00,00,00,00,C1,51,
14198932,00000324,false,Rx,0,8,70,44,E7,54,4E,00,00,7B,
14199185,0000033B,false,Rx,0,8,00,00,00,5C,00,00,00,00,
14199432,0000033D,false,Rx,0,8,00,00,10,20,00,18,00,00,
14199677,000003A2,false,Rx,0,8,21,60,10,5C,03,FF,00,F1,
14199927,000003A4,false,Rx,0,8,00,00,07,00,01,00,00,00,
14200179,000003B7,false,Rx,0,8,00,00,00,00,00,0D,3F,41,
14200426,00000491,false,Rx,0,8,00,00,00,00,00,00,00,00,
14239216,0000019C,false,Rx,0,8,06,A0,26,00,00,00,00,7F,
14239462,000001F1,false,Rx,0,8,0E,00,00,00,00,00,20,00,
14239707,00000297,false,Rx,0,8,00,03,00,00,00,00,20,00,
14239954,000002A6,false,Rx,0,8,01,00,00,00,00,00,00,00,
14240208,0000033F,false,Rx,0,8,00,00,00,00,28,00,00,48,
14298987,0000039F,false,Rx,0,8,4A,71,00,00,04,89,08,BE,
14299235,00000323,false,Rx,0,8,00,00,00,00,00,00,C1,51,
14299481,00000324,false,Rx,0,8,70,44,F2,54,4E,00,00,7B,
14299726,0000033B,false,Rx,0,8,00,00,00,5C,00,00,00,00,
14299981,0000033D,false,Rx,0,8,00,00,10,20,00,18,00,00,
14300226,000003A2,false,Rx,0,8,21,61,10,60,03,FF,00,CC,
14300473,000003A4,false,Rx,0,8,00,00,07,00,01,00,00,00,
14300717,000003B7,false,Rx,0,8,00,00,00,00,00,0E,EB,41,
14300975,00000491,false,Rx,0,8,00,00,00,00,00,00,00,00,
14339372,0000019C,false,Rx,0,8,06,A0,26,00,00,00,00,7F,
14339619,000001F1,false,Rx,0,8,0E,00,00,00,00,00,20,00,
14339869,00000297,false,Rx,0,8,00,03,00,00,00,00,20,00,
14340122,000002A6,false,Rx,0,8,00,00,00,00,00,00,00,00,
14340367,0000033F,false,Rx,0,8,00,00,00,00,28,00,00,48,
14399426,0000039F,false,Rx,0,8,4A,71,00,00,04,89,09,BF,
14399674,00000323,false,Rx,0,8,00,00,00,00,00,00,C1,51,
14399921,00000324,false,Rx,0,8,70,44,F2,54,4E,00,00,7B,
14400173,0000033B,false,Rx,0,8,00,00,00,5C,00,00,00,00,
14400418,0000033D,false,Rx,0,8,00,00,10,20,00,18,00,00,
14400664,000003A2,false,Rx,0,8,21,61,10,64,03,FF,00,C8,
14400912,000003A4,false,Rx,0,8,00,00,07,00,01,00,00,00,
14401165,000003B7,false,Rx,0,8,00,00,00,00,00,00,04,41,
14401411,00000491,false,Rx,0,8,00,00,00,00,00,00,00,00,
14439319,0000019C,false,Rx,0,8,06,A0,26,00,00,00,00,7F,
14439566,000001F1,false,Rx,0,8,0E,00,00,00,00,00,20,00,
14439813,00000297,false,Rx,0,8,00,03,00,00,00,00,20,00,
14440065,000002A6,false,Rx,0,8,01,00,00,00,00,00,00,00,
14440311,0000033F,false,Rx,0,8,00,00,00,00,28,00,00,48,
14499222,0000039F,false,Rx,0,8,4A,71,00,00,04,89,0A,BC,
14499470,00000323,false,Rx,0,8,00,00,00,00,00,00,00,00,
14499717,00000324,false,Rx,0,8,70,44,E7,54,4E,00,00,7B,
14499972,0000033B,false,Rx,0,8,00,00,00,5C,00,00,00,00,
14500219,0000033D,false,Rx,0,8,00,00,10,20,00,18,00,00,
14500464,000003A2,false,Rx,0,8,21,60,10,68,03,FF,00,C5,
14500710,000003A4,false,Rx,0,8,00,00,07,00,01,00,00,00,
14500958,000003B7,false,Rx,0,8,00,00,00,00,00,01,48,41,
14501211,00000491,false,Rx,0,8,00,00,00,00,00,00,00,00,
14539279,0000019C,false,Rx,0,8,06,A0,26,00,00,00,00,7F,
14539527,000001F1,false,Rx,0,8,0E,00,00,00,00,00,20,00,
14539773,00000297,false,Rx,0,8,00,03,00,00,00,00,20,00,
14540028,000002A6,false,Rx,0,8,00,00,00,00,00,00,00,00,
14540273,0000033F,false,Rx,0,8,00,00,00,00,28,00,00,48,
14599799,0000039F,false,Rx,0,8,4A,71,00,00,04,89,0B,BD,
14600059,00000323,false,Rx,0,8,00,00,00,00,00,00,00,00,
14600303,00000324,false,Rx,0,8,70,44,E7,54,4E,00,00,7B,
14600549,0000033B,false,Rx,0,8,00,00,00,5C,00,00,00,00,
14600795,0000033D,false,Rx,0,8,00,00,10,20,00,18,00,00,
14601050,000003A2,false,Rx,0,8,21,60,10,6C,03,FF,00,C1,
14601296,000003A4,false,Rx,0,8,00,00,07,00,01,00,00,00,
14601542,000003B7,false,Rx,0,8,00,00,00,00,00,02,9C,41,
14601788,00000491,false,Rx,0,8,00,00,00,00,00,00,00,00,
14639235,0000019C,false,Rx,0,8,06,A0,26,00,00,00,00,7F,
14639483,000001F1,false,Rx,0,8,0E,00,00,00,00,00,20,00,
14639729,00000297,false,Rx,0,8,00,03,00,00,00,00,20,00,
14639986,000002A6,false,Rx,0,8,00,00,00,00,00,00,00,00,
14640233,0000033F,false,Rx,0,8,00,00,00,00,28,00,00,48,
14700078,0000039F,false,Rx,0,8,4A,71,00,00,04,89,0C,BA,
14700327,00000323,false,Rx,0,8,00,00,00,00,00,00,00,00,
14700573,00000324,false,Rx,0,8,70,44,E2,54,4E,00,00,7B,
14700820,0000033B,false,Rx,0,8,00,00,00,5C,00,00,00,00,
14701067,0000033D,false,Rx,0,8,00,00,10,20,00,18,00,00,
14701314,000003A2,false,Rx,0,8,21,60,10,70,03,FF,00,DD,
14701559,000003A4,false,Rx,0,8,00,00,07,00,01,00,00,00,
14701805,000003B7,false,Rx,0,8,00,00,00,00,00,03,D0,41,
14702052,00000491,false,Rx,0,8,00,00,00,00,00,00,00,00,
14739321,0000019C,false,Rx,0,8,06,A0,26,00,00,00,00,7F,
14739568,000001F1,false,Rx,0,8,0E,00,00,00,00,00,20,00,
14739812,00000297,false,Rx,0,8,00,03,00,00,00,00,20,00,
14740066,000002A6,false,Rx,0,8,01,00,00,00,00,00,00,00,
14740312,0000033F,false,Rx,0,8,00,00,00,00,28,00,00,48,
14800399,0000039F,false,Rx,0,8,4A,71,00,00,04,89,0D,BB,
14800647,00000323,false,Rx,0,8,00,00,00,00,00,00,00,00,
14800896,00000324,false,Rx,0,8,70,44,F2,54,4E,00,00,7B,
14801169,0000033B,false,Rx,0,8,00,00,00,5C,00,00,00,00,
14801437,0000033D,false,Rx,0,8,00,00,10,20,00,18,00,00,
14801685,000003A2,false,Rx,0,8,21,61,10,74,03,FF,00,D8,
14801934,000003A4,false,Rx,0,8,00,00,07,00,01,00,00,00,
14802186,000003B7,false,Rx,0,8,00,00,00,00,00,04,29,41,
14802433,00000491,false,Rx,0,8,00,00,00,00,00,00,00,00,
14839325,0000019C,false,Rx,0,8,06,A0,26,00,00,00,00,7F,
14839573,000001F1,false,Rx,0,8,0E,00,00,00,00,00,20,00,
14839819,00000297,false,Rx,0,8,00,03,00,00,00,00,20,00,
14840072,000002A6,false,Rx,0,8,01,00,00,00,00,00,00,00,
14840317,0000033F,false,Rx,0,8,00,00,00,00,28,00,00,48,
14900852,0000039F,false,Rx,0,8,4A,71,00,00,04,89,0E,B8,
14901108,00000323,false,Rx,0,8,00,00,00,00,00,00,00,00,
14901353,00000324,false,Rx,0,8,70,44,EC,54,4E,00,00,7B,
14901600,0000033B,false,Rx,0,8,00,00,00,5C,00,00,00,00,
14901847,0000033D,false,Rx,0,8,00,00,10,20,00,18,00,00,
14902100,000003A2,false,Rx,0,8,21,60,10,78,03,FF,00,D5,
14902143,000003A4,false,Rx,0,8,00,00,07,00,01,00,00,00,
14902576,000003B7,false,Rx,0,8,00,00,00,00,00,05,65,41,
14902822,00000491,false,Rx,0,8,00,00,00,00,00,00,00,00,
14939367,0000019C,false,Rx,0,8,06,A0,26,00,00,00,00,7F,
14939616,000001F1,false,Rx,0,8,0E,00,00,00,00,00,20,00,
14939864,00000297,false,Rx,0,8,00,03,00,00,00,00,20,00,
14940117,000002A6,false,Rx,0,8,01,00,00,00,00,00,00,00,
14940363,0000033F,false,Rx,0,8,00,00,00,00,28,00,00,48,
15001181,0000039F,false,Rx,0,8,4A,71,00,00,04,89,0F,B9,
15001430,00000323,false,Rx,0,8,00,00,00,00,00,00,D8,97,
15001675,00000324,false,Rx,0,8,70,44,F2,54,4E,00,00,7B,
15001923,0000033B,false,Rx,0,8,00,00,00,5C,00,00,00,00,
15002170,0000033D,false,Rx,0,8,00,00,10,20,00,18,00,00,
15002417,000003A2,false,Rx,0,8,21,61,10,7C,03,FF,00,D0,
15002660,000003A4,false,Rx,0,8,00,00,07,00,01,00,00,00,
15002908,000003B7,false,Rx,0,8,00,00,00,00,00,06,B1,41,
15003154,00000491,false,Rx,0,8,00,00,00,00,00,00,00,00,
15039236,0000019C,false,Rx,0,8,06,A0,26,00,00,00,00,7F,
15039483,000001F1,false,Rx,0,8,0E,00,00,00,00,00,20,00,
15039730,00000297,false,Rx,0,8,00,03,00,00,00,00,20,00,
15039987,000002A6,false,Rx,0,8,01,00,00,00,00,00,00,00,
15040233,0000033F,false,Rx,0,8,00,00,00,00,28,00,00,48,
15101559,0000039F,false,Rx,0,8,4A,71,00,00,04,89,00,B6,
15101808,00000323,false,Rx,0,8,00,00,00,00,00,00,D8,97,
15102063,00000324,false,Rx,0,8,70,44,D9,54,4E,00,00,7B,
15102309,0000033B,false,Rx,0,8,00,00,00,5C,00,00,00,00,
15102561,0000033D,false,Rx,0,8,00,00,10,20,00,18,00,00,
15102820,000003A2,false,Rx,0,8,21,60,10,40,03,FF,00,ED,
15102868,000003A4,false,Rx,0,8,00,00,07,00,01,00,00,00,
15103117,000003B7,false,Rx,0,8,00,00,00,00,00,07,FD,41,
15103363,00000491,false,Rx,0,8,00,00,00,00,00,00,00,00,
15139375,0000019C,false,Rx,0,8,06,A0,26,00,00,00,00,7F,
15139623,000001F1,false,Rx,0,8,0E,00,00,00,00,00,20,00,
15139871,00000297,false,Rx,0,8,00,03,00,00,00,00,20,00,
15140124,000002A6,false,Rx,0,8,01,00,00,00,00,00,00,00,
15140369,0000033F,false,Rx,0,8,00,00,00,00,28,00,00,48,
15201272,0000039F,false,Rx,0,8,4A,71,00,00,04,89,01,B7,
15201520,00000323,false,Rx,0,8,00,00,00,00,00,00,D8,97,
15201767,00000324,false,Rx,0,8,70,44,D3,54,4E,00,00,7B,
15202022,0000033B,false,Rx,0,8,00,00,00,5C,00,00,00,00,
15202268,0000033D,false,Rx,0,8,00,00,10,20,00,18,00,00,
15202513,000003A2,false,Rx,0,8,21,60,10,44,03,FF,00,E9,
15202759,000003A4,false,Rx,0,8,00,00,07,00,01,00,00,00,
15203012,000003B7,false,Rx,0,8,00,00,00,00,00,08,5E,41,
15203259,00000491,false,Rx,0,8,00,00,00,00,00,00,00,00,
15239361,0000019C,false,Rx,0,8,06,A0,26,00,00,00,00,7F,
15239609,000001F1,false,Rx,0,8,0E,00,00,00,00,00,20,00,
15239857,00000297,false,Rx,0,8,00,03,00,00,00,00,20,00,
15240110,000002A6,false,Rx,0,8,01,00,00,00,00,00,00,00,
15240356,0000033F,false,Rx,0,8,00,00,00,00,28,00,00,48,
15301978,0000039F,false,Rx,0,8,4A,71,00,00,04,89,02,B4,
15302227,00000323,false,Rx,0,8,00,00,00,00,00,00,D8,97,
15302473,00000324,false,Rx,0,8,70,44,F6,54,4E,00,00,7B,
15302718,0000033B,false,Rx,0,8,00,00,00,5C,00,00,00,00,
15302975,0000033D,false,Rx,0,8,00,00,10,20,00,18,00,00,
15303221,000003A2,false,Rx,0,8,21,61,10,48,03,FF,00,E4,
15303468,000003A4,false,Rx,0,8,00,00,07,00,01,00,00,00,
15303713,000003B7,false,Rx,0,8,00,00,00,00,00,09,12,41,
15303961,00000491,false,Rx,0,8,00,00,00,00,00,00,00,00,
15339260,0000019C,false,Rx,0,8,06,A0,26,00,00,00,00,7F,
15339508,000001F1,false,Rx,0,8,0E,00,00,00,00,00,20,00,
15339755,00000297,false,Rx,0,8,00,03,00,00,00,00,20,00,
15340009,000002A6,false,Rx,0,8,01,00,00,00,00,00,00,00,
15340255,0000033F,false,Rx,0,8,00,00,00,00,28,00,00,48,
15402216,0000039F,false,Rx,0,8,4A,71,00,00,04,89,03,B5,
15402463,00000323,false,Rx,0,8,00,00,00,00,00,00,D8,97,
15402710,00000324,false,Rx,0,8,70,44,F2,54,4E,00,00,7B,
15402956,0000033B,false,Rx,0,8,00,00,00,5C,00,00,00,00,
15403209,0000033D,false,Rx,0,8,00,00,10,20,00,18,00,00,
15403455,000003A2,false,Rx,0,8,21,61,10,4C,03,FF,00,E0,
15403702,000003A4,false,Rx,0,8,00,00,07,00,01,00,00,00,
15403951,000003B7,false,Rx,0,8,00,00,00,00,00,0A,C6,41,
15404203,00000491,false,Rx,0,8,00,00,00,00,00,00,00,00,
15439281,0000019C,false,Rx,0,8,06,A0,26,00,00,00,00,7F,
15439530,000001F1,false,Rx,0,8,0E,00,00,00,00,00,20,00,
15439775,00000297,false,Rx,0,8,00,03,00,00,00,00,20,00,
15440030,000002A6,false,Rx,0,8,00,00,00,00,00,00,00,00,
15440276,0000033F,false,Rx,0,8,00,00,00,00,28,00,00,48,
15502580,0000039F,false,Rx,0,8,4A,71,00,00,04,89,04,B2,
15502830,00000323,false,Rx,0,8,00,00,00,00,00,00,D7,63,
15503082,00000324,false,Rx,0,8,70,44,F2,54,4E,00,00,7B,
15503328,0000033B,false,Rx,0,8,00,00,00,5C,00,00,00,00,
15503574,0000033D,false,Rx,0,8,00,00,10,20,00,18,00,00,
15503820,000003A2,false,Rx,0,8,21,61,10,50,03,FF,00,FC,
15504072,000003A4,false,Rx,0,8,00,00,07,00,01,00,00,00,
15504319,000003B7,false,Rx,0,8,00,00,00,00,00,0B,8A,41,
15504565,00000491,false,Rx,0,8,00,00,00,00,00,00,00,00,
15539290,0000019C,false,Rx,0,8,06,A0,26,00,00,00,00,7F,
15539538,000001F1,false,Rx,0,8,0E,00,00,00,00,00,20,00,
15539784,00000297,false,Rx,0,8,00,03,00,00,00,00,20,00,
15540039,000002A6,false,Rx,0,8,01,00,00,00,00,00,00,00,
15540286,0000033F,false,Rx,0,8,00,00,00,00,28,00,00,48,
15602944,0000039F,false,Rx,0,8,4A,71,00,00,04,89,05,B3,
15603198,00000323,false,Rx,0,8,00,00,00,00,00,00,D7,63,
15603445,00000324,false,Rx,0,8,70,44,D9,54,4E,00,00,7B,
15603690,0000033B,false,Rx,0,8,00,00,00,5C,00,00,00,00,
15603942,0000033D,false,Rx,0,8,00,00,10,20,00,18,00,00,
15604194,000003A2,false,Rx,0,8,21,60,10,54,03,FF,00,F9,
15604441,000003A4,false,Rx,0,8,00,00,07,00,01,00,00,00,
15604686,000003B7,false,Rx,0,8,00,00,00,00,00,0C,73,41,
15604935,00000491,false,Rx,0,8,00,00,00,00,00,00,00,00,
15639289,0000019C,false,Rx,0,8,06,A0,26,00,00,00,00,7F,
15639538,000001F1,false,Rx,0,8,0E,00,00,00,00,00,20,00,
15639783,00000297,false,Rx,0,8,00,03,00,00,00,00,20,00,
15640039,000002A6,false,Rx,0,8,01,00,00,00,00,00,00,00,
15640285,0000033F,false,Rx,0,8,00,00,00,00,28,00,00,48,
15702938,0000039F,false,Rx,0,8,4A,71,00,00,04,89,06,B0,
15703193,00000323,false,Rx,0,8,00,00,00,00,00,00,D7,63,
15703438,00000324,false,Rx,0,8,70,44,DD,54,4E,00,00,7B,
15703684,0000033B,false,Rx,0,8,00,00,00,5C,00,00,00,00,
15703972,0000033D,false,Rx,0,8,00,00,10,20,00,18,00,00,
15703982,000003A2,false,Rx,0,8,21,60,10,58,03,FF,00,F5,
15704225,000003A4,false,Rx,0,8,00,00,07,00,01,00,00,00,
15704470,000003B7,false,Rx,0,8,00,00,00,00,00,0D,3F,41,
15704717,00000491,false,Rx,0,8,00,00,00,00,00,00,00,00,
15739361,0000019C,false,Rx,0,8,06,A0,26,00,00,00,00,7F,
15739608,000001F1,false,Rx,0,8,0E,00,00,00,00,00,20,00,
15739854,00000297,false,Rx,0,8,00,03,00,00,00,00,20,00,
15740107,000002A6,false,Rx,0,8,01,00,00,00,00,00,00,00,
15740354,0000033F,false,Rx,0,8,00,00,00,00,28,00,00,48,
15803138,0000039F,false,Rx,0,8,4A,71,00,00,04,89,07,B1,
15803386,00000323,false,Rx,0,8,00,00,00,00,00,00,D7,63,
15803632,00000324,false,Rx,0,8,70,44,E2,54,4E,00,00,7B,
15803879,0000033B,false,Rx,0,8,00,00,00,5C,00,00,00,00,
15804127,0000033D,false,Rx,0,8,00,00,10,20,00,18,00,00,
15804373,000003A2,false,Rx,0,8,21,60,10,5C,03,FF,00,F1,
15804620,000003A4,false,Rx,0,8,00,00,07,00,01,00,00,00,
15804868,000003B7,false,Rx,0,8,00,00,00,00,00,0E,EB,41,
15805115,00000491,false,Rx,0,8,00,00,00,00,00,00,00,00,
15839327,0000019C,false,Rx,0,8,06,A0,26,00,00,00,00,7F,
15839574,000001F1,false,Rx,0,8,0E,00,00,00,00,00,20,00,
15839821,00000297,false,Rx,0,8,00,03,00,00,00,00,20,00,
15840074,000002A6,false,Rx,0,8,01,00,00,00,00,00,00,00,
15840320,0000033F,false,Rx,0,8,00,00,00,00,28,00,00,48,
15903552,0000039F,false,Rx,0,8,4A,71,00,00,04,89,08,BE,
15903801,00000323,false,Rx,0,8,00,00,00,00,00,00,D7,63,
15904056,00000324,false,Rx,0,8,70,44,EC,54,4E,00,00,7B,
15904303,0000033B,false,Rx,0,8,00,00,00,5C,00,00,00,00,
15904549,0000033D,false,Rx,0,8,00,00,10,20,00,18,00,00,
15904794,000003A2,false,Rx,0,8,21,60,10,60,03,FF,00,CD,
15905050,000003A4,false,Rx,0,8,00,00,07,00,01,00,00,00,
15905297,000003B7,false,Rx,0,8,00,00,00,00,00,00,04,41,
15905542,00000491,false,Rx,0,8,00,00,00,00,00,00,00,00,
15939336,0000019C,false,Rx,0,8,06,A0,26,00,00,00,00,7F,
15939585,000001F1,false,Rx,0,8,0E,00,00,00,00,00,20,00,
15939831,00000297,false,Rx,0,8,00,03,00,00,00,00,20,00,
15940084,000002A6,false,Rx,0,8,01,00,00,00,00,00,00,00,
15940330,0000033F,false,Rx,0,8,00,00,00,00,28,00,00,48,
16004106,0000039F,false,Rx,0,8,4A,71,00,00,04,89,09,BF,
16004355,00000323,false,Rx,0,8,00,00,00,00,00,00,C1,51,
16004599,00000324,false,Rx,0,8,70,44,CE,54,4E,00,00,7B,
16004846,0000033B,false,Rx,0,8,00,00,00,5C,00,00,00,00,
16005097,0000033D,false,Rx,0,8,00,00,10,20,00,18,00,00,
16005344,000003A2,false,Rx,0,8,21,60,10,64,03,FF,00,C9,
16005590,000003A4,false,Rx,0,8,00,00,07,00,01,00,00,00,
16005840,000003B7,false,Rx,0,8,00,00,00,00,00,01,48,41,
16006093,00000491,false,Rx,0,8,00,00,00,00,00,00,00,00,
16039295,0000019C,false,Rx,0,8,06,A0,26,00,00,00,00,7F,
16039544,000001F1,false,Rx,0,8,0E,00,00,00,00,00,20,00,
16039788,00000297,false,Rx,0,8,00,03,00,00,00,00,20,00,
16040043,000002A6,false,Rx,0,8,01,00,00,00,00,00,00,00,
16040289,0000033F,false,Rx,0,8,00,00,00,00,28,00,00,48,
16104405,0000039F,false,Rx,0,8,4A,71,00,00,04,89,0A,BC,
16104653,00000323,false,Rx,0,8,00,00,00,00,00,00,C1,51,
16104904,00000324,false,Rx,0,8,70,44,C9,54,4E,00,00,7B,
16105157,0000033B,false,Rx,0,8,00,00,00,5C,00,00,00,00,
16105404,0000033D,false,Rx,0,8,00,00,10,20,00,18,00,00,
16105649,000003A2,false,Rx,0,8,21,60,10,68,03,FF,00,C5,
16105898,000003A4,false,Rx,0,8,00,00,07,00,01,00,00,00,
16106150,000003B7,false,Rx,0,8,00,00,00,00,00,02,9C,41,
16106397,00000491,false,Rx,0,8,00,00,00,00,00,00,00,00,
16139253,0000019C,false,Rx,0,8,06,A0,26,00,00,00,00,7F,
16139502,000001F1,false,Rx,0,8,0E,00,00,00,00,00,20,00,
16139748,00000297,false,Rx,0,8,00,03,00,00,00,00,20,00,
16140003,000002A6,false,Rx,0,8,01,00,00,00,00,00,00,00,
16140249,0000033F,false,Rx,0,8,00,00,00,00,28,00,00,48,
16204354,0000039F,false,Rx,0,8,4A,71,00,00,04,89,0B,BD,
16204602,00000323,false,Rx,0,8,00,00,00,00,00,00,C1,51,
16204850,00000324,false,Rx,0,8,70,44,DD,54,4E,00,00,7B,
16205101,0000033B,false,Rx,0,8,00,00,00,5C,00,00,00,00,
16205348,0000033D,false,Rx,0,8,00,00,10,20,00,18,00,00,
16205594,000003A2,false,Rx,0,8,21,60,10,6C,03,FF,00,C1,
16205844,000003A4,false,Rx,0,8,00,00,07,00,01,00,00,00,
16206097,000003B7,false,Rx,0,8,00,00,00,00,00,03,D0,41,
16206343,00000491,false,Rx,0,8,00,00,00,00,00,00,00,00,
16239198,0000019C,false,Rx,0,8,06,A0,26,00,00,00,00,7F,
16239446,000001F1,false,Rx,0,8,0E,00,00,00,00,00,20,00,
16239691,00000297,false,Rx,0,8,00,03,00,00,00,00,20,00,
16239938,000002A6,false,Rx,0,8,01,00,00,00,00,00,00,00,
16240190,0000033F,false,Rx,0,8,00,00,00,00,28,00,00,48,
16305198,0000039F,false,Rx,0,8,4A,71,00,00,04,89,0C,BA,
16305446,00000323,false,Rx,0,8,00,00,00,00,00,00,C1,51,
16305692,00000324,false,Rx,0,8,30,44,E2,54,4E,00,00,00,
16305941,0000033B,false,Rx,0,8,00,00,00,5C,00,00,00,00,
16306189,0000033D,false,Rx,0,8,00,00,A0,20,00,18,00,00,
16306435,000003A2,false,Rx,0,8,21,60,10,70,03,FF,00,DD,
16306682,000003A4,false,Rx,0,8,00,00,07,00,01,00,00,00,
16306934,000003B7,false,Rx,0,8,00,00,00,00,00,04,29,41,
16307193,00000491,false,Rx,0,8,00,00,00,00,00,00,00,00,
16339356,0000019C,false,Rx,0,8,06,A0,26,00,00,00,00,7F,
16339605,000001F1,false,Rx,0,8,0E,00,00,00,00,00,20,00,
16339852,00000297,false,Rx,0,8,00,03,00,00,00,00,20,00,
16340163,000002A6,false,Rx,0,8,01,00,00,00,00,00,00,00,
16340174,0000033F,false,Rx,0,8,00,00,00,00,28,00,00,48,
16405245,0000039F,false,Rx,0,8,4A,71,00,00,04,89,0D,BB,
16405519,00000323,false,Rx,0,8,00,00,00,00,00,00,C1,51,
16405833,00000324,false,Rx,0,8,70,44,E2,54,4E,00,00,7B,
16405845,0000033B,false,Rx,0,8,00,00,00,5C,00,00,00,00,
16406128,0000033D,false,Rx,0,8,00,00,10,20,00,18,00,00,
16406405,000003A2,false,Rx,0,8,21,60,10,74,03,FF,00,D9,
16406669,000003A4,false,Rx,0,8,00,00,07,00,01,00,00,00,
16406918,000003B7,false,Rx,0,8,00,00,00,00,00,05,65,41,
16407172,00000491,false,Rx,0,8,00,00,00,00,00,00,00,00,
16439277,0000019C,false,Rx,0,8,06,A0,26,00,00,00,00,7F,
16439550,000001F1,false,Rx,0,8,0E,00,00,00,00,00,20,00,
16439815,00000297,false,Rx,0,8,00,03,00,00,00,00,20,00,
16440086,000002A6,false,Rx,0,8,01,00,00,00,00,00,00,00,
16440332,0000033F,false,Rx,0,8,00,00,00,00,28,00,00,48,
16505402,0000039F,false,Rx,0,8,4A,71,00,00,04,89,0E,B8,
16505650,00000323,false,Rx,0,8,00,00,00,00,00,00,00,00,
16505902,00000324,false,Rx,0,8,70,44,CE,54,4E,00,00,7B,
16506155,0000033B,false,Rx,0,8,00,00,00,5C,00,00,00,00,
16506401,0000033D,false,Rx,0,8,00,00,10,20,00,18,00,00,
16506646,000003A2,false,Rx,0,8,21,60,10,78,03,FF,00,D5,
16506895,000003A4,false,Rx,0,8,00,00,07,00,01,00,00,00,
16507147,000003B7,false,Rx,0,8,00,00,00,00,00,06,B1,41,
16507394,00000491,false,Rx,0,8,00,00,00,00,00,00,00,00,
16539207,0000019C,false,Rx,0,8,06,A0,26,00,00,00,00,7F,
16539455,000001F1,false,Rx,0,8,0E,00,00,00,00,00,20,00,
16539702,00000297,false,Rx,0,8,00,03,00,00,00,00,20,00,
16539951,000002A6,false,Rx,0,8,01,00,00,00,00,00,00,00,
16540204,0000033F,false,Rx,0,8,00,00,00,00,28,00,00,48,
16605903,0000039F,false,Rx,0,8,4A,71,00,00,04,89,0F,B9,
16606169,00000323,false,Rx,0,8,00,00,00,00,00,00,00,00,
16606419,00000324,false,Rx,0,8,70,44,D3,54,4E,00,00,7B,
16606666,0000033B,false,Rx,0,8,00,00,00,5C,00,00,00,00,
16606917,0000033D,false,Rx,0,8,00,00,10,20,00,18,00,00,
16607171,000003A2,false,Rx,0,8,21,60,10,7C,03,FF,00,D1,
16607416,000003A4,false,Rx,0,8,00,00,07,00,01,00,00,00,
16607673,000003B7,false,Rx,0,8,00,00,00,00,00,07,FD,41,
16607920,00000491,false,Rx,0,8,00,00,00,00,00,00,00,00,
16639322,0000019C,false,Rx,0,8,06,A0,26,00,00,00,00,7F,
16639570,000001F1,false,Rx,0,8,0E,00,00,00,00,00,20,00,
16639817,00000297,false,Rx,0,8,00,03,00,00,00,00,20,00,
16640070,000002A6,false,Rx,0,8,00,00,00,00,00,00,00,00,
16640317,0000033F,false,Rx,0,8,00,00,00,00,28,00,00,48,
16706432,0000039F,false,Rx,0,8,4A,71,00,00,04,89,00,B6,
16706681,00000323,false,Rx,0,8,00,00,00,00,00,00,00,00,
16706930,00000324,false,Rx,0,8,70,44,D9,54,4E,00,00,7B,
16707190,0000033B,false,Rx,0,8,00,00,00,5C,00,00,00,00,
16707501,0000033D,false,Rx,0,8,00,00,10,20,00,18,00,00,
16707510,000003A2,false,Rx,0,8,21,60,10,40,03,FF,00,ED,
16707754,000003A4,false,Rx,0,8,00,00,07,00,01,00,00,00,
16708017,000003B7,false,Rx,0,8,00,00,00,00,00,08,5E,41,
16708280,00000491,false,Rx,0,8,00,00,00,00,00,00,00,00,
16739206,0000019C,false,Rx,0,8,06,A0,26,00,00,00,00,7F,
16739470,000001F1,false,Rx,0,8,0E,00,00,00,00,00,20,00,
16739726,00000297,false,Rx,0,8,00,03,00,00,00,00,20,00,
16740008,000002A6,false,Rx,0,8,01,00,00,00,00,00,00,00,
16740257,0000033F,false,Rx,0,8,00,00,00,00,28,00,00,48,
16806403,0000039F,false,Rx,0,8,4A,71,00,00,04,89,01,B7,
16806651,00000323,false,Rx,0,8,00,00,00,00,00,00,00,00,
16806897,00000324,false,Rx,0,8,70,44,D9,54,4E,00,00,7B,
16807143,0000033B,false,Rx,0,8,00,00,00,5C,00,00,00,00,
16807388,0000033D,false,Rx,0,8,00,00,10,20,00,18,00,00,
16807646,000003A2,false,Rx,0,8,21,60,10,44,03,FF,00,E9,
16807914,000003A4,false,Rx,0,8,00,00,07,00,01,00,00,00,
16808174,000003B7,false,Rx,0,8,00,00,00,00,00,09,12,41,
16808428,00000491,false,Rx,0,8,00,00,00,00,00,00,00,00,
16839361,0000019C,false,Rx,0,8,06,A0,26,00,00,00,00,7F,
16839609,000001F1,false,Rx,0,8,0E,00,00,00,00,00,20,00,
16839856,00000297,false,Rx,0,8,00,03,00,00,00,00,20,00,
16840108,000002A6,false,Rx,0,8,00,00,00,00,00,00,00,00,
16840355,0000033F,false,Rx,0,8,00,00,00,00,28,00,00,48,
16906738,0000039F,false,Rx,0,8,4A,71,00,00,04,89,02,B4,
16906994,00000323,false,Rx,0,8,00,00,00,00,00,00,00,00,
16907240,00000324,false,Rx,0,8,70,44,DD,54,4E,00,00,7B,
16907485,0000033B,false,Rx,0,8,00,00,00,5C,00,00,00,00,
16907738,0000033D,false,Rx,0,8,00,00,10,20,00,18,00,00,
16908006,000003A2,false,Rx,0,8,21,60,10,48,03,FF,00,E5,
16908253,000003A4,false,Rx,0,8,00,00,07,00,01,00,00,00,
16908499,000003B7,false,Rx,0,8,00,00,00,00,00,0A,C6,41,
16908745,00000491,false,Rx,0,8,00,00,00,00,00,00,00,00,
16939324,0000019C,false,Rx,0,8,06,A0,26,00,00,00,00,7F,
16939572,000001F1,false,Rx,0,8,0E,00,00,00,00,00,20,00,
16939818,00000297,false,Rx,0,8,00,03,00,00,00,00,20,00,
16940071,000002A6,false,Rx,0,8,01,00,00,00,00,00,00,00,
16940317,0000033F,false,Rx,0,8,00,00,00,00,28,00,00,48,
17007169,0000039F,false,Rx,0,8,4A,71,00,00,04,89,03,B5,
17007418,00000323,false,Rx,0,8,00,00,00,00,00,00,D8,97,
17007664,00000324,false,Rx,0,8,70,44,D9,54,4E,00,00,7B,
17007912,0000033B,false,Rx,0,8,00,00,00,5C,00,00,00,00,
17008165,0000033D,false,Rx,0,8,00,00,10,20,00,18,00,00,
17008412,000003A2,false,Rx,0,8,21,60,10,4C,03,FF,00,E1,
17008658,000003A4,false,Rx,0,8,00,00,07,00,01,00,00,00,
17008908,000003B7,false,Rx,0,8,00,00,00,00,00,0B,8A,41,
17009160,00000491,false,Rx,0,8,00,00,00,00,00,00,00,00,
17039306,0000019C,false,Rx,0,8,06,A0,26,00,00,00,00,7F,
17039555,000001F1,false,Rx,0,8,0E,00,00,00,00,00,20,00,
17039801,00000297,false,Rx,0,8,00,03,00,00,00,00,20,00,
17040057,000002A6,false,Rx,0,8,01,00,00,00,00,00,00,00,
17040301,0000033F,false,Rx,0,8,00,00,00,00,28,00,00,48,
17107616,0000039F,false,Rx,0,8,4A,71,00,00,04,89,04,B2,
17107868,00000323,false,Rx,0,8,00,00,00,00,00,00,D8,97,
17108122,00000324,false,Rx,0,8,70,44,DD,54,4E,00,00,7B,
17108367,0000033B,false,Rx,0,8,00,00,00,5C,00,00,00,00,
17108613,0000033D,false,Rx,0,8,00,00,10,20,00,18,00,00,
17108862,000003A2,false,Rx,0,8,21,60,10,50,03,FF,00,FD,
17109114,000003A4,false,Rx,0,8,00,00,07,00,01,00,00,00,
17109359,000003B7,false,Rx,0,8,00,00,00,00,00,0C,73,41,
17109605,00000491,false,Rx,0,8,00,00,00,00,00,00,00,00,
17139264,0000019C,false,Rx,0,8,06,A0,26,00,00,00,00,7F,
17139512,000001F1,false,Rx,0,8,0E,00,00,00,00,00,20,00,
17139756,00000297,false,Rx,0,8,00,03,00,00,00,00,20,00,
17140010,000002A6,false,Rx,0,8,00,00,00,00,00,00,00,00,
17140255,0000033F,false,Rx,0,8,00,00,00,00,28,00,00,48,
17207892,0000039F,false,Rx,0,8,4A,71,00,00,04,89,05,B3,
17208146,00000323,false,Rx,0,8,00,00,00,00,00,00,D8,97,
17208393,00000324,false,Rx,0,8,70,44,C4,54,4E,00,00,7B,
17208638,0000033B,false,Rx,0,8,00,00,00,5C,00,00,00,00,
17208887,0000033D,false,Rx,0,8,00,00,10,20,00,18,00,00,
17209154,000003A2,false,Rx,0,8,21,60,10,54,03,FF,00,F9,
17209412,000003A4,false,Rx,0,8,00,00,07,00,01,00,00,00,
17209657,000003B7,false,Rx,0,8,00,00,00,00,00,0D,3F,41,
17209904,00000491,false,Rx,0,8,00,00,00,00,00,00,00,00,
17239276,0000019C,false,Rx,0,8,06,A0,26,00,00,00,00,7F,
17239524,000001F1,false,Rx,0,8,0E,00,00,00,00,00,20,00,
17239770,00000297,false,Rx,0,8,00,03,00,00,00,00,20,00,
17240025,000002A6,false,Rx,0,8,01,00,00,00,00,00,00,00,
17240272,0000033F,false,Rx,0,8,00,00,00,00,28,00,00,48,
17308141,0000039F,false,Rx,0,8,4A,71,00,00,04,89,06,B0,
17308394,00000323,false,Rx,0,8,00,00,00,00,00,00,D8,97,
17308639,00000324,false,Rx,0,8,70,44,D3,54,4E,00,00,7B,
17308886,0000033B,false,Rx,0,8,00,00,00,5C,00,00,00,00,
17309137,0000033D,false,Rx,0,8,00,00,10,20,00,18,00,00,
17309383,000003A2,false,Rx,0,8,21,60,10,58,03,FF,00,F5,
17309636,000003A4,false,Rx,0,8,00,00,07,00,01,00,00,00,
17309883,000003B7,false,Rx,0,8,00,00,00,00,00,0E,EB,41,
17310137,00000491,false,Rx,0,8,00,00,00,00,00,00,00,00,
17339266,0000019C,false,Rx,0,8,06,A0,26,00,00,00,00,7F,
17339515,000001F1,false,Rx,0,8,0E,00,00,00,00,00,20,00,
17339761,00000297,false,Rx,0,8,00,03,00,00,00,00,20,00,
17340018,000002A6,false,Rx,0,8,00,00,00,00,00,00,00,00,
17340263,0000033F,false,Rx,0,8,00,00,00,00,28,00,00,48,
17408379,0000039F,false,Rx,0,8,4A,71,00,00,04,89,07,B1,
17408628,00000323,false,Rx,0,8,00,00,00,00,00,00,D8,97,
17408876,00000324,false,Rx,0,8,70,44,D9,54,4E,00,00,7B,
17409130,0000033B,false,Rx,0,8,00,00,00,5C,00,00,00,00,
17409375,0000033D,false,Rx,0,8,00,00,10,20,00,18,00,00,
17409622,000003A2,false,Rx,0,8,21,60,10,5C,03,FF,00,F1,
17409868,000003A4,false,Rx,0,8,00,00,07,00,01,00,00,00,
17410122,000003B7,false,Rx,0,8,00,00,00,00,00,00,04,41,
17410367,00000491,false,Rx,0,8,00,00,00,00,00,00,00,00,
17439344,0000019C,false,Rx,0,8,06,A0,26,00,00,00,00,7F,
17439593,000001F1,false,Rx,0,8,0E,00,00,00,00,00,20,00,
17439840,00000297,false,Rx,0,8,00,03,00,00,00,00,20,00,
17440093,000002A6,false,Rx,0,8,01,00,00,00,00,00,00,00,
17440339,0000033F,false,Rx,0,8,00,00,00,00,28,00,00,48,
17508884,0000039F,false,Rx,0,8,4A,71,00,00,04,89,08,BE,
17509140,00000323,false,Rx,0,8,00,00,00,00,00,00,D7,63,
17509385,00000324,false,Rx,0,8,70,44,E2,54,4E,00,00,7B,
17509629,0000033B,false,Rx,0,8,00,00,00,5C,00,00,00,00,
17509912,0000033D,false,Rx,0,8,00,00,10,20,00,18,00,00,
17509922,000003A2,false,Rx,0,8,21,60,10,60,03,FF,00,CD,
17510169,000003A4,false,Rx,0,8,00,00,07,00,01,00,00,00,
17510415,000003B7,false,Rx,0,8,00,00,00,00,00,01,48,41,
17510661,00000491,false,Rx,0,8,00,00,00,00,00,00,00,00,
17539170,0000019C,false,Rx,0,8,06,A0,26,00,00,00,00,7F,
17539607,000001F1,false,Rx,0,8,0E,00,00,00,00,00,20,00,
17539854,00000297,false,Rx,0,8,00,03,00,00,00,00,20,00,
17540107,000002A6,false,Rx,0,8,01,00,00,00,00,00,00,00,
17540352,0000033F,false,Rx,0,8,00,00,00,00,28,00,00,48,
17608757,0000039F,false,Rx,0,8,4A,71,00,00,04,89,09,BF,
17609015,00000323,false,Rx,0,8,00,00,00,00,00,00,D7,63,
17609262,00000324,false,Rx,0,8,70,44,E7,54,4E,00,00,7B,
17609506,0000033B,false,Rx,0,8,00,00,00,5C,00,00,00,00,
17609753,0000033D,false,Rx,0,8,00,00,10,20,00,18,00,00,
17610007,000003A2,false,Rx,0,8,21,60,10,64,03,FF,00,C9,
17610252,000003A4,false,Rx,0,8,00,00,07,00,01,00,00,00,
17610498,000003B7,false,Rx,0,8,00,00,00,00,00,02,9C,41,
17610745,00000491,false,Rx,0,8,00,00,00,00,00,00,00,00,
17639272,0000019C,false,Rx,0,8,06,A0,26,00,00,00,00,7F,
17639520,000001F1,false,Rx,0,8,0E,00,00,00,00,00,20,00,
17639767,00000297,false,Rx,0,8,00,03,00,00,00,00,20,00,
17640021,000002A6,false,Rx,0,8,01,00,00,00,00,00,00,00,
17640268,0000033F,false,Rx,0,8,00,00,00,00,28,00,00,48,
17709207,0000039F,false,Rx,0,8,4A,71,00,00,04,89,0A,BC,
17709455,00000323,false,Rx,0,8,00,00,00,00,00,00,D7,63,
17709701,00000324,false,Rx,0,8,70,44,C9,54,4E,00,00,7B,
17709949,0000033B,false,Rx,0,8,00,00,00,5C,00,00,00,00,
17710203,0000033D,false,Rx,0,8,00,00,10,20,00,18,00,00,
17710448,000003A2,false,Rx,0,8,21,60,10,68,03,FF,00,C5,
17710694,000003A4,false,Rx,0,8,00,00,07,00,01,00,00,00,
17710942,000003B7,false,Rx,0,8,00,00,00,00,00,03,D0,41,
17711193,00000491,false,Rx,0,8,00,00,00,00,00,00,00,00,
17739373,0000019C,false,Rx,0,8,06,A0,26,00,00,00,00,7F,
17739418,000001F1,false,Rx,0,8,0E,00,00,00,00,00,20,00,
17739854,00000297,false,Rx,0,8,00,03,00,00,00,00,20,00,
17740106,000002A6,false,Rx,0,8,01,00,00,00,00,00,00,00,
17740350,0000033F,false,Rx,0,8,00,00,00,00,28,00,00,48,
17809581,0000039F,false,Rx,0,8,4A,71,00,00,04,89,0B,BD,
17809829,00000323,false,Rx,0,8,00,00,00,00,00,00,D7,63,
17810082,00000324,false,Rx,0,8,70,44,D3,54,4E,00,00,7B,
17810328,0000033B,false,Rx,0,8,00,00,00,5C,00,00,00,00,
17810574,0000033D,false,Rx,0,8,00,00,10,20,00,18,00,00,
17810819,000003A2,false,Rx,0,8,21,60,10,6C,03,FF,00,C1,
17811073,000003A4,false,Rx,0,8,00,00,07,00,01,00,00,00,
17811319,000003B7,false,Rx,0,8,00,00,00,00,00,04,29,41,
17811566,00000491,false,Rx,0,8,00,00,00,00,00,00,00,00,
17839198,0000019C,false,Rx,0,8,06,A0,26,00,00,00,00,7F,
17839447,000001F1,false,Rx,0,8,0E,00,00,00,00,00,20,00,
17839692,00000297,false,Rx,0,8,00,03,00,00,00,00,20,00,
17839940,000002A6,false,Rx,0,8,01,00,00,00,00,00,00,00,
17840193,0000033F,false,Rx,0,8,00,00,00,00,28,00,00,48,
17910009,0000039F,false,Rx,0,8,4A,71,00,00,04,89,0C,BA,
17910256,00000323,false,Rx,0,8,00,00,00,00,00,00,D7,63,
17910503,00000324,false,Rx,0,8,70,44,CE,54,4E,00,00,7B,
17910748,0000033B,false,Rx,0,8,00,00,00,5C,00,00,00,00,
17911007,0000033D,false,Rx,0,8,00,00,10,20,00,18,00,00,
17911251,000003A2,false,Rx,0,8,21,60,10,70,03,FF,00,DD,
17911498,000003A4,false,Rx,0,8,00,00,07,00,01,00,00,00,
17911742,000003B7,false,Rx,0,8,00,00,00,00,00,05,65,41,
17911998,00000491,false,Rx,0,8,00,00,00,00,00,00,00,00,
17939265,0000019C,false,Rx,0,8,06,A0,26,00,00,00,00,7F,
17939515,000001F1,false,Rx,0,8,0E,00,00,00,00,00,20,00,
17939760,00000297,false,Rx,0,8,00,03,00,00,00,00,20,00,
17940018,000002A6,false,Rx,0,8,01,00,00,00,00,00,00,00,
17940262,0000033F,false,Rx,0,8,00,00,00,00,28,00,00,48,
18010336,0000039F,false,Rx,0,8,4A,71,00,00,04,89,0D,BB,
18010585,00000323,false,Rx,0,8,00,00,00,00,00,00,C1,51,
18010831,00000324,false,Rx,0,8,70,44,F6,54,4E,00,00,7B,
18011084,0000033B,false,Rx,0,8,00,00,00,5C,00,00,00,00,
18011329,0000033D,false,Rx,0,8,00,00,10,20,00,18,00,00,
18011574,000003A2,false,Rx,0,8,21,61,10,74,03,FF,00,D8,
18011820,000003A4,false,Rx,0,8,00,00,07,00,01,00,00,00,
18012074,000003B7,false,Rx,0,8,00,00,00,00,00,06,B1,41,
18012319,00000491,false,Rx,0,8,00,00,00,00,00,00,00,00,
18039235,0000019C,false,Rx,0,8,06,A0,26,00,00,00,00,7F,
18040921,000001F1,false,Rx,0,8,0E,00,00,00,00,00,20,00,
18040936,00000297,false,Rx,0,8,00,03,00,00,00,00,20,00,
18040942,000002A6,false,Rx,0,8,01,00,00,00,00,00,00,00,
18040948,0000033F,false,Rx,0,8,00,00,00,00,28,00,00,48,
18110146,0000039F,false,Rx,0,8,4A,71,00,00,04,89,0E,B8,
18110395,00000323,false,Rx,0,8,00,00,00,00,00,00,C1,51,
18110641,00000324,false,Rx,0,8,70,44,DD,54,4E,00,00,7B,
18110890,0000033B,false,Rx,0,8,00,00,00,5C,00,00,00,00,
18111143,0000033D,false,Rx,0,8,00,00,10,20,00,18,00,00,
18111389,000003A2,false,Rx,0,8,21,60,10,78,03,FF,00,D5,
18111635,000003A4,false,Rx,0,8,00,00,07,00,01,00,00,00,
18111882,000003B7,false,Rx,0,8,00,00,00,00,00,07,FD,41,
18112130,00000491,false,Rx,0,8,00,00,00,00,00,00,00,00,
18139272,0000019C,false,Rx,0,8,06,A0,26,00,00,00,00,7F,
18139521,000001F1,false,Rx,0,8,0E,00,00,00,00,00,20,00,
18139766,00000297,false,Rx,0,8,00,03,00,00,00,00,20,00,
18141270,000002A6,false,Rx,0,8,01,00,00,00,00,00,00,00,
18141285,0000033F,false,Rx,0,8,00,00,00,00,28,00,00,48,
18210678,0000039F,false,Rx,0,8,4A,71,00,00,04,89,0F,B9,
18210928,00000323,false,Rx,0,8,00,00,00,00,00,00,C1,51,
18211182,00000324,false,Rx,0,8,70,44,DD,54,4E,00,00,7B,
18211428,0000033B,false,Rx,0,8,00,00,00,5C,00,00,00,00,
18211675,0000033D,false,Rx,0,8,00,00,10,20,00,18,00,00,
18211921,000003A2,false,Rx,0,8,21,60,10,7C,03,FF,00,D1,
18212175,000003A4,false,Rx,0,8,00,00,07,00,01,00,00,00,
18212419,000003B7,false,Rx,0,8,00,00,00,00,00,08,5E,41,
18212666,00000491,false,Rx,0,8,00,00,00,00,00,00,00,00,
18239332,0000019C,false,Rx,0,8,06,A0,26,00,00,00,00,7F,
18239579,000001F1,false,Rx,0,8,0E,00,00,00,00,00,20,00,
18239826,00000297,false,Rx,0,8,00,03,00,00,00,00,20,00,
18240079,000002A6,false,Rx,0,8,01,00,00,00,00,00,00,00,
18240325,0000033F,false,Rx,0,8,00,00,00,00,28,00,00,48,
18311091,0000039F,false,Rx,0,8,4A,71,00,00,04,89,00,B6,
18311339,00000323,false,Rx,0,8,00,00,00,00,00,00,C1,51,
18311585,00000324,false,Rx,0,8,70,44,D3,54,4E,00,00,7B,
18311832,0000033B,false,Rx,0,8,00,00,00,5C,00,00,00,00,
18312104,0000033D,false,Rx,0,8,00,00,10,20,00,18,00,00,
18312147,000003A2,false,Rx,0,8,21,60,10,40,03,FF,00,ED,
18312580,000003A4,false,Rx,0,8,00,00,07,00,01,00,00,00,
18312826,000003B7,false,Rx,0,8,00,00,00,00,00,09,12,41,
18313080,00000491,false,Rx,0,8,00,00,00,00,00,00,00,00,
18339207,0000019C,false,Rx,0,8,06,A0,26,00,00,00,00,7F,
18339455,000001F1,false,Rx,0,8,0E,00,00,00,00,00,20,00,
18339702,00000297,false,Rx,0,8,00,03,00,00,00,00,20,00,
18339951,000002A6,false,Rx,0,8,01,00,00,00,00,00,00,00,
18340203,0000033F,false,Rx,0,8,00,00,00,00,28,00,00,48,
18411474,0000039F,false,Rx,0,8,4A,71,00,00,04,89,01,B7,
18411722,00000323,false,Rx,0,8,00,00,00,00,00,00,C1,51,
18411975,00000324,false,Rx,0,8,70,44,EC,54,4E,00,00,7B,
18412221,0000033B,false,Rx,0,8,00,00,00,5C,00,00,00,00,
18412467,0000033D,false,Rx,0,8,00,00,10,20,00,18,00,00,
18412727,000003A2,false,Rx,0,8,21,60,10,44,03,FF,00,E9,
18413060,000003A4,false,Rx,0,8,00,00,07,00,01,00,00,00,
18413071,000003B7,false,Rx,0,8,00,00,00,00,00,0A,C6,41,
18413875,00000491,false,Rx,0,8,00,00,00,00,00,00,00,00,
18439352,0000019C,false,Rx,0,8,06,A0,26,00,00,00,00,7F,
18439600,000001F1,false,Rx,0,8,0E,00,00,00,00,00,20,00,
18439850,00000297,false,Rx,0,8,00,03,00,00,00,00,20,00,
18440103,000002A6,false,Rx,0,8,01,00,00,00,00,00,00,00,
18440350,0000033F,false,Rx,0,8,00,00,00,00,28,00,00,48,
18511808,0000039F,false,Rx,0,8,4A,71,00,00,04,89,02,B4,
18512067,00000323,false,Rx,0,8,00,00,00,00,00,00,00,00,
18512313,00000324,false,Rx,0,8,70,44,EC,54,4E,00,00,7B,
18512559,0000033B,false,Rx,0,8,00,00,00,5C,00,00,00,00,
18512805,0000033D,false,Rx,0,8,00,00,10,20,00,18,00,00,
18513053,000003A2,false,Rx,0,8,21,60,10,48,03,FF,00,E5,
18513299,000003A4,false,Rx,0,8,00,00,07,00,01,00,00,00,
18513551,000003B7,false,Rx,0,8,00,00,00,00,00,0B,8A,41,
18513798,00000491,false,Rx,0,8,00,00,00,00,00,00,00,00,
18539326,0000019C,false,Rx,0,8,06,A0,26,00,00,00,00,7F,
18539573,000001F1,false,Rx,0,8,0E,00,00,00,00,00,20,00,
18539820,00000297,false,Rx,0,8,00,03,00,00,00,00,20,00,
18540072,000002A6,false,Rx,0,8,01,00,00,00,00,00,00,00,
18540318,0000033F,false,Rx,0,8,00,00,00,00,28,00,00,48,
18611931,0000039F,false,Rx,0,8,4A,71,00,00,04,89,03,B5,
18612186,00000323,false,Rx,0,8,00,00,00,00,00,00,00,00,
18612432,00000324,false,Rx,0,8,70,44,E2,54,4E,00,00,7B,
18612679,0000033B,false,Rx,0,8,00,00,00,5C,00,00,00,00,
18612929,0000033D,false,Rx,0,8,00,00,10,20,00,18,00,00,
18613181,000003A2,false,Rx,0,8,21,60,10,4C,03,FF,00,E1,
18613426,000003A4,false,Rx,0,8,00,00,07,00,01,00,00,00,
18613683,000003B7,false,Rx,0,8,00,00,00,00,00,0C,73,41,
18613930,00000491,false,Rx,0,8,00,00,00,00,00,00,00,00,
18639235,0000019C,false,Rx,0,8,06,A0,26,00,00,00,00,7F,
18639484,000001F1,false,Rx,0,8,0E,00,00,00,00,00,20,00,
18639729,00000297,false,Rx,0,8,00,03,00,00,00,00,20,00,
18639986,000002A6,false,Rx,0,8,00,00,00,00,00,00,00,00,
18640232,0000033F,false,Rx,0,8,00,00,00,00,28,00,00,48,
18712116,0000039F,false,Rx,0,8,4A,71,00,00,04,89,04,B2,
18712364,00000323,false,Rx,0,8,00,00,00,00,00,00,00,00,
18712610,00000324,false,Rx,0,8,70,44,DD,54,4E,00,00,7B,
18712857,0000033B,false,Rx,0,8,00,00,00,5C,00,00,00,00,
18713111,0000033D,false,Rx,0,8,00,00,10,20,00,18,00,00,
18713357,000003A2,false,Rx,0,8,21,60,10,50,03,FF,00,FD,
18713612,000003A4,false,Rx,0,8,00,00,07,00,01,00,00,00,
18713861,000003B7,false,Rx,0,8,00,00,00,00,00,0D,3F,41,
18714116,00000491,false,Rx,0,8,00,00,00,00,00,00,00,00,
18739259,0000019C,false,Rx,0,8,06,A0,26,00,00,00,00,7F,
18739506,000001F1,false,Rx,0,8,0E,00,00,00,00,00,20,00,
18739753,00000297,false,Rx,0,8,00,03,00,00,00,00,20,00,
18740009,000002A6,false,Rx,0,8,00,00,00,00,00,00,00,00,
18740255,0000033F,false,Rx,0,8,00,00,00,00,28,00,00,48,
18812604,0000039F,false,Rx,0,8,4A,71,00,00,04,89,05,B3,
18812854,00000323,false,Rx,0,8,00,00,00,00,00,00,00,00,
18813106,00000324,false,Rx,0,8,70,44,DD,54,4E,00,00,7B,
18813352,0000033B,false,Rx,0,8,00,00,00,5C,00,00,00,00,
18813610,0000033D,false,Rx,0,8,00,00,10,20,00,18,00,00,
18813856,000003A2,false,Rx,0,8,21,60,10,54,03,FF,00,F9,
18814108,000003A4,false,Rx,0,8,00,00,07,00,01,00,00,00,
18814152,000003B7,false,Rx,0,8,00,00,00,00,00,0E,EB,41,
18814586,00000491,false,Rx,0,8,00,00,00,00,00,00,00,00,
18839164,0000019C,false,Rx,0,8,06,A0,26,00,00,00,00,7F,
18839410,000001F1,false,Rx,0,8,0E,00,00,00,00,00,20,00,
18839657,00000297,false,Rx,0,8,00,03,00,00,00,00,20,00,
18839905,000002A6,false,Rx,0,8,01,00,00,00,00,00,00,00,
18840159,0000033F,false,Rx,0,8,00,00,00,00,28,00,00,48,
18912816,0000039F,false,Rx,0,8,4A,71,00,00,04,89,06,B0,
18913072,00000323,false,Rx,0,8,00,00,00,00,00,00,00,00,
18913318,00000324,false,Rx,0,8,70,44,EC,54,4E,00,00,7B,
18913572,0000033B,false,Rx,0,8,00,00,00,5C,00,00,00,00,
18913817,0000033D,false,Rx,0,8,00,00,10,20,00,18,00,00,
18914065,000003A2,false,Rx,0,8,21,60,10,58,03,FF,00,F5,
18914311,000003A4,false,Rx,0,8,00,00,07,00,01,00,00,00,
18914558,000003B7,false,Rx,0,8,00,00,00,00,00,00,04,41,
18914803,00000491,false,Rx,0,8,00,00,00,00,00,00,00,00,
18939332,0000019C,false,Rx,0,8,06,A0,26,00,00,00,00,7F,
18939582,000001F1,false,Rx,0,8,0E,00,00,00,00,00,20,00,
18939829,00000297,false,Rx,0,8,00,03,00,00,00,00,20,00,
18940082,000002A6,false,Rx,0,8,01,00,00,00,00,00,00,00,
18940328,0000033F,false,Rx,0,8,00,00,00,00,28,00,00,48,
19013244,0000039F,false,Rx,0,8,4A,71,00,00,04,89,07,B1,
19013492,00000323,false,Rx,0,8,00,00,00,00,00,00,D8,97,
19013754,00000324,false,Rx,0,8,70,44,DD,54,4E,00,00,7B,
19014009,0000033B,false,Rx,0,8,00,00,00,5C,00,00,00,00,
19014255,0000033D,false,Rx,0,8,00,00,10,20,00,18,00,00,
19014500,000003A2,false,Rx,0,8,21,60,10,5C,03,FF,00,F1,
19014746,000003A4,false,Rx,0,8,00,00,07,00,01,00,00,00,
19015002,000003B7,false,Rx,0,8,00,00,00,00,00,01,48,41,
19015249,00000491,false,Rx,0,8,00,00,00,00,00,00,00,00,
19039206,0000019C,false,Rx,0,8,06,A0,26,00,00,00,00,7F,
19039454,000001F1,false,Rx,0,8,0E,00,00,00,00,00,20,00,
19039700,00000297,false,Rx,0,8,00,03,00,00,00,00,20,00,
19039948,000002A6,false,Rx,0,8,01,00,00,00,00,00,00,00,
19040201,0000033F,false,Rx,0,8,00,00,00,00,28,00,00,48,
19113545,0000039F,false,Rx,0,8,4A,71,00,00,04,89,08,BE,
19113794,00000323,false,Rx,0,8,00,00,00,00,00,00,D8,97,
19114042,00000324,false,Rx,0,8,70,44,E2,54,4E,00,00,7B,
19114297,0000033B,false,Rx,0,8,00,00,00,5C,00,00,00,00,
19114543,0000033D,false,Rx,0,8,00,00,10,20,00,18,00,00,
19114790,000003A2,false,Rx,0,8,21,60,10,60,03,FF,00,CD,
19115043,000003A4,false,Rx,0,8,00,00,07,00,01,00,00,00,
19115289,000003B7,false,Rx,0,8,00,00,00,00,00,02,9C,41,
19115535,00000491,false,Rx,0,8,00,00,00,00,00,00,00,00,
19139324,0000019C,false,Rx,0,8,06,A0,26,00,00,00,00,7F,
19139573,000001F1,false,Rx,0,8,0E,00,00,00,00,00,20,00,
19139819,00000297,false,Rx,0,8,00,03,00,00,00,00,20,00,
19140073,000002A6,false,Rx,0,8,01,00,00,00,00,00,00,00,
19140317,0000033F,false,Rx,0,8,00,00,00,00,28,00,00,48,
19213917,0000039F,false,Rx,0,8,4A,71,00,00,04,89,09,BF,
19214171,00000323,false,Rx,0,8,00,00,00,00,00,00,D8,97,
19214416,00000324,false,Rx,0,8,70,44,DD,54,4E,00,00,7B,
19214661,0000033B,false,Rx,0,8,00,00,00,5C,00,00,00,00,
19214909,0000033D,false,Rx,0,8,00,00,10,20,00,18,00,00,
19215161,000003A2,false,Rx,0,8,21,60,10,64,03,FF,00,C9,
19215408,000003A4,false,Rx,0,8,00,00,07,00,01,00,00,00,
19215654,000003B7,false,Rx,0,8,00,00,00,00,00,03,D0,41,
19215902,00000491,false,Rx,0,8,00,00,00,00,00,00,00,00,
19239258,0000019C,false,Rx,0,8,06,A0,26,00,00,00,00,7F,
19239508,000001F1,false,Rx,0,8,0E,00,00,00,00,00,20,00,
19239753,00000297,false,Rx,0,8,00,03,00,00,00,00,20,00,
19240009,000002A6,false,Rx,0,8,01,00,00,00,00,00,00,00,
19240255,0000033F,false,Rx,0,8,00,00,00,00,28,00,00,48,
19313963,0000039F,false,Rx,0,8,4A,71,00,00,04,89,0A,BC,
19314244,00000323,false,Rx,0,8,00,00,00,00,00,00,D8,97,
19314497,00000324,false,Rx,0,8,70,44,E7,54,4E,00,00,7B,
19314744,0000033B,false,Rx,0,8,00,00,00,5C,00,00,00,00,
19315000,0000033D,false,Rx,0,8,00,00,10,20,00,18,00,00,
19315247,000003A2,false,Rx,0,8,21,60,10,68,03,FF,00,C5,
19315492,000003A4,false,Rx,0,8,00,00,07,00,01,00,00,00,
19315739,000003B7,false,Rx,0,8,00,00,00,00,00,04,29,41,
19315995,00000491,false,Rx,0,8,00,00,00,00,00,00,00,00,
19339327,0000019C,false,Rx,0,8,06,A0,26,00,00,00,00,7F,
19339574,000001F1,false,Rx,0,8,0E,00,00,00,00,00,20,00,
19339820,00000297,false,Rx,0,8,00,03,00,00,00,00,20,00,
19340073,000002A6,false,Rx,0,8,01,00,00,00,00,00,00,00,
19340320,0000033F,false,Rx,0,8,00,00,00,00,28,00,00,48,
19414536,0000039F,false,Rx,0,8,4A,71,00,00,04,89,0B,BD,
19414785,00000323,false,Rx,0,8,00,00,00,00,00,00,D8,97,
19415042,00000324,false,Rx,0,8,70,44,E2,54,4E,00,00,7B,
19415288,0000033B,false,Rx,0,8,00,00,00,5C,00,00,00,00,
19415534,0000033D,false,Rx,0,8,00,00,10,20,00,18,00,00,
19415780,000003A2,false,Rx,0,8,21,60,10,6C,03,FF,00,C1,
19416036,000003A4,false,Rx,0,8,00,00,07,00,01,00,00,00,
19416281,000003B7,false,Rx,0,8,00,00,00,00,00,05,65,41,
19416526,00000491,false,Rx,0,8,00,00,00,00,00,00,00,00,
19439226,0000019C,false,Rx,0,8,06,A0,26,00,00,00,00,7F,
19439548,000001F1,false,Rx,0,8,0E,00,00,00,00,00,20,00,
19439793,00000297,false,Rx,0,8,00,03,00,00,00,00,20,00,
19440078,000002A6,false,Rx,0,8,01,00,00,00,00,00,00,00,
19440342,0000033F,false,Rx,0,8,00,00,00,00,28,00,00,48,
19514922,0000039F,false,Rx,0,8,4A,71,00,00,04,89,0C,BA,
19515175,00000323,false,Rx,0,8,00,00,00,00,00,00,D7,63,
19515421,00000324,false,Rx,0,8,70,44,D3,54,4E,00,00,7B,
19515667,0000033B,false,Rx,0,8,00,00,00,5C,00,00,00,00,
19515917,0000033D,false,Rx,0,8,00,00,10,20,00,18,00,00,
19516163,000003A2,false,Rx,0,8,21,60,10,70,03,FF,00,DD,
19516410,000003A4,false,Rx,0,8,00,00,07,00,01,00,00,00,
19516655,000003B7,false,Rx,0,8,00,00,00,00,00,06,B1,41,
19516904,00000491,false,Rx,0,8,00,00,00,00,00,00,00,00,
19539259,0000019C,false,Rx,0,8,06,A0,26,00,00,00,00,7F,
19539508,000001F1,false,Rx,0,8,0E,00,00,00,00,00,20,00,
19539753,00000297,false,Rx,0,8,00,03,00,00,00,00,20,00,
19540009,000002A6,false,Rx,0,8,00,00,00,00,00,00,00,00,
19540255,0000033F,false,Rx,0,8,00,00,00,00,28,00,00,48,
19615178,0000039F,false,Rx,0,8,4A,71,00,00,04,89,0D,BB,
19615425,00000323,false,Rx,0,8,00,00,00,00,00,00,D7,63,
19615671,00000324,false,Rx,0,8,70,44,E2,54,4E,00,00,7B,
19615920,0000033B,false,Rx,0,8,00,00,00,5C,00,00,00,00,
19616173,0000033D,false,Rx,0,8,00,00,10,20,00,18,00,00,
19616419,000003A2,false,Rx,0,8,21,60,10,74,03,FF,00,D9,
19616665,000003A4,false,Rx,0,8,00,00,07,00,01,00,00,00,
19616914,000003B7,false,Rx,0,8,00,00,00,00,00,07,FD,41,
19617167,00000491,false,Rx,0,8,00,00,00,00,00,00,00,00,
19639199,0000019C,false,Rx,0,8,06,A0,26,00,00,00,00,7F,
19639448,000001F1,false,Rx,0,8,0E,00,00,00,00,00,20,00,
19639693,00000297,false,Rx,0,8,00,03,00,00,00,00,20,00,
19639942,000002A6,false,Rx,0,8,01,00,00,00,00,00,00,00,
19640194,0000033F,false,Rx,0,8,00,00,00,00,28,00,00,48,
19715469,0000039F,false,Rx,0,8,4A,71,00,00,04,89,0E,B8,
19715718,00000323,false,Rx,0,8,00,00,00,00,00,00,D7,63,
19715975,00000324,false,Rx,0,8,70,44,DD,54,4E,00,00,7B,
19716228,0000033B,false,Rx,0,8,00,00,00,5C,00,00,00,00,
19716496,0000033D,false,Rx,0,8,00,00,10,20,00,18,00,00,
19716757,000003A2,false,Rx,0,8,21,60,10,78,03,FF,00,D5,
19717064,000003A4,false,Rx,0,8,00,00,07,00,01,00,00,00,
19717074,000003B7,false,Rx,0,8,00,00,00,00,00,08,5E,41,
19717316,00000491,false,Rx,0,8,00,00,00,00,00,00,00,00,
19739330,0000019C,false,Rx,0,8,06,A0,26,00,00,00,00,7F,
19739580,000001F1,false,Rx,0,8,0E,00,00,00,00,00,20,00,
19739824,00000297,false,Rx,0,8,00,03,00,00,00,00,20,00,
19740078,000002A6,false,Rx,0,8,01,00,00,00,00,00,00,00,
19740323,0000033F,false,Rx,0,8,00,00,00,00,28,00,00,48,
19815290,0000039F,false,Rx,0,8,4A,71,00,00,04,89,0F,B9,
19815537,00000323,false,Rx,0,8,00,00,00,00,00,00,D7,63,
19815784,00000324,false,Rx,0,8,70,44,E7,54,4E,00,00,7B,
19816030,0000033B,false,Rx,0,8,00,00,00,5C,00,00,00,00,
19816285,0000033D,false,Rx,0,8,00,00,10,20,00,18,00,00,
19816531,000003A2,false,Rx,0,8,21,60,10,7C,03,FF,00,D1,
19816778,000003A4,false,Rx,0,8,00,00,07,00,01,00,00,00,
19817033,000003B7,false,Rx,0,8,00,00,00,00,00,09,12,41,
19817280,00000491,false,Rx,0,8,00,00,00,00,00,00,00,00,
19839271,0000019C,false,Rx,0,8,06,A0,26,00,00,00,00,7F,
19839537,000001F1,false,Rx,0,8,0E,00,00,00,00,00,20,00,
19839783,00000297,false,Rx,0,8,00,03,00,00,00,00,20,00,
19840040,000002A6,false,Rx,0,8,01,00,00,00,00,00,00,00,
19840285,0000033F,false,Rx,0,8,00,00,00,00,28,00,00,48,
19915961,0000039F,false,Rx,0,8,4A,71,00,00,04,89,00,B6,
19916249,00000323,false,Rx,0,8,00,00,00,00,00,00,D7,63,
19916258,00000324,false,Rx,0,8,70,44,CE,54,4E,00,00,7B,
19916500,0000033B,false,Rx,0,8,00,00,00,5C,00,00,00,00,
19916745,0000033D,false,Rx,0,8,00,00,10,20,00,18,00,00,
19916993,000003A2,false,Rx,0,8,21,60,10,40,03,FF,00,ED,
19917248,000003A4,false,Rx,0,8,00,00,07,00,01,00,00,00,
19917493,000003B7,false,Rx,0,8,00,00,00,00,00,0A,C6,41,
19917739,00000491,false,Rx,0,8,00,00,00,00,00,00,00,00,
19939178,0000019C,false,Rx,0,8,06,A0,26,00,00,00,00,7F,
19939426,000001F1,false,Rx,0,8,0E,00,00,00,00,00,20,00,
19939673,00000297,false,Rx,0,8,00,03,00,00,00,00,20,00,
19939920,000002A6,false,Rx,0,8,01,00,00,00,00,00,00,00,
19940173,0000033F,false,Rx,0,8,00,00,00,00,28,00,00,48,
20016326,0000039F,false,Rx,0,8,4A,71,00,00,04,89,01,B7,
20016629,00000323,false,Rx,0,8,00,00,00,00,00,00,C1,51,
20016639,00000324,false,Rx,0,8,70,44,C9,54,4E,00,00,7B,
20016894,0000033B,false,Rx,0,8,00,00,00,5C,00,00,00,00,
20017157,0000033D,false,Rx,0,8,00,00,10,20,00,18,00,00,
20017404,000003A2,false,Rx,0,8,21,60,10,44,03,FF,00,E9,
20017649,000003A4,false,Rx,0,8,00,00,07,00,01,00,00,00,
20017915,000003B7,false,Rx,0,8,00,00,00,00,00,0B,8A,41,
20018168,00000491,false,Rx,0,8,00,00,00,00,00,00,00,00,
20039243,0000019C,false,Rx,0,8,06,A0,26,00,00,00,00,7F,
20039492,000001F1,false,Rx,0,8,0E,00,00,00,00,00,20,00,
20039736,00000297,false,Rx,0,8,00,03,00,00,00,00,20,00,
20039991,000002A6,false,Rx,0,8,01,00,00,00,00,00,00,00,
20040236,0000033F,false,Rx,0,8,00,00,00,00,28,00,00,48,
20116625,0000039F,false,Rx,0,8,4A,71,00,00,04,89,02,B4,
20116873,00000323,false,Rx,0,8,00,00,00,00,00,00,C1,51,
20117125,00000324,false,Rx,0,8,70,44,E2,54,4E,00,00,7B,
20117372,0000033B,false,Rx,0,8,00,00,00,5C,00,00,00,00,
20117617,0000033D,false,Rx,0,8,00,00,10,20,00,18,00,00,
20117866,000003A2,false,Rx,0,8,21,60,10,48,03,FF,00,E5,
20118117,000003A4,false,Rx,0,8,00,00,07,00,01,00,00,00,
20118363,000003B7,false,Rx,0,8,00,00,00,00,00,0C,73,41,
20118608,00000491,false,Rx,0,8,00,00,00,00,00,00,00,00,
20139333,0000019C,false,Rx,0,8,06,A0,26,00,00,00,00,7F,
20139582,000001F1,false,Rx,0,8,0E,00,00,00,00,00,20,00,
20139828,00000297,false,Rx,0,8,00,03,00,00,00,00,20,00,
20140081,000002A6,false,Rx,0,8,01,00,00,00,00,00,00,00,
20140326,0000033F,false,Rx,0,8,00,00,00,00,28,00,00,48,
20216971,0000039F,false,Rx,0,8,4A,71,00,00,04,89,03,B5,
20217219,00000323,false,Rx,0,8,00,00,00,00,00,00,C1,51,
20217466,00000324,false,Rx,0,8,70,44,EC,54,4E,00,00,7B,
20217711,0000033B,false,Rx,0,8,00,00,00,5C,00,00,00,00,
20217971,0000033D,false,Rx,0,8,00,00,10,20,00,18,00,00,
20218216,000003A2,false,Rx,0,8,21,60,10,4C,03,FF,00,E1,
20218463,000003A4,false,Rx,0,8,00,00,07,00,01,00,00,00,
20218709,000003B7,false,Rx,0,8,00,00,00,00,00,0D,3F,41,
20218959,00000491,false,Rx,0,8,00,00,00,00,00,00,00,00,
20239228,0000019C,false,Rx,0,8,06,A0,26,00,00,00,00,7F,
20239476,000001F1,false,Rx,0,8,0E,00,00,00,00,00,20,00,
20239722,00000297,false,Rx,0,8,00,03,00,00,00,00,20,00,
20239975,000002A6,false,Rx,0,8,01,00,00,00,00,00,00,00,
20240222,0000033F,false,Rx,0,8,00,00,00,00,28,00,00,48,
20317053,0000039F,false,Rx,0,8,4A,71,00,00,04,89,04,B2,
20317301,00000323,false,Rx,0,8,00,00,00,00,00,00,C1,51,
20317547,00000324,false,Rx,0,8,70,44,E2,54,4E,00,00,7B,
20317793,0000033B,false,Rx,0,8,00,00,00,5C,00,00,00,00,
20318044,0000033D,false,Rx,0,8,00,00,10,20,00,18,00,00,
20318289,000003A2,false,Rx,0,8,21,60,10,50,03,FF,00,FD,
20318536,000003A4,false,Rx,0,8,00,00,07,00,01,00,00,00,
20318781,000003B7,false,Rx,0,8,00,00,00,00,00,0E,EB,41,
20319031,00000491,false,Rx,0,8,00,00,00,00,00,00,00,00,
20339274,0000019C,false,Rx,0,8,06,A0,26,00,00,00,00,7F,
20339521,000001F1,false,Rx,0,8,0E,00,00,00,00,00,20,00,
20339767,00000297,false,Rx,0,8,00,03,00,00,00,00,20,00,
20340020,000002A6,false,Rx,0,8,01,00,00,00,00,00,00,00,
20340267,0000033F,false,Rx,0,8,00,00,00,00,28,00,00,48,
20417624,0000039F,false,Rx,0,8,4A,71,00,00,04,89,05,B3,
20417877,00000323,false,Rx,0,8,00,00,00,00,00,00,C1,51,
20418130,00000324,false,Rx,0,8,30,44,C0,54,4E,00,00,00,
20418377,0000033B,false,Rx,0,8,00,00,00,5C,00,00,00,00,
20418623,0000033D,false,Rx,0,8,00,00,A0,20,00,18,00,00,
20418872,000003A2,false,Rx,0,8,21,60,10,54,03,FF,00,F9,
20419124,000003A4,false,Rx,0,8,00,00,07,00,01,00,00,00,
20419168,000003B7,false,Rx,0,8,00,00,00,00,00,00,04,41,
20419602,00000491,false,Rx,0,8,00,00,00,00,00,00,00,00,
20439309,0000019C,false,Rx,0,8,06,A0,26,00,00,00,00,7F,
20439558,000001F1,false,Rx,0,8,0E,00,00,00,00,00,20,00,
20439803,00000297,false,Rx,0,8,00,03,00,00,00,00,20,00,
20440059,000002A6,false,Rx,0,8,01,00,00,00,00,00,00,00,
20440304,0000033F,false,Rx,0,8,00,00,00,00,28,00,00,48,
20517871,0000039F,false,Rx,0,8,4A,71,00,00,04,89,06,B0,
20518128,00000323,false,Rx,0,8,00,00,00,00,00,00,00,00,
20518373,00000324,false,Rx,0,8,70,44,E2,54,4E,00,00,7B,
20518620,0000033B,false,Rx,0,8,00,00,00,5C,00,00,00,00,
20518868,0000033D,false,Rx,0,8,00,00,10,20,00,18,00,00,
20519122,000003A2,false,Rx,0,8,21,60,10,58,03,FF,00,F5,
20519367,000003A4,false,Rx,0,8,00,00,07,00,01,00,00,00,
20519613,000003B7,false,Rx,0,8,00,00,00,00,00,01,48,41,
20519862,00000491,false,Rx,0,8,00,00,00,00,00,00,00,00,
20539279,0000019C,false,Rx,0,8,06,A0,26,00,00,00,00,7F,
20539532,000001F1,false,Rx,0,8,0E,00,00,00,00,00,20,00,
20539795,00000297,false,Rx,0,8,00,03,00,00,00,00,20,00,
20540067,000002A6,false,Rx,0,8,01,00,00,00,00,00,00,00,
20540325,0000033F,false,Rx,0,8,00,00,00,00,28,00,00,48,
20618044,0000039F,false,Rx,0,8,4A,71,00,00,04,89,07,B1,
20618293,00000323,false,Rx,0,8,00,00,00,00,00,00,00,00,
20618539,00000324,false,Rx,0,8,70,44,F2,54,4E,00,00,7B,
20618785,0000033B,false,Rx,0,8,64,00,00,5C,00,00,00,00,
20619039,0000033D,false,Rx,0,8,00,00,10,20,00,18,00,00,
20619286,000003A2,false,Rx,0,8,21,61,10,5C,03,FF,00,F0,
20619532,000003A4,false,Rx,0,8,00,00,07,00,01,00,00,00,
20619791,000003B7,false,Rx,0,8,00,00,00,00,00,02,9C,41,
20620066,00000491,false,Rx,0,8,00,00,00,00,00,00,00,00,
20639171,0000019C,false,Rx,0,8,06,A0,26,00,00,00,00,7F,
20639450,000001F1,false,Rx,0,8,0E,00,00,00,00,00,20,00,
20639696,00000297,false,Rx,0,8,00,03,00,00,00,00,20,00,
20639945,000002A6,false,Rx,0,8,01,00,00,00,00,00,00,00,
20640197,0000033F,false,Rx,0,8,00,00,00,00,28,00,00,48,
20718162,0000039F,false,Rx,0,8,4A,71,00,00,04,89,08,BE,
20718412,00000323,false,Rx,0,8,00,00,00,00,00,00,00,00,
20718657,00000324,false,Rx,0,8,70,44,F2,54,4E,00,00,7B,
20718904,0000033B,false,Rx,0,8,64,00,00,5C,00,00,00,00,
20719157,0000033D,false,Rx,0,8,00,00,10,20,00,18,00,00,
20719402,000003A2,false,Rx,0,8,21,61,10,60,03,FF,00,CC,
20719649,000003A4,false,Rx,0,8,00,00,07,00,01,00,00,00,
20719896,000003B7,false,Rx,0,8,00,00,00,00,00,03,D0,41,
20720144,00000491,false,Rx,0,8,00,00,00,00,00,00,00,00,
20739193,0000019C,false,Rx,0,8,06,A0,26,00,00,00,00,7F,
20739441,000001F1,false,Rx,0,8,0E,00,00,00,00,00,20,00,
20739688,00000297,false,Rx,0,8,00,03,00,00,00,00,20,00,
20739935,000002A6,false,Rx,0,8,01,00,00,00,00,00,00,00,
20740189,0000033F,false,Rx,0,8,00,00,00,00,28,00,00,48,
20818470,0000039F,false,Rx,0,8,4A,71,00,00,04,89,09,BF,
20818718,00000323,false,Rx,0,8,00,00,00,00,00,00,00,00,
20819008,00000324,false,Rx,0,8,70,44,C4,54,4E,00,00,7B,
20819018,0000033B,false,Rx,0,8,64,00,00,5C,00,00,00,00,
20819261,0000033D,false,Rx,0,8,00,00,10,20,00,18,00,00,
20819507,000003A2,false,Rx,0,8,21,60,10,64,03,FF,00,C9,
20819754,000003A4,false,Rx,0,8,00,00,07,00,01,00,00,00,
20820000,000003B7,false,Rx,0,8,00,00,00,00,00,04,29,41,
20820254,00000491,false,Rx,0,8,00,00,00,00,00,00,00,00,
20839261,0000019C,false,Rx,0,8,06,A0,26,00,00,00,00,7F,
20839509,000001F1,false,Rx,0,8,0E,00,00,00,00,00,20,00,
20839758,00000297,false,Rx,0,8,00,03,00,00,00,00,20,00,
20840031,000002A6,false,Rx,0,8,01,00,00,00,00,00,00,00,
20840277,0000033F,false,Rx,0,8,00,00,00,00,28,00,00,48,
20919043,0000039F,false,Rx,0,8,4A,71,00,00,04,89,0A,BC,
20919292,00000323,false,Rx,0,8,00,00,00,00,00,00,00,00,
20919538,00000324,false,Rx,0,8,70,44,C0,54,4E,00,00,00,
20919784,0000033B,false,Rx,0,8,64,00,00,5C,00,00,00,00,
20920039,0000033D,false,Rx,0,8,00,00,10,20,00,18,00,00,
20920286,000003A2,false,Rx,0,8,21,60,10,68,03,FF,00,C5,
20920531,000003A4,false,Rx,0,8,00,00,07,00,01,00,00,00,
20920778,000003B7,false,Rx,0,8,00,00,00,00,00,05,65,41,
20921033,00000491,false,Rx,0,8,00,00,00,00,00,00,00,00,
20939301,0000019C,false,Rx,0,8,06,A0,26,00,00,00,00,7F,
20939573,000001F1,false,Rx,0,8,0E,00,00,00,00,00,20,00,
20939820,00000297,false,Rx,0,8,00,03,00,00,00,00,20,00,
20940072,000002A6,false,Rx,0,8,01,00,00,00,00,00,00,00,
20940319,0000033F,false,Rx,0,8,00,00,00,00,28,00,00,48,
21019374,0000039F,false,Rx,0,8,4A,71,00,00,04,89,0B,BD,
21019623,00000323,false,Rx,0,8,00,00,00,00,00,00,D8,97,
21019871,00000324,false,Rx,0,8,70,44,D9,54,4E,00,00,00,
21020124,0000033B,false,Rx,0,8,64,00,00,5C,00,00,00,00,
21020368,0000033D,false,Rx,0,8,00,00,10,20,00,18,00,00,
21020615,000003A2,false,Rx,0,8,21,60,10,6C,03,FF,00,C1,
21020862,000003A4,false,Rx,0,8,00,00,07,00,01,00,00,00,
21021115,000003B7,false,Rx,0,8,00,00,00,00,00,06,B1,41,
21021360,00000491,false,Rx,0,8,00,00,00,00,00,00,00,00,
21039301,0000019C,false,Rx,0,8,06,A0,26,00,00,00,00,7F,
21039548,000001F1,false,Rx,0,8,0E,00,00,00,00,00,20,00,
21039794,00000297,false,Rx,0,8,00,03,00,00,00,00,20,00,
21040049,000002A6,false,Rx,0,8,01,00,00,00,00,00,00,00,
21040296,0000033F,false,Rx,0,8,00,00,00,00,28,00,00,48,
21119376,0000039F,false,Rx,0,8,4A,71,00,00,04,89,0C,BA,
21119625,00000323,false,Rx,0,8,00,00,00,00,00,00,D8,97,
21119873,00000324,false,Rx,0,8,70,44,E7,54,4E,00,00,00,
21120123,0000033B,false,Rx,0,8,64,00,00,5C,00,00,00,00,
21120369,0000033D,false,Rx,0,8,00,00,10,20,00,18,00,00,
21120614,000003A2,false,Rx,0,8,21,60,10,70,03,FF,00,DD,
21120863,000003A4,false,Rx,0,8,00,00,07,00,01,00,00,00,
21121110,000003B7,false,Rx,0,8,00,00,00,00,00,07,FD,41,
21121357,00000491,false,Rx,0,8,00,00,00,00,00,00,00,00,
21139242,0000019C,false,Rx,0,8,06,A0,26,00,00,00,00,7F,
21139490,000001F1,false,Rx,0,8,0E,00,00,00,00,00,20,00,
21139736,00000297,false,Rx,0,8,00,03,00,00,00,00,20,00,
21139992,000002A6,false,Rx,0,8,00,00,00,00,00,00,00,00,
21140244,0000033F,false,Rx,0,8,00,00,00,00,28,00,00,48,
21219560,0000039F,false,Rx,0,8,4A,71,00,00,04,89,0D,BB,
21219808,00000323,false,Rx,0,8,00,00,00,00,00,00,D8,97,
21220064,00000324,false,Rx,0,8,70,44,E7,54,4E,00,00,00,
21220309,0000033B,false,Rx,0,8,64,00,00,5C,00,00,00,00,
21220556,0000033D,false,Rx,0,8,00,00,10,20,00,18,00,00,
21220802,000003A2,false,Rx,0,8,21,60,10,74,03,FF,00,D9,
21221059,000003A4,false,Rx,0,8,00,00,07,00,01,00,00,00,
21221304,000003B7,false,Rx,0,8,00,00,00,00,00,08,5E,41,
21221551,00000491,false,Rx,0,8,00,00,00,00,00,00,00,00,
21239322,0000019C,false,Rx,0,8,06,A0,26,00,00,00,00,7F,
21239569,000001F1,false,Rx,0,8,0E,00,00,00,00,00,20,00,
21239815,00000297,false,Rx,0,8,00,03,00,00,00,00,20,00,
21240066,000002A6,false,Rx,0,8,01,00,00,00,00,00,00,00,
21240313,0000033F,false,Rx,0,8,00,00,00,00,28,00,00,48,
21320269,0000039F,false,Rx,0,8,4A,71,00,00,04,89,0E,B8,
21320518,00000323,false,Rx,0,8,00,00,00,00,00,00,D8,97,
21320764,00000324,false,Rx,0,8,70,44,CE,54,4E,00,00,00,
21321020,0000033B,false,Rx,0,8,64,00,00,5C,00,00,00,00,
21321265,0000033D,false,Rx,0,8,00,00,10,20,00,18,00,00,
21321512,000003A2,false,Rx,0,8,21,60,10,78,03,FF,00,D5,
21321757,000003A4,false,Rx,0,8,00,00,07,00,01,00,00,00,
21322012,000003B7,false,Rx,0,8,00,00,00,00,00,09,12,41,
21322257,00000491,false,Rx,0,8,00,00,00,00,00,00,00,00,
21339241,0000019C,false,Rx,0,8,06,A0,26,00,00,00,00,7F,
21339503,000001F1,false,Rx,0,8,0E,00,00,00,00,00,20,00,
21339749,00000297,false,Rx,0,8,00,03,00,00,00,00,20,00,
21340006,000002A6,false,Rx,0,8,01,00,00,00,00,00,00,00,
21340251,0000033F,false,Rx,0,8,00,00,00,00,28,00,00,48,
21420780,0000039F,false,Rx,0,8,4A,71,00,00,04,89,0F,B9,
21421039,00000323,false,Rx,0,8,00,00,00,00,00,00,D8,97,
21421283,00000324,false,Rx,0,8,70,44,D9,54,4E,00,00,00,
21421327,0000033B,false,Rx,0,8,64,00,00,5C,00,00,00,00,
21421761,0000033D,false,Rx,0,8,00,00,10,20,00,18,00,00,
21422015,000003A2,false,Rx,0,8,21,60,10,7C,03,FF,00,D1,
21422261,000003A4,false,Rx,0,8,00,00,07,00,01,00,00,00,
21422507,000003B7,false,Rx,0,8,00,00,00,00,00,0A,C6,41,
21422752,00000491,false,Rx,0,8,00,00,00,00,00,00,00,00,
21439306,0000019C,false,Rx,0,8,06,A0,26,00,00,00,00,7F,
21439554,000001F1,false,Rx,0,8,0E,00,00,00,00,00,20,00,
21439805,00000297,false,Rx,0,8,00,03,00,00,00,00,20,00,
21440064,000002A6,false,Rx,0,8,00,00,00,00,00,00,00,00,
21440329,0000033F,false,Rx,0,8,00,00,00,00,28,00,00,48,
21521077,0000039F,false,Rx,0,8,4A,71,00,00,04,89,00,B6,
21521122,00000323,false,Rx,0,8,00,00,00,00,00,00,D7,63,
21521364,00000324,false,Rx,0,8,70,44,DD,54,4E,00,00,00,
21521610,0000033B,false,Rx,0,8,64,00,00,5D,00,00,00,00,
21521859,0000033D,false,Rx,0,8,00,00,10,20,00,18,00,00,
21522113,000003A2,false,Rx,0,8,21,60,10,40,03,FF,00,ED,
21522358,000003A4,false,Rx,0,8,00,00,07,00,01,00,00,00,
21522604,000003B7,false,Rx,0,8,00,00,00,00,00,0B,8A,41,
21522850,00000491,false,Rx,0,8,00,00,00,00,00,00,00,00,
21539256,0000019C,false,Rx,0,8,06,A0,26,00,00,00,00,7F,
21539526,000001F1,false,Rx,0,8,0E,00,00,00,00,00,20,00,
21539788,00000297,false,Rx,0,8,00,03,00,00,00,00,20,00,
21540044,000002A6,false,Rx,0,8,01,00,00,00,00,00,00,00,
21540296,0000033F,false,Rx,0,8,00,00,00,00,28,00,00,48,
21621029,0000039F,false,Rx,0,8,4A,71,00,00,04,89,01,B7,
21621278,00000323,false,Rx,0,8,00,00,00,00,00,00,D7,63,
21621525,00000324,false,Rx,0,8,70,44,F6,54,4E,00,00,00,
21621770,0000033B,false,Rx,0,8,64,00,00,5C,00,00,00,00,
21622017,0000033D,false,Rx,0,8,00,00,10,20,00,18,00,00,
21622270,000003A2,false,Rx,0,8,21,61,10,44,03,FF,00,E8,
21622517,000003A4,false,Rx,0,8,00,00,07,00,01,00,00,00,
21622763,000003B7,false,Rx,0,8,00,00,00,00,00,0C,73,41,
21623018,00000491,false,Rx,0,8,00,00,00,00,00,00,00,00,
21639215,0000019C,false,Rx,0,8,06,A0,26,00,00,00,00,7F,
21639471,000001F1,false,Rx,0,8,0E,00,00,00,00,00,20,00,
21639735,00000297,false,Rx,0,8,00,03,00,00,00,00,20,00,
21640000,000002A6,false,Rx,0,8,01,00,00,00,00,00,00,00,
21640269,0000033F,false,Rx,0,8,00,00,00,00,28,00,00,48,
21721060,0000039F,false,Rx,0,8,4A,71,00,00,04,89,02,B4,
21721307,00000323,false,Rx,0,8,00,00,00,00,00,00,D7,63,
21721553,00000324,false,Rx,0,8,70,44,EC,54,4E,00,00,00,
21721798,0000033B,false,Rx,0,8,64,00,00,5C,00,00,00,00,
21722056,0000033D,false,Rx,0,8,00,00,10,20,00,18,00,00,
21722302,000003A2,false,Rx,0,8,21,60,10,48,03,FF,00,E5,
21722549,000003A4,false,Rx,0,8,00,00,07,00,01,00,00,00,
21722794,000003B7,false,Rx,0,8,00,00,00,00,00,0D,3F,41,
21723044,00000491,false,Rx,0,8,00,00,00,00,00,00,00,00,
21739827,0000019C,false,Rx,0,8,06,A0,26,00,00,00,00,7F,
21739876,000001F1,false,Rx,0,8,0E,00,00,00,00,00,20,00,
21739882,00000297,false,Rx,0,8,00,03,00,00,00,00,20,00,
21739888,000002A6,false,Rx,0,8,01,00,00,00,00,00,00,00,
21740149,0000033F,false,Rx,0,8,00,00,00,00,28,00,00,48,
21821865,0000039F,false,Rx,0,8,4A,71,00,00,04,89,03,B5,
21822121,00000323,false,Rx,0,8,00,00,00,00,00,00,D7,63,
21822374,00000324,false,Rx,0,8,70,44,F2,54,4E,00,00,00,
21822636,0000033B,false,Rx,0,8,64,00,00,5D,00,00,00,00,
21822903,0000033D,false,Rx,0,8,00,00,10,20,00,18,00,00,
21823180,000003A2,false,Rx,0,8,21,61,10,4C,03,FF,00,E0,
21823426,000003A4,false,Rx,0,8,00,00,07,00,01,00,00,00,
21823672,000003B7,false,Rx,0,8,00,00,00,00,00,0E,EB,41,
21823922,00000491,false,Rx,0,8,00,00,00,00,00,00,00,00,
21840145,0000019C,false,Rx,0,8,06,A0,26,00,00,00,00,7F,
21840156,000001F1,false,Rx,0,8,0E,00,00,00,00,00,20,00,
21840162,00000297,false,Rx,0,8,00,03,00,00,00,00,20,00,
21840168,000002A6,false,Rx,0,8,00,00,00,00,00,00,00,00,
21840174,0000033F,false,Rx,0,8,00,00,00,00,28,00,00,48,
21922196,0000039F,false,Rx,0,8,4A,71,00,00,04,89,04,B2,
21922252,00000323,false,Rx,0,8,00,00,00,00,00,00,D7,63,
21922506,00000324,false,Rx,0,8,70,44,FB,54,4E,00,00,00,
21922963,0000033B,false,Rx,0,8,64,00,00,5D,00,00,00,00,
21922980,0000033D,false,Rx,0,8,00,00,10,20,00,18,00,00,
21923222,000003A2,false,Rx,0,8,21,61,10,50,03,FF,00,FC,
21923487,000003A4,false,Rx,0,8,00,00,07,00,01,00,00,00,
21923735,000003B7,false,Rx,0,8,00,00,00,00,00,00,04,41,
21923992,00000491,false,Rx,0,8,00,00,00,00,00,00,00,00,
21940160,0000019C,false,Rx,0,8,06,A0,26,00,00,00,00,7F,
21940176,000001F1,false,Rx,0,8,0E,00,00,00,00,00,20,00,
21940182,00000297,false,Rx,0,8,00,03,00,00,00,00,20,00,
21940188,000002A6,false,Rx,0,8,01,00,00,00,00,00,00,00,
21940194,0000033F,false,Rx,0,8,00,00,00,00,28,00,00,48,
22022295,0000039F,false,Rx,0,8,4A,71,00,00,04,89,05,B3,
22022544,00000323,false,Rx,0,8,00,00,00,00,00,00,C1,51,
22022789,00000324,false,Rx,0,8,70,44,DD,54,4E,00,00,00,
22023046,0000033B,false,Rx,0,8,64,00,00,5D,00,00,00,00,
22023292,0000033D,false,Rx,0,8,00,00,10,20,00,18,00,00,
22023538,000003A2,false,Rx,0,8,21,60,10,54,03,FF,00,F9,
22023782,000003A4,false,Rx,0,8,00,00,07,00,01,00,00,00,
22024040,000003B7,false,Rx,0,8,00,00,00,00,00,01,48,41,
22024286,00000491,false,Rx,0,8,00,00,00,00,00,00,00,00,
22041196,0000019C,false,Rx,0,8,06,A0,26,00,00,00,00,7F,
22041211,000001F1,false,Rx,0,8,0E,00,00,00,00,00,20,00,
22041217,00000297,false,Rx,0,8,00,03,00,00,00,00,20,00,
22041223,000002A6,false,Rx,0,8,01,00,00,00,00,00,00,00,
22041229,0000033F,false,Rx,0,8,00,00,00,00,28,00,00,48,
22122381,0000039F,false,Rx,0,8,4A,71,00,00,04,89,06,B0,
22122629,00000323,false,Rx,0,8,00,00,00,00,00,00,C1,51,
22122878,00000324,false,Rx,0,8,70,44,DD,54,4E,00,00,00,
22123130,0000033B,false,Rx,0,8,64,00,00,5D,00,00,00,00,
22123377,0000033D,false,Rx,0,8,00,00,10,20,00,18,00,00,
22123623,000003A2,false,Rx,0,8,21,60,10,58,03,FF,00,F5,
22123872,000003A4,false,Rx,0,8,00,00,07,00,01,00,00,00,
22124124,000003B7,false,Rx,0,8,00,00,00,00,00,02,9C,41,
22124370,00000491,false,Rx,0,8,00,00,00,00,00,00,00,00,
22139268,0000019C,false,Rx,0,8,06,A0,26,00,00,00,00,7F,
22141036,000001F1,false,Rx,0,8,0E,00,00,00,00,00,20,00,
22141052,00000297,false,Rx,0,8,00,03,00,00,00,00,20,00,
22141058,000002A6,false,Rx,0,8,01,00,00,00,00,00,00,00,
22141064,0000033F,false,Rx,0,8,00,00,00,00,28,00,00,48,
22223023,0000039F,false,Rx,0,8,4A,71,00,00,04,89,07,B1,
22223270,00000323,false,Rx,0,8,00,00,00,00,00,00,C1,51,
22223516,00000324,false,Rx,0,8,70,44,E2,54,4E,00,00,00,
22223763,0000033B,false,Rx,0,8,64,00,00,5D,00,00,00,00,
22224017,0000033D,false,Rx,0,8,00,00,10,20,00,18,00,00,
22224263,000003A2,false,Rx,0,8,21,60,10,5C,03,FF,00,F1,
22224508,000003A4,false,Rx,0,8,00,00,07,00,01,00,00,00,
22224755,000003B7,false,Rx,0,8,00,00,00,00,00,03,D0,41,
22225009,00000491,false,Rx,0,8,00,00,00,00,00,00,00,00,
22239323,0000019C,false,Rx,0,8,06,A0,26,00,00,00,00,7F,
22239569,000001F1,false,Rx,0,8,0E,00,00,00,00,00,20,00,
22239815,00000297,false,Rx,0,8,00,03,00,00,00,00,20,00,
22242043,000002A6,false,Rx,0,8,01,00,00,00,00,00,00,00,
22242058,0000033F,false,Rx,0,8,00,00,00,00,28,00,00,48,
22323390,0000039F,false,Rx,0,8,4A,71,00,00,04,89,08,BE,
22323637,00000323,false,Rx,0,8,00,00,00,00,00,00,C1,51,
22323885,00000324,false,Rx,0,8,70,45,00,54,4E,00,00,00,
22324138,0000033B,false,Rx,0,8,64,00,00,5D,00,00,00,00,
22324384,0000033D,false,Rx,0,8,00,00,10,20,00,18,00,00,
22324630,000003A2,false,Rx,0,8,21,61,10,60,03,FF,00,CC,
22324881,000003A4,false,Rx,0,8,00,00,07,00,01,00,00,00,
22325128,000003B7,false,Rx,0,8,00,00,00,00,00,04,29,41,
22325374,00000491,false,Rx,0,8,00,00,00,00,00,00,00,00,
22339169,0000019C,false,Rx,0,8,06,A0,26,00,00,00,00,7F,
22339416,000001F1,false,Rx,0,8,0E,00,00,00,00,00,20,00,
22339661,00000297,false,Rx,0,8,00,03,00,00,00,00,20,00,
22339909,000002A6,false,Rx,0,8,00,00,00,00,00,00,00,00,
22340162,0000033F,false,Rx,0,8,00,00,00,00,28,00,00,48,
22423677,0000039F,false,Rx,0,8,4A,71,00,00,04,89,09,BF,
22423928,00000323,false,Rx,0,8,00,00,00,00,00,00,C1,51,
22424180,00000324,false,Rx,0,8,70,44,F2,54,4E,00,00,00,
22424426,0000033B,false,Rx,0,8,64,00,00,5D,00,00,00,00,
22424672,0000033D,false,Rx,0,8,00,00,10,20,00,18,00,00,
22424920,000003A2,false,Rx,0,8,21,61,10,64,03,FF,00,C8,
22425173,000003A4,false,Rx,0,8,00,00,07,00,01,00,00,00,
22425420,000003B7,false,Rx,0,8,00,00,00,00,00,05,65,41,
22425666,00000491,false,Rx,0,8,00,00,00,00,00,00,00,00,
22439219,0000019C,false,Rx,0,8,06,A0,26,00,00,00,00,7F,
22439466,000001F1,false,Rx,0,8,0E,00,00,00,00,00,20,00,
22439711,00000297,false,Rx,0,8,00,03,00,00,00,00,20,00,
22439959,000002A6,false,Rx,0,8,01,00,00,00,00,00,00,00,
22440211,0000033F,false,Rx,0,8,00,00,00,00,28,00,00,48,
22523944,0000039F,false,Rx,0,8,4A,71,00,00,04,89,0A,BC,
22524200,00000323,false,Rx,0,8,00,00,00,00,00,00,00,00,
22524446,00000324,false,Rx,0,8,70,44,D9,54,4E,00,00,00,
22524692,0000033B,false,Rx,0,8,64,00,00,5D,00,00,00,00,
22524941,0000033D,false,Rx,0,8,00,00,10,20,00,18,00,00,
22525194,000003A2,false,Rx,0,8,21,60,10,68,03,FF,00,C5,
22525440,000003A4,false,Rx,0,8,00,00,07,00,01,00,00,00,
22525685,000003B7,false,Rx,0,8,00,00,00,00,00,06,B1,41,
22525934,00000491,false,Rx,0,8,00,00,00,00,00,00,00,00,
22539152,0000019C,false,Rx,0,8,06,A0,26,00,00,00,00,7F,
22539398,000001F1,false,Rx,0,8,0E,00,00,00,00,00,20,00,
22539644,00000297,false,Rx,0,8,00,03,00,00,00,00,20,00,
22539890,000002A6,false,Rx,0,8,01,00,00,00,00,00,00,00,
22540143,0000033F,false,Rx,0,8,00,00,00,00,28,00,00,48,
22623863,0000039F,false,Rx,0,8,4A,71,00,00,04,89,0B,BD,
22624118,00000323,false,Rx,0,8,00,00,00,00,00,00,00,00,
22624364,00000324,false,Rx,0,8,70,44,D9,54,4E,00,00,00,
22624611,0000033B,false,Rx,0,8,64,00,00,5D,00,00,00,00,
22624858,0000033D,false,Rx,0,8,00,00,10,E0,00,18,00,00,
22625112,000003A2,false,Rx,0,8,21,60,10,6C,03,FF,00,C1,
22625358,000003A4,false,Rx,0,8,00,00,07,00,01,00,00,00,
22625605,000003B7,false,Rx,0,8,00,00,00,00,00,07,FD,41,
22625851,00000491,false,Rx,0,8,00,00,00,00,00,00,00,00,
22639206,0000019C,false,Rx,0,8,06,A0,26,00,00,00,00,7F,
22639452,000001F1,false,Rx,0,8,0E,00,00,00,00,00,20,00,
22639699,00000297,false,Rx,0,8,00,03,00,00,00,00,20,00,
22639948,000002A6,false,Rx,0,8,01,00,00,00,00,00,00,00,
22640200,0000033F,false,Rx,0,8,00,00,00,00,28,00,00,48,
22724563,0000039F,false,Rx,0,8,4A,71,00,00,04,89,0C,BA,
22724811,00000323,false,Rx,0,8,00,00,00,00,00,00,00,00,
22725066,00000324,false,Rx,0,8,70,44,DD,54,4E,00,00,00,
22725311,0000033B,false,Rx,0,8,64,00,00,5D,00,00,00,00,
22725557,0000033D,false,Rx,0,8,00,00,10,E0,00,18,00,00,
22725803,000003A2,false,Rx,0,8,21,60,10,70,03,FF,00,DD,
22726059,000003A4,false,Rx,0,8,00,00,07,00,01,00,00,00,
22726304,000003B7,false,Rx,0,8,00,00,00,00,00,08,5E,41,
22726551,00000491,false,Rx,0,8,00,00,00,00,00,00,00,00,
22739206,0000019C,false,Rx,0,8,06,A0,26,00,00,00,00,7F,
22739453,000001F1,false,Rx,0,8,0E,00,00,00,00,00,20,00,
22739698,00000297,false,Rx,0,8,00,03,00,00,00,00,20,00,
22739949,000002A6,false,Rx,0,8,01,00,00,00,00,00,00,00,
22740202,0000033F,false,Rx,0,8,00,00,00,00,28,00,00,48,
22824488,0000039F,false,Rx,0,8,4A,71,00,00,04,89,0D,BB,
22824736,00000323,false,Rx,0,8,00,00,00,00,00,00,00,00,
22824991,00000324,false,Rx,0,8,70,44,EC,54,4E,00,00,00,
22825237,0000033B,false,Rx,0,8,64,00,00,5D,00,00,00,00,
22825484,0000033D,false,Rx,0,8,00,00,10,E0,00,18,00,00,
22825730,000003A2,false,Rx,0,8,21,60,10,74,03,FF,00,D9,
22825986,000003A4,false,Rx,0,8,00,00,07,00,01,00,00,00,
22826232,000003B7,false,Rx,0,8,00,00,00,00,00,09,12,41,
22826479,00000491,false,Rx,0,8,00,00,00,00,00,00,00,00,
22839257,0000019C,false,Rx,0,8,06,A0,26,00,00,00,00,7F,
22839502,000001F1,false,Rx,0,8,0E,00,00,00,00,00,20,00,
22839749,00000297,false,Rx,0,8,00,03,00,00,00,00,20,00,
22840002,000002A6,false,Rx,0,8,01,00,00,00,00,00,00,00,
22840249,0000033F,false,Rx,0,8,00,00,00,00,28,00,00,48,
22925083,0000039F,false,Rx,0,8,4A,71,00,00,04,89,0E,B8,
22925332,00000323,false,Rx,0,8,00,00,00,00,00,00,00,00,
22925576,00000324,false,Rx,0,8,70,44,DD,54,4E,00,00,00,
22925823,0000033B,false,Rx,0,8,64,00,00,5D,00,00,00,00,
22926075,0000033D,false,Rx,0,8,00,00,10,E0,00,18,00,00,
22926321,000003A2,false,Rx,0,8,21,60,10,78,03,FF,00,D5,
22926566,000003A4,false,Rx,0,8,00,00,07,00,01,00,00,00,
22926813,000003B7,false,Rx,0,8,00,00,00,00,00,0A,C6,41,
22927065,00000491,false,Rx,0,8,00,00,00,00,00,00,00,00,
22939289,0000019C,false,Rx,0,8,06,A0,26,00,00,00,00,7F,
22939534,000001F1,false,Rx,0,8,0E,00,00,00,00,00,20,00,
22939781,00000297,false,Rx,0,8,00,03,00,00,00,00,20,00,
22940036,000002A6,false,Rx,0,8,01,00,00,00,00,00,00,00,
22940283,0000033F,false,Rx,0,8,00,00,00,00,28,00,00,48,
23025235,0000039F,false,Rx,0,8,4A,71,00,00,04,89,0F,B9,
23025482,00000323,false,Rx,0,8,00,00,00,00,00,00,D8,97,
23025729,00000324,false,Rx,0,8,70,44,D9,54,4E,00,00,00,
23025984,0000033B,false,Rx,0,8,64,00,00,5D,00,00,00,00,
23026228,0000033D,false,Rx,0,8,00,00,10,E0,00,18,00,00,
23026273,000003A2,false,Rx,0,8,21,60,10,7C,03,FF,00,D1,
23026706,000003A4,false,Rx,0,8,00,00,07,00,01,00,00,00,
23026952,000003B7,false,Rx,0,8,00,00,00,00,00,0B,8A,41,
23027205,00000491,false,Rx,0,8,00,00,00,00,00,00,00,00,
23039206,0000019C,false,Rx,0,8,06,A0,26,00,00,00,00,7F,
23039452,000001F1,false,Rx,0,8,0E,00,00,00,00,00,20,00,
23039699,00000297,false,Rx,0,8,00,03,00,00,00,00,20,00,
23039948,000002A6,false,Rx,0,8,01,00,00,00,00,00,00,00,
23040201,0000033F,false,Rx,0,8,00,00,00,00,28,00,00,48,
23125808,0000039F,false,Rx,0,8,4A,71,00,00,04,89,00,B6,
23126057,00000323,false,Rx,0,8,00,00,00,00,00,00,D8,97,
23126310,00000324,false,Rx,0,8,70,44,C9,54,4E,00,00,00,
23126556,0000033B,false,Rx,0,8,64,00,00,5D,00,00,00,00,
23126802,0000033D,false,Rx,0,8,00,00,10,E0,00,18,00,00,
23127058,000003A2,false,Rx,0,8,21,60,10,40,03,FF,00,ED,
23127304,000003A4,false,Rx,0,8,00,00,07,00,01,00,00,00,
23127550,000003B7,false,Rx,0,8,00,00,00,00,00,0C,73,41,
23127796,00000491,false,Rx,0,8,00,00,00,00,00,00,00,00,
23139221,0000019C,false,Rx,0,8,06,A0,26,00,00,00,00,7F,
23139467,000001F1,false,Rx,0,8,0E,00,00,00,00,00,20,00,
23139712,00000297,false,Rx,0,8,00,03,00,00,00,00,20,00,
23139959,000002A6,false,Rx,0,8,01,00,00,00,00,00,00,00,
23140212,0000033F,false,Rx,0,8,00,00,00,00,28,00,00,48,
23226078,0000039F,false,Rx,0,8,4A,71,00,00,04,89,01,B7,
23226359,00000323,false,Rx,0,8,00,00,00,00,00,00,D8,97,
23226369,00000324,false,Rx,0,8,70,44,D9,54,4E,00,00,00,
23226612,0000033B,false,Rx,0,8,64,00,00,5D,00,00,00,00,
23226861,0000033D,false,Rx,0,8,00,00,10,E0,00,18,00,00,
23227115,000003A2,false,Rx,0,8,21,60,10,44,03,FF,00,E9,
23227360,000003A4,false,Rx,0,8,00,00,07,00,01,00,00,00,
23227607,000003B7,false,Rx,0,8,00,00,00,00,00,0D,3F,41,
23227853,00000491,false,Rx,0,8,00,00,00,00,00,00,00,00,
23239289,0000019C,false,Rx,0,8,06,A0,26,00,00,00,00,7F,
23239534,000001F1,false,Rx,0,8,0E,00,00,00,00,00,20,00,
23239781,00000297,false,Rx,0,8,00,03,00,00,00,00,20,00,
23240036,000002A6,false,Rx,0,8,01,00,00,00,00,00,00,00,
23240283,0000033F,false,Rx,0,8,00,00,00,00,28,00,00,48,
23326581,0000039F,false,Rx,0,8,4A,71,00,00,04,89,02,B4,
23326841,00000323,false,Rx,0,8,00,00,00,00,00,00,D8,97,
23327129,00000324,false,Rx,0,8,70,44,D3,54,4E,00,00,00,
23327138,0000033B,false,Rx,0,8,64,00,00,5D,00,00,00,00,
23327381,0000033D,false,Rx,0,8,00,00,10,E0,00,18,00,00,
23327625,000003A2,false,Rx,0,8,21,60,10,48,03,FF,00,E5,
23327877,000003A4,false,Rx,0,8,00,00,07,00,01,00,00,00,
23328151,000003B7,false,Rx,0,8,00,00,00,00,00,0E,EB,41,
23328396,00000491,false,Rx,0,8,00,00,00,00,00,00,00,00,
23339251,0000019C,false,Rx,0,8,06,A0,26,00,00,00,00,7F,
23339498,000001F1,false,Rx,0,8,0E,00,00,00,00,00,20,00,
23339742,00000297,false,Rx,0,8,00,03,00,00,00,00,20,00,
23339998,000002A6,false,Rx,0,8,00,00,00,00,00,00,00,00,
23340242,0000033F,false,Rx,0,8,00,00,00,00,28,00,00,48,
23426751,0000039F,false,Rx,0,8,4A,71,00,00,04,89,03,B5,
23427010,00000323,false,Rx,0,8,00,00,00,00,00,00,D8,97,
23427256,00000324,false,Rx,0,8,70,44,D9,54,4E,00,00,00,
23427502,0000033B,false,Rx,0,8,64,00,00,5D,00,00,00,00,
23427747,0000033D,false,Rx,0,8,00,00,10,E0,00,18,00,00,
23428004,000003A2,false,Rx,0,8,21,60,10,4C,03,FF,00,E1,
23428248,000003A4,false,Rx,0,8,00,00,07,00,01,00,00,00,
23428494,000003B7,false,Rx,0,8,00,00,00,00,00,00,04,41,
23428740,00000491,false,Rx,0,8,00,00,00,00,00,00,00,00,
23439206,0000019C,false,Rx,0,8,06,A0,26,00,00,00,00,7F,
23439452,000001F1,false,Rx,0,8,0E,00,00,00,00,00,20,00,
23439698,00000297,false,Rx,0,8,00,03,00,00,00,00,20,00,
23439948,000002A6,false,Rx,0,8,01,00,00,00,00,00,00,00,
23440201,0000033F,false,Rx,0,8,00,00,00,00,28,00,00,48,
23526872,0000039F,false,Rx,0,8,4A,71,00,00,04,89,04,B2,
23527122,00000323,false,Rx,0,8,00,00,00,00,00,00,D7,63,
23527368,00000324,false,Rx,0,8,70,44,CE,54,4E,00,00,00,
23527613,0000033B,false,Rx,0,8,64,00,00,5D,00,00,00,00,
23527863,0000033D,false,Rx,0,8,00,00,10,E0,00,18,00,00,
23528114,000003A2,false,Rx,0,8,21,60,10,50,03,FF,00,FD,
23528360,000003A4,false,Rx,0,8,00,00,07,00,01,00,00,00,
23528606,000003B7,false,Rx,0,8,00,00,00,00,00,01,48,41,
23528854,00000491,false,Rx,0,8,00,00,00,00,00,00,00,00,
23539125,0000019C,false,Rx,0,8,06,A0,26,00,00,00,00,7F,
23539561,000001F1,false,Rx,0,8,0E,00,00,00,00,00,20,00,
23539808,00000297,false,Rx,0,8,00,03,00,00,00,00,20,00,
23540064,000002A6,false,Rx,0,8,01,00,00,00,00,00,00,00,
23540309,0000033F,false,Rx,0,8,00,00,00,00,28,00,00,48,
23627007,0000039F,false,Rx,0,8,4A,71,00,00,04,89,05,B3,
23627256,00000323,false,Rx,0,8,00,00,00,00,00,00,D7,63,
23627300,00000324,false,Rx,0,8,70,44,C4,54,4E,00,00,00,
23627541,0000033B,false,Rx,0,8,64,00,00,5D,00,00,00,00,
23627788,0000033D,false,Rx,0,8,00,00,10,E0,00,18,00,00,
23628043,000003A2,false,Rx,0,8,21,60,10,54,03,FF,00,F9,
23628289,000003A4,false,Rx,0,8,00,00,07,00,01,00,00,00,
23628535,000003B7,false,Rx,0,8,00,00,00,00,00,02,9C,41,
23628781,00000491,false,Rx,0,8,00,00,00,00,00,00,00,00,
23639244,0000019C,false,Rx,0,8,06,A0,26,00,00,00,00,7F,
23639489,000001F1,false,Rx,0,8,0E,00,00,00,00,00,20,00,
23639736,00000297,false,Rx,0,8,00,03,00,00,00,00,20,00,
23639991,000002A6,false,Rx,0,8,01,00,00,00,00,00,00,00,
23640237,0000033F,false,Rx,0,8,00,00,00,00,28,00,00,48,
23727253,0000039F,false,Rx,0,8,4A,71,00,00,04,89,06,B0,
23727501,00000323,false,Rx,0,8,00,00,00,00,00,00,D7,63,
23727746,00000324,false,Rx,0,8,00,44,DD,54,4E,00,00,00,
23728002,0000033B,false,Rx,0,8,00,00,00,5D,00,00,00,00,
23728247,0000033D,false,Rx,0,8,00,00,10,E0,00,18,00,00,
23728494,000003A2,false,Rx,0,8,21,60,10,58,03,FF,00,F5,
23728740,000003A4,false,Rx,0,8,00,00,07,00,01,00,00,00,
23728994,000003B7,false,Rx,0,8,00,00,00,00,00,03,D0,41,
23729239,00000491,false,Rx,0,8,00,00,00,00,00,00,00,00,
23739219,0000019C,false,Rx,0,8,06,A0,26,00,00,00,00,7F,
23739463,000001F1,false,Rx,0,8,0E,00,00,00,00,00,20,00,
23739709,00000297,false,Rx,0,8,00,03,00,00,00,00,20,00,
23739956,000002A6,false,Rx,0,8,01,00,00,00,00,00,00,00,
23740209,0000033F,false,Rx,0,8,00,00,00,00,28,00,00,48,
23827945,0000039F,false,Rx,0,8,4A,70,00,00,01,89,07,B5,
23828199,00000323,false,Rx,0,8,00,00,00,00,00,00,D7,63,
23828446,00000324,false,Rx,0,8,00,44,DD,54,4E,00,00,00,
23828692,0000033B,false,Rx,0,8,00,00,00,5D,00,00,00,00,
23828940,0000033D,false,Rx,0,8,00,00,10,20,00,18,00,00,
23829193,000003A2,false,Rx,0,8,21,60,10,5C,03,FF,00,F1,
23829440,000003A4,false,Rx,0,8,00,00,03,00,01,00,00,00,
23829686,000003B7,false,Rx,0,8,00,00,00,00,00,04,29,41,
23829933,00000491,false,Rx,0,8,00,00,00,00,00,00,00,00,
23839244,0000019C,false,Rx,0,8,06,A0,26,00,00,00,00,7F,
23839489,000001F1,false,Rx,0,8,0E,00,00,00,00,00,20,00,
23839735,00000297,false,Rx,0,8,00,03,00,00,00,00,20,00,
23839992,000002A6,false,Rx,0,8,00,00,00,00,00,00,00,00,
23840239,0000033F,false,Rx,0,8,00,00,00,00,28,00,00,48,
23928221,0000039F,false,Rx,0,8,4A,6F,00,00,01,89,08,A5,
23928470,00000323,false,Rx,0,8,00,00,00,00,00,00,D7,63,
23928716,00000324,false,Rx,0,8,00,44,DD,54,4E,00,00,00,
23928971,0000033B,false,Rx,0,8,00,00,00,5D,00,00,00,00,
23929218,0000033D,false,Rx,0,8,00,00,10,20,00,18,00,00,
23929463,000003A2,false,Rx,0,8,21,60,10,60,03,FF,00,CD,
23929710,000003A4,false,Rx,0,8,00,00,02,00,01,00,00,00,
23929957,000003B7,false,Rx,0,8,00,00,00,00,00,05,65,41,
23930238,00000491,false,Rx,0,8,00,00,00,00,00,00,00,00,
23939225,0000019C,false,Rx,0,8,06,A0,26,00,00,00,00,7F,
23939471,000001F1,false,Rx,0,8,0E,00,00,00,00,00,20,00,
23939717,00000297,false,Rx,0,8,00,03,00,00,00,00,20,00,
23939972,000002A6,false,Rx,0,8,01,00,00,00,00,00,00,00,
23940219,0000033F,false,Rx,0,8,00,00,00,00,28,00,00,48,
24028561,0000039F,false,Rx,0,8,4A,6C,00,00,00,89,09,A6,
24028808,00000323,false,Rx,0,8,00,00,00,00,00,00,C1,51,
24029063,00000324,false,Rx,0,8,00,44,D9,54,4E,00,00,00,
24029308,0000033B,false,Rx,0,8,00,00,00,5D,00,00,00,00,
24029555,0000033D,false,Rx,0,8,00,00,10,20,00,18,00,00,
24029800,000003A2,false,Rx,0,8,21,60,10,64,03,FF,00,C9,
24030056,000003A4,false,Rx,0,8,00,00,01,00,01,00,00,00,
24030301,000003B7,false,Rx,0,8,00,00,00,00,00,06,B1,41,
24030548,00000491,false,Rx,0,8,00,00,00,00,00,00,00,00,
24039281,0000019C,false,Rx,0,8,06,A0,26,00,00,00,00,7F,
24039527,000001F1,false,Rx,0,8,0E,00,00,00,00,00,20,00,
24039773,00000297,false,Rx,0,8,00,03,00,00,00,00,20,00,
24040027,000002A6,false,Rx,0,8,00,00,00,00,00,00,00,00,
24040273,0000033F,false,Rx,0,8,00,00,00,00,28,00,00,48,
24128882,0000039F,false,Rx,0,8,4A,6B,00,00,00,89,0A,A2,
24129137,00000323,false,Rx,0,8,00,00,00,00,00,00,C1,51,
24129382,00000324,false,Rx,0,8,00,44,D9,54,4E,00,00,00,
24129629,0000033B,false,Rx,0,8,00,00,00,5D,00,00,00,00,
24129877,0000033D,false,Rx,0,8,00,00,10,20,00,18,00,00,
24130130,000003A2,false,Rx,0,8,21,60,10,68,03,FF,00,C5,
