Time Stamp,ID,Extended,Dir,Bus,LEN,D1,D2,D3,D4,D5,D6,D7,D8
-1759383941130621,0000019C,false,Rx,0,8,06,A0,26,A0,7F,FF,0B,7F,
-1759383941130371,000001A9,false,Rx,0,8,00,00,00,00,00,00,00,00,
-1759383941130121,000001AF,false,Rx,0,8,00,00,00,00,00,00,00,00,
-1759383941129877,000001B6,false,Rx,0,8,00,01,00,00,00,00,01,3A,
-1759383941129641,000001C7,false,Rx,0,8,0C,AF,33,51,00,00,00,00,
-1759383941129415,000001E1,false,Rx,0,7,40,C0,00,00,00,00,00,00,
-1759383941129183,000001E5,false,Rx,0,8,46,7F,62,D8,00,80,91,03,
-1759383941128935,000001E9,false,Rx,0,8,00,00,00,08,00,00,00,00,
-1759383941128691,000001F1,false,Rx,0,8,0E,00,00,00,08,74,00,00,
-1759383941128555,000001F2,false,Rx,0,2,20,00,00,00,00,00,00,00,
-1759383941128305,000001FD,false,Rx,0,8,00,00,00,00,00,00,00,00,
-1759383941128067,00000227,false,Rx,0,8,75,30,00,10,8A,CF,80,00,
-1759383941127935,0000022A,false,Rx,0,2,00,70,00,00,00,00,00,00,
-1759383941127691,00000163,false,Rx,0,8,40,05,40,02,08,00,00,00,
-1759383941127437,00000230,false,Rx,0,8,00,00,00,00,00,00,00,00,
-1759383941127189,00000242,false,Rx,0,8,00,00,00,00,00,08,00,00,
-1759383941126942,00000094,false,Rx,0,8,80,00,00,00,00,00,03,00,
-1759383941126690,00000244,false,Rx,0,8,00,00,20,04,00,00,00,00,
-1759383941126442,00000246,false,Rx,0,8,00,00,00,00,00,00,00,00,
-1759383941126196,000002EF,false,Rx,0,8,FE,20,00,00,00,00,00,00,
-1759383948177950,0000030C,false,Rx,0,8,C8,30,00,00,00,00,00,01,
-1759383948177702,00000389,false,Rx,0,8,00,00,00,00,00,14,00,00,
-1759383948177460,0000038B,false,Rx,0,8,1B,00,01,00,00,3C,03,E8,
-1759383948177212,000003A3,false,Rx,0,8,00,00,00,00,00,00,00,00,
-1759383948176968,0000009D,false,Rx,0,8,C0,0C,80,70,00,04,00,00,
-1759383948176022,000000C1,false,Rx,0,8,10,00,00,00,10,00,00,00,
-1759383948175776,000000C5,false,Rx,0,8,10,00,00,00,10,00,00,00,
-1759383948175540,000000AC,false,Rx,0,8,04,70,C8,A8,02,00,00,16,
-1759383948175298,000000AF,false,Rx,0,8,00,00,10,00,00,C1,F4,25,
-1759383948175126,000000C7,false,Rx,0,4,00,00,00,00,00,00,00,00,
-1759383948174874,000000F1,false,Rx,0,8,00,00,00,00,00,00,00,00,
-1759383948174638,000000FB,false,Rx,0,8,11,FF,00,30,AB,CC,05,F5,
-1759383948174398,0000019C,false,Rx,0,8,06,A0,26,A0,7F,FF,0C,7F,
-1759383948174160,000001C7,false,Rx,0,8,0C,AF,73,50,00,02,00,00,
-1759383948173928,000001E5,false,Rx,0,8,46,7F,62,E7,FF,80,90,17,
-1759383948173682,000001FC,false,Rx,0,8,00,44,00,17,00,00,40,00,
-1759383948173472,00000214,false,Rx,0,6,02,00,00,00,00,00,00,00,
-1759383948173220,0000021C,false,Rx,0,8,00,00,00,00,00,00,00,00,
-1759383948172970,0000023D,false,Rx,0,8,00,00,00,00,00,00,00,00,
-1759383948172718,000002F4,false,Rx,0,8,00,00,00,00,00,00,00,00,
-1759383948172472,000002F6,false,Rx,0,8,80,00,00,00,00,02,00,00,
-1759383948172224,000002FD,false,Rx,0,8,7D,00,00,00,00,00,00,00,
-1759383948171972,00000348,false,Rx,0,8,00,00,00,00,00,00,00,00,
-1759383948171722,0000034A,false,Rx,0,8,00,00,00,00,00,00,00,00,
-1759383948171476,0000046A,false,Rx,0,8,01,00,00,00,00,40,00,00,
-1759383948170912,00000297,false,Rx,0,8,00,03,00,00,00,00,20,00,
-1759383948170680,000002A2,false,Rx,0,8,6C,6B,20,00,41,67,00,BB,
-1759383948170438,00000400,false,Rx,0,8,71,26,02,00,00,40,06,00,
-1759383948170188,00000418,false,Rx,0,8,00,00,00,00,00,00,00,80,
-1759383948169944,00000419,false,Rx,0,8,00,00,00,90,00,00,03,79,
-1759383948169141,00000094,false,Rx,0,8,80,00,00,00,00,00,03,00,
-1759383948167069,0000009D,false,Rx,0,8,D0,0D,80,70,00,03,00,00,
-1759383948166001,000000C1,false,Rx,0,8,20,00,00,00,20,00,00,00,
-1759383948165753,000000C5,false,Rx,0,8,20,00,00,00,20,00,00,00,
-1759383948165517,000000AC,false,Rx,0,8,04,70,D8,A8,02,00,00,06,
-1759383948165279,000000AF,false,Rx,0,8,00,00,0C,00,00,D1,F3,2E,
-1759383948165107,000000C7,false,Rx,0,4,00,00,00,00,00,00,00,00,
-1759383948164855,000000F1,false,Rx,0,8,00,00,00,00,00,00,00,00,
-1759383948164617,000000FB,false,Rx,0,8,11,FF,00,30,AB,DB,05,F4,
-1759383948164371,0000014F,false,Rx,0,8,FE,E8,00,00,00,00,00,00,
-1759383948164133,00000165,false,Rx,0,8,00,00,06,A0,E5,74,0C,00,
-1759383948163885,00000166,false,Rx,0,8,00,00,00,00,00,00,00,00,
-1759383948163637,00000167,false,Rx,0,8,0C,10,00,00,00,00,00,00,
-1759383948163441,00000169,false,Rx,0,6,3B,19,60,F7,74,40,00,00,
-1759383948163273,00000185,false,Rx,0,4,00,03,00,02,00,00,00,00,
-1759383948163029,00000194,false,Rx,0,8,0F,0F,00,01,00,00,00,00,
-1759383948162797,00000196,false,Rx,0,8,75,30,75,30,10,00,75,30,
-1759383948162557,0000019C,false,Rx,0,8,06,A0,26,A0,7F,FE,0D,7F,
-1759383948162307,000001A9,false,Rx,0,8,00,00,00,00,00,00,00,00,
-1759383948162057,000001AF,false,Rx,0,8,00,00,00,00,00,00,00,00,
-1759383948161815,000001B6,false,Rx,0,8,00,01,00,00,00,00,02,1D,
-1759383948161579,000001C7,false,Rx,0,8,0C,AF,B3,4F,00,04,00,00,
-1759383948161347,000001E5,false,Rx,0,8,46,7F,62,F8,00,80,8F,22,
-1759383948161099,000001E9,false,Rx,0,8,00,00,00,08,00,00,00,00,
-1759383948160855,000001F1,false,Rx,0,8,0E,00,00,00,08,74,00,00,
-1759383948160719,000001F2,false,Rx,0,2,20,00,00,00,00,00,00,00,
-1759383948160469,000001FD,false,Rx,0,8,00,00,00,00,00,00,00,00,
-1759383948160233,00000227,false,Rx,0,8,75,30,00,20,8A,CF,00,00,
-1759383948160101,0000022A,false,Rx,0,2,00,70,00,00,00,00,00,00,
-1759383948159847,00000230,false,Rx,0,8,00,00,00,00,00,00,00,00,
-1759383948159605,00000163,false,Rx,0,8,41,05,40,02,08,00,00,00,
-1759383948159357,00000242,false,Rx,0,8,00,00,00,00,00,08,00,00,
-1759383948159111,00000094,false,Rx,0,8,80,00,00,00,00,00,03,00,
-1759383948158859,00000244,false,Rx,0,8,00,00,20,04,00,00,00,00,
-1759383948158611,00000246,false,Rx,0,8,00,00,00,00,00,00,00,00,
-1759383948158365,000002E7,false,Rx,0,8,08,00,00,00,00,00,0E,06,
-1759383948157061,0000009D,false,Rx,0,8,E0,0E,80,70,00,02,00,00,
-1759383948156173,000000C1,false,Rx,0,8,30,00,00,00,30,00,00,00,
-1759383948155927,000000C5,false,Rx,0,8,30,00,00,00,30,00,00,00,
-1759383948155675,000000F1,false,Rx,0,8,00,00,00,00,00,00,00,00,
-1759383948155439,000000AC,false,Rx,0,8,04,70,E8,A8,02,00,00,36,
-1759383948155201,000000AF,false,Rx,0,8,00,00,08,00,00,E1,F2,1B,
-1759383948155028,000000C7,false,Rx,0,4,00,00,00,00,00,00,00,00,
-1759383948154790,000000FB,false,Rx,0,8,11,FF,00,30,AB,EA,05,F3,
-1759383948154552,0000019C,false,Rx,0,8,06,A0,26,A0,7F,FE,0E,7F,
-1759383948154314,000001C7,false,Rx,0,8,0C,AF,F3,4E,00,06,00,00,
-1759383948154090,000001E1,false,Rx,0,7,40,BF,01,00,00,00,00,00,
-1759383948153856,000001E5,false,Rx,0,8,46,7F,62,08,00,80,9E,3C,
-1759383948150920,000003A8,false,Rx,0,8,00,00,00,FF,C3,FF,CB,FF,
-1759383948149152,00000094,false,Rx,0,8,80,00,00,00,00,00,03,00,
-1759383948148904,0000039B,false,Rx,0,8,00,00,00,00,00,00,00,00,
-1759383941128693,00000172,false,Rx,1,8,60,41,0A,60,41,0A,00,00,
-1759383941126943,00000094,false,Rx,1,8,7F,FF,4C,00,7F,FF,03,4F,
-1759383941126687,00000099,false,Rx,1,8,A0,89,80,04,00,5D,00,F0,
-1759383941126474,0000014B,false,Rx,1,8,01,90,00,00,00,00,00,00,
-1759383948175658,00000171,false,Rx,1,8,00,30,39,B0,60,83,7A,20,
-1759383948175360,00000088,false,Rx,1,8,00,00,08,00,00,00,00,00,
-1759383948175104,0000008A,false,Rx,1,8,80,00,00,04,00,02,3A,BC,
-1759383948174890,0000008E,false,Rx,1,8,5D,05,04,00,13,88,0A,CD,
-1759383948174634,0000008F,false,Rx,1,8,00,00,00,00,00,00,00,00,
-1759383948174378,000000DF,false,Rx,1,8,00,00,00,00,00,00,08,00,
-1759383948174122,000000FB,false,Rx,1,8,00,00,00,00,00,00,00,00,
-1759383948173909,000003C2,false,Rx,1,8,7F,FF,F2,F8,00,12,05,32,
-1759383948170709,00000295,false,Rx,1,8,F6,3E,00,02,92,4E,63,75,
-1759383948170423,00000299,false,Rx,1,8,63,E7,D0,FF,FF,84,00,00,
-1759383948170210,000002A0,false,Rx,1,8,90,00,00,00,6B,00,00,FB,
-1759383948169954,00000400,false,Rx,1,8,71,26,02,00,00,40,06,00,
-1759383948169698,00000418,false,Rx,1,8,A0,00,00,00,00,00,00,00,
-1759383948168930,00000094,false,Rx,1,8,7F,FF,54,00,7F,FF,03,57,
-1759383948168717,00000099,false,Rx,1,8,A0,8A,80,04,00,5D,00,F3,
-1759383948168461,0000014B,false,Rx,1,8,01,90,00,00,00,00,00,00,
-1759383948165645,00000297,false,Rx,1,8,01,03,E0,40,F4,A9,A2,5D,
-1759383948165389,00000173,false,Rx,1,8,00,00,C4,C8,0D,00,0C,FD,
-1759383948165175,00000088,false,Rx,1,8,00,00,08,00,00,00,00,00,
-1759383948164919,0000008A,false,Rx,1,8,7F,FF,00,04,00,02,3B,BD,
-1759383948164706,0000008E,false,Rx,1,8,5D,05,04,00,13,88,0B,CC,
-1759383948164450,0000008F,false,Rx,1,8,00,00,00,00,00,00,00,00,
-1759383948164194,000000DF,false,Rx,1,8,00,00,00,00,00,00,08,00,
-1759383948163938,000000FB,false,Rx,1,8,00,00,00,00,00,00,00,00,
-1759383948163682,00000194,false,Rx,1,8,00,00,00,01,00,00,00,00,
-1759383948163469,0000029C,false,Rx,1,8,28,D7,04,00,00,DC,57,12,
-1759383948163213,00000196,false,Rx,1,8,00,00,00,00,00,00,00,00,
-1759383948162957,000003C2,false,Rx,1,8,7F,FF,F2,C2,00,12,05,32,
-1759383948162701,0000019F,false,Rx,1,8,00,00,00,00,00,00,00,00,
-1759383948162573,0000041F,false,Rx,1,3,02,70,01,00,00,00,00,00,
-1759383948160653,0000029B,false,Rx,1,8,3B,96,6D,00,FD,10,00,00,
-1759383948160440,00000172,false,Rx,1,8,60,41,0A,60,41,0A,00,00,
-1759383948160184,00000322,false,Rx,1,8,00,00,00,20,00,00,00,00,
-1759383948158904,00000094,false,Rx,1,8,80,00,5C,00,80,00,03,5F,
-1759383948158690,00000099,false,Rx,1,8,A0,8B,80,04,00,5D,00,F2,
-1759383948158434,0000014B,false,Rx,1,8,01,90,00,00,00,00,00,00,
-1759383948155661,00000293,false,Rx,1,8,8E,00,B3,36,01,40,00,00,
-1759383948155405,00000171,false,Rx,1,8,00,30,3D,B0,60,83,7A,24,
-1759383948155149,00000088,false,Rx,1,8,00,00,08,00,00,00,00,00,
-1759383948154936,0000008A,false,Rx,1,8,7F,FF,00,04,00,02,3C,BA,
-1759383948154680,0000008E,false,Rx,1,8,5D,05,04,00,13,88,0C,CB,
-1759383948154424,0000008F,false,Rx,1,8,00,00,00,00,00,00,00,00,
-1759383948154210,000000DF,false,Rx,1,8,00,00,00,00,00,00,08,00,
-1759383948153954,000000FB,false,Rx,1,8,00,00,00,00,00,00,00,00,
-1759383948153698,000003C2,false,Rx,1,8,7F,FF,F2,77,00,12,05,32,
-1759383948153570,0000044C,false,Rx,1,1,01,00,00,00,00,00,00,00,
-1759383948150712,00000295,false,Rx,1,8,06,3E,00,02,92,4E,65,83,
-1759383948150499,000002A2,false,Rx,1,8,6C,00,20,B6,00,67,00,BB,
-1759383948148920,00000692,false,Rx,1,8,28,00,00,00,00,00,00,00,
-1759383948148707,00000094,false,Rx,1,8,7F,FF,64,00,7F,FF,03,67,
-1759383948148451,00000099,false,Rx,1,8,A0,8C,80,04,00,5D,00,F5,
-1759383948148195,0000014B,false,Rx,1,8,01,90,00,00,00,00,00,00,
-1759383948147981,00000396,false,Rx,1,8,3D,6D,4E,28,C0,46,47,47,
-1759383948147725,0000039B,false,Rx,1,8,3D,3B,84,00,00,00,24,A6,
-1759383948147512,000003A6,false,Rx,1,8,00,00,00,00,00,00,00,00,
-1759383948147256,000002B5,false,Rx,1,8,B0,82,32,80,00,00,00,80,
-1759383948147046,0000009D,false,Rx,0,8,F0,0F,80,70,00,01,00,00,
-1759383948146104,000000C1,false,Rx,0,8,00,00,00,00,00,00,00,00,
-1759383948145852,000000C5,false,Rx,0,8,00,00,00,00,00,00,00,00,
-1759383948145614,000000AC,false,Rx,0,8,04,70,F8,A8,02,00,00,26,
-1759383948145372,000000AF,false,Rx,0,8,00,00,04,00,00,F1,F1,04,
-1759383948145200,000000C7,false,Rx,0,4,00,00,00,00,00,00,00,00,
-1759383948144948,000000F1,false,Rx,0,8,00,00,00,00,00,00,00,00,
-1759383948144708,000000FB,false,Rx,0,8,11,FF,00,30,AB,F9,05,F2,
-1759383948144462,0000014F,false,Rx,0,8,FE,F8,00,00,00,00,00,00,
-1759383948144228,00000165,false,Rx,0,8,00,00,06,A0,E5,73,0D,00,
-1759383948143980,00000166,false,Rx,0,8,00,00,00,00,00,00,00,00,
-1759383948143732,00000167,false,Rx,0,8,0C,10,00,00,00,00,00,00,
-1759383948143536,00000169,false,Rx,0,6,3B,19,60,F7,74,40,00,00,
-1759383948143368,00000185,false,Rx,0,4,00,03,00,02,00,00,00,00,
-1759383948143124,00000194,false,Rx,0,8,0F,0F,00,01,00,00,00,00,
-1759383948142892,00000196,false,Rx,0,8,75,30,75,30,10,00,75,30,
-1759383948142648,0000019C,false,Rx,0,8,06,A0,26,A0,7F,FF,0F,7F,
-1759383948142398,000001A9,false,Rx,0,8,00,00,00,00,00,00,00,00,
-1759383948142148,000001AF,false,Rx,0,8,00,00,00,00,00,00,00,00,
-1759383948141903,000001B6,false,Rx,0,8,00,01,00,00,00,00,03,00,
-1759383948141667,000001C7,false,Rx,0,8,0C,AF,33,51,00,08,00,00,
-1759383948141433,000001E5,false,Rx,0,8,46,7F,62,18,00,80,9D,3E,
-1759383948141185,000001E9,false,Rx,0,8,00,00,00,08,00,00,00,00,
-1759383948140941,000001F1,false,Rx,0,8,0E,00,00,00,08,74,00,00,
-1759383948140805,000001F2,false,Rx,0,2,20,00,00,00,00,00,00,00,
-1759383948140555,000001FD,false,Rx,0,8,00,00,00,00,00,00,00,00,
-1759383948140323,00000227,false,Rx,0,8,75,30,00,30,8A,CE,80,00,
-1759383948140191,0000022A,false,Rx,0,2,00,70,00,00,00,00,00,00,
-1759383948139937,00000230,false,Rx,0,8,00,00,00,00,00,00,00,00,
-1759383948139697,00000163,false,Rx,0,8,42,05,40,02,08,00,00,00,
-1759383948139449,00000242,false,Rx,0,8,00,00,00,00,00,08,00,00,
-1759383948139198,00000244,false,Rx,0,8,00,00,20,04,00,00,00,00,
-1759383948138951,00000094,false,Rx,0,8,80,00,00,00,00,00,03,00,
-1759383948138703,00000246,false,Rx,0,8,00,00,00,00,00,00,00,00,
-1759383948138455,0000029B,false,Rx,0,8,00,00,00,00,00,00,00,00,
-1759383948137033,0000009D,false,Rx,0,8,00,00,80,70,00,00,00,00,
-1759383948136188,000000C1,false,Rx,0,8,10,00,00,00,10,00,00,00,
-1759383948135941,000000C5,false,Rx,0,8,10,00,00,00,10,00,00,00,
-1759383948135689,000000F1,false,Rx,0,8,00,00,00,00,00,00,00,00,
-1759383948135453,000000AC,false,Rx,0,8,04,70,08,A8,02,00,00,D6,
-1759383948135205,000000AF,false,Rx,0,8,00,00,00,00,00,00,00,00,
-1759383948135033,000000C7,false,Rx,0,4,00,00,00,00,00,00,00,00,
-1759383948134793,000000FB,false,Rx,0,8,11,FF,00,30,AB,08,06,01,
-1759383948134553,0000019C,false,Rx,0,8,06,A0,26,A0,7F,FE,00,7F,
-1759383948134315,000001C7,false,Rx,0,8,0C,AF,73,50,00,0A,00,00,
-1759383948134085,000001E5,false,Rx,0,8,46,7F,62,28,00,80,9C,4C,
-1759383948133839,000002EF,false,Rx,0,8,FD,30,00,00,00,00,00,00,
-1759383948133275,000003A2,false,Rx,0,8,01,8F,10,60,03,FF,00,02,
-1759383948133040,0000039F,false,Rx,0,8,3C,70,00,B6,11,57,08,B4,
-1759383948132792,000003A4,false,Rx,0,8,00,00,14,00,07,00,00,00,
-1759383948130854,000003AB,false,Rx,0,8,00,00,00,01,73,4C,00,00,
-1759383948129170,00000094,false,Rx,0,8,80,00,00,00,00,00,03,00,
-1759383948127026,0000009D,false,Rx,0,8,10,01,80,70,00,0F,00,00,
-1759383948126132,000000C1,false,Rx,0,8,20,00,00,00,20,00,00,00,
-1759383948125884,000000C5,false,Rx,0,8,20,00,00,00,20,00,00,00,
-1759383948125646,000000AC,false,Rx,0,8,04,70,18,A8,02,00,00,C6,
-1759383948125400,000000AF,false,Rx,0,8,00,00,3C,00,00,11,FF,D2,
-1759383948125228,000000C7,false,Rx,0,4,00,00,00,00,00,00,00,00,
-1759383948124976,000000F1,false,Rx,0,8,00,00,00,00,00,00,00,00,
-1759383948124736,000000FB,false,Rx,0,8,11,FF,00,30,AB,17,06,00,
-1759383948124490,0000014F,false,Rx,0,8,FE,08,00,00,00,00,00,00,
-1759383948124252,00000165,false,Rx,0,8,00,00,06,A0,E5,72,0E,00,
-1759383948124004,00000166,false,Rx,0,8,00,00,00,00,00,00,00,00,
-1759383948123756,00000167,false,Rx,0,8,0C,10,00,00,00,00,00,00,
-1759383948123560,00000169,false,Rx,0,6,3B,19,60,F7,74,40,00,00,
-1759383948123330,0000017D,false,Rx,0,7,20,20,00,00,00,00,00,00,
-1759383948123162,00000185,false,Rx,0,4,00,03,00,02,00,00,00,00,
-1759383948122918,00000194,false,Rx,0,8,0F,0F,00,01,00,00,00,00,
-1759383948122686,00000196,false,Rx,0,8,75,30,75,30,10,00,75,30,
-1759383948122444,0000019C,false,Rx,0,8,06,A0,26,A0,7F,FF,01,7F,
-1759383948122193,000001A9,false,Rx,0,8,00,00,00,00,00,00,00,00,
-1759383948121943,000001AF,false,Rx,0,8,00,00,00,00,00,00,00,00,
-1759383948121701,000001B6,false,Rx,0,8,00,01,00,00,00,00,04,53,
-1759383948121464,000001C7,false,Rx,0,8,0C,AF,B3,4F,00,0C,00,00,
-1759383948121231,000001E1,false,Rx,0,7,40,BE,02,00,00,00,00,00,
-1759383948121000,000001E5,false,Rx,0,8,46,7F,62,38,00,80,9B,3A,
-1759383948120752,000001E9,false,Rx,0,8,00,00,00,08,00,00,00,00,
-1759383948120508,000001F1,false,Rx,0,8,0E,00,00,00,08,74,00,00,
-1759383948120372,000001F2,false,Rx,0,2,20,00,00,00,00,00,00,00,
-1759383948147000,000002B6,false,Rx,1,8,B0,00,00,01,C0,E0,70,E1,
-1759383948146787,000003BF,false,Rx,1,8,28,00,30,00,28,00,30,00,
-1759383948146531,000003DE,false,Rx,1,8,01,F3,01,F4,01,F2,01,F4,
-1759383948146317,000003E2,false,Rx,1,8,1F,B0,18,B2,72,74,69,6A,
-1759383948146061,00000464,false,Rx,1,8,08,00,08,00,00,00,00,00,
-1759383948145805,00000468,false,Rx,1,8,28,00,30,00,28,00,30,00,
-1759383948145592,00000173,false,Rx,1,8,00,00,C4,C8,0D,00,0C,FD,
-1759383948145336,00000088,false,Rx,1,8,00,00,08,00,00,00,00,00,
-1759383948145080,0000008A,false,Rx,1,8,80,00,00,04,00,02,3D,BB,
-1759383948144867,0000008E,false,Rx,1,8,5D,05,04,00,13,88,0D,CA,
-1759383948144611,0000008F,false,Rx,1,8,00,00,00,00,00,00,00,00,
-1759383948144355,000000DF,false,Rx,1,8,00,00,00,00,00,00,08,00,
-1759383948144099,000000FB,false,Rx,1,8,00,00,00,00,00,00,00,00,
-1759383948143843,00000194,false,Rx,1,8,00,00,00,01,00,00,00,00,
-1759383948143630,000003C2,false,Rx,1,8,7F,FF,F2,09,00,12,05,32,
-1759383948143374,00000196,false,Rx,1,8,00,00,00,00,00,00,00,00,
-1759383948143118,00000402,false,Rx,1,8,00,00,00,00,00,05,00,00,
-1759383948142862,0000019F,false,Rx,1,8,00,00,00,00,00,00,00,00,
-1759383948142606,00000469,false,Rx,1,8,28,00,30,00,28,00,30,00,
-1759383948142392,0000046B,false,Rx,1,8,0B,A4,00,F9,05,80,01,47,
-1759383948142136,0000046C,false,Rx,1,8,04,41,00,00,00,00,00,6C,
-1759383948141880,0000046D,false,Rx,1,8,2A,00,2A,00,00,0A,01,02,
-1759383948141667,0000046F,false,Rx,1,8,00,00,00,00,00,20,00,00,
-1759383948140686,000003BA,false,Rx,1,8,03,0B,76,13,00,00,00,00,
-1759383948140472,00000172,false,Rx,1,8,60,41,0A,60,41,0A,00,00,
-1759383948138936,00000094,false,Rx,1,8,80,00,6C,00,80,00,03,6F,
-1759383948138680,00000099,false,Rx,1,8,A0,8D,80,04,00,5D,00,F4,
-1759383948138424,0000014B,false,Rx,1,8,01,90,00,00,00,00,00,00,
-1759383948135651,00000171,false,Rx,1,8,00,30,01,B0,60,83,7A,18,
-1759383948135395,000003AB,false,Rx,1,8,00,01,14,29,73,4C,00,00,
-1759383948135139,00000088,false,Rx,1,8,00,00,08,00,00,00,00,00,
-1759383948134926,0000008A,false,Rx,1,8,7F,FF,00,04,00,02,3E,B8,
-1759383948134670,0000008E,false,Rx,1,8,5D,05,04,00,13,88,0E,C9,
-1759383948134414,0000008F,false,Rx,1,8,00,00,00,00,00,00,00,00,
-1759383948134158,000000DF,false,Rx,1,8,00,00,00,00,00,00,08,00,
-1759383948133945,000000FB,false,Rx,1,8,00,00,00,00,00,00,00,00,
-1759383948133689,000003C2,false,Rx,1,8,7F,FF,F1,E4,00,12,05,32,
-1759383948132921,0000033B,false,Rx,1,8,80,00,00,41,00,00,00,00,
-1759383948132665,00000323,false,Rx,1,8,00,00,00,00,00,01,00,00,
-1759383948132409,00000324,false,Rx,1,8,70,4D,FC,42,48,00,00,44,
-1759383948132195,0000033D,false,Rx,1,8,15,6D,60,20,00,18,1D,40,
-1759383948131939,000003B7,false,Rx,1,8,00,00,00,00,00,08,3D,35,
-1759383948131683,00000491,false,Rx,1,8,15,6D,00,00,00,00,00,00,
-1759383948130659,00000295,false,Rx,1,8,16,3E,00,02,92,4E,63,95,
-1759383948130361,00000393,false,Rx,1,8,00,00,00,00,00,00,00,00,
-1759383948128953,00000094,false,Rx,1,8,80,00,74,00,80,00,03,77,
-1759383948128697,00000099,false,Rx,1,8,A0,8E,80,04,00,5D,00,F7,
-1759383948128483,0000014B,false,Rx,1,8,01,90,00,00,00,00,00,00,
-1759383948125668,00000173,false,Rx,1,8,00,00,C4,C8,0D,00,0C,FD,
-1759383948125412,00000088,false,Rx,1,8,00,00,08,00,00,00,00,00,
-1759383948125198,0000008A,false,Rx,1,8,80,00,00,04,00,02,3F,B9,
-1759383948124942,0000008E,false,Rx,1,8,5D,05,04,00,13,88,0F,C8,
-1759383948124686,0000008F,false,Rx,1,8,00,00,00,00,00,00,00,00,
-1759383948124473,000000DF,false,Rx,1,8,00,00,00,00,00,00,08,00,
-1759383948124217,000000FB,false,Rx,1,8,00,00,00,00,00,00,00,00,
-1759383948123961,00000194,false,Rx,1,8,00,00,00,01,00,00,00,00,
-1759383948123705,00000336,false,Rx,1,8,00,00,00,00,00,00,00,00,
-1759383948123449,00000196,false,Rx,1,8,00,00,00,00,00,00,00,00,
-1759383948123193,0000033F,false,Rx,1,8,57,12,00,DC,28,20,00,48,
-1759383948122937,0000019F,false,Rx,1,8,00,00,00,00,00,00,00,00,
-1759383948122724,00000356,false,Rx,1,8,00,00,00,1E,3E,00,00,00,
-1759383948122468,00000358,false,Rx,1,8,00,00,00,00,00,00,00,00,
-1759383948122254,000003C2,false,Rx,1,8,7F,FF,F2,75,00,12,05,32,
-1759383948121998,000003FC,false,Rx,1,8,1E,3E,00,00,00,00,00,00,
-1759383948120633,00000299,false,Rx,1,8,63,E7,D0,FF,FF,84,00,00,
-1759383948120377,00000172,false,Rx,1,8,60,41,0A,60,41,0A,00,00,
-1759383948120164,000003C0,false,Rx,1,8,57,12,DC,00,00,9D,C0,00,
-1759383948120127,000001FC,false,Rx,0,8,00,44,00,17,00,00,80,00,
-1759383948119877,000001FD,false,Rx,0,8,00,00,00,00,00,00,00,00,
-1759383948119637,00000163,false,Rx,0,8,43,05,40,02,08,00,00,00,
-1759383948119427,00000214,false,Rx,0,6,04,00,00,00,00,00,00,00,
-1759383948119175,0000021C,false,Rx,0,8,00,00,00,00,00,00,00,00,
-1759383948118929,00000094,false,Rx,0,8,80,00,00,00,00,00,03,00,
-1759383948118695,00000227,false,Rx,0,8,75,30,00,40,8A,CE,00,00,
-1759383948118563,0000022A,false,Rx,0,2,00,70,00,00,00,00,00,00,
-1759383948118309,00000230,false,Rx,0,8,00,00,00,00,00,00,00,00,
-1759383948118059,0000023D,false,Rx,0,8,00,00,00,00,00,00,00,00,
-1759383948117811,00000242,false,Rx,0,8,00,00,00,00,00,08,00,00,
-1759383948117559,00000244,false,Rx,0,8,00,00,20,04,00,00,00,00,
-1759383948117311,00000246,false,Rx,0,8,00,00,00,00,00,00,00,00,
-1759383948117067,00000297,false,Rx,0,8,00,03,00,00,00,00,20,00,
-1759383948116825,0000009D,false,Rx,0,8,20,02,80,70,00,0E,00,00,
-1759383948116573,000002F4,false,Rx,0,8,00,00,00,00,00,00,00,00,
-1759383948116327,000002F6,false,Rx,0,8,80,00,00,00,00,02,00,00,
-1759383948116079,000002FD,false,Rx,0,8,7D,00,00,00,00,00,00,00,
-1759383948115827,000000C1,false,Rx,0,8,30,00,00,00,30,00,00,00,
-1759383948115581,000000C5,false,Rx,0,8,30,00,00,00,30,00,00,00,
-1759383948115329,000000F1,false,Rx,0,8,00,00,00,00,00,00,00,00,
-1759383948115093,000000AC,false,Rx,0,8,04,70,28,A8,02,00,00,F6,
-1759383948114853,000000AF,false,Rx,0,8,00,00,38,00,00,21,FE,E7,
-1759383948114681,000000C7,false,Rx,0,4,00,00,00,00,00,00,00,00,
-1759383948114445,000000FB,false,Rx,0,8,11,FF,00,30,AB,26,05,FF,
-1759383948114203,0000019C,false,Rx,0,8,06,A0,26,A0,7F,FF,02,7F,
-1759383948113967,000001C7,false,Rx,0,8,0C,AF,F3,4E,00,0E,00,00,
-1759383948113737,000001E5,false,Rx,0,8,46,7F,62,48,00,80,9A,DC,
-1759383948113497,0000030B,false,Rx,0,8,00,00,00,00,06,38,06,38,
-1759383948113257,00000319,false,Rx,0,8,80,84,00,00,2C,95,00,00,
-1759383948113025,0000031A,false,Rx,0,8,0A,A0,00,17,57,42,90,66,
-1759383948112783,0000031B,false,Rx,0,8,00,00,B6,18,00,00,00,00,
-1759383948112533,0000032E,false,Rx,0,8,00,00,00,00,00,00,00,00,
-1759383948112285,00000336,false,Rx,0,8,00,00,00,00,00,00,00,00,
-1759383948112035,00000343,false,Rx,0,8,00,00,00,00,00,00,00,00,
-1759383948111783,00000348,false,Rx,0,8,00,00,00,00,00,00,00,00,
-1759383948111533,0000034A,false,Rx,0,8,00,00,00,00,00,00,00,00,
-1759383948111283,0000034C,false,Rx,0,8,00,00,00,00,00,00,00,00,
-1759383948111033,0000034F,false,Rx,0,8,00,00,00,00,00,00,00,01,
-1759383948110783,00000353,false,Rx,0,8,00,00,00,00,00,00,00,00,
-1759383948110531,00000361,false,Rx,0,8,00,00,00,00,00,00,00,00,
-1759383948110281,00000364,false,Rx,0,8,00,00,00,00,00,00,00,22,
-1759383948110037,00000372,false,Rx,0,8,00,00,00,00,00,69,00,00,
-1759383948109789,00000373,false,Rx,0,8,00,00,00,00,00,00,00,00,
-1759383948109539,00000376,false,Rx,0,8,00,00,00,00,00,00,00,00,
-1759383948109299,00000379,false,Rx,0,8,64,00,00,6D,00,00,00,00,
-1759383948109053,00000094,false,Rx,0,8,80,00,00,00,00,00,03,00,
-1759383948108807,000002E7,false,Rx,0,8,08,00,00,00,00,00,0F,07,
-1759383948108575,000003AC,false,Rx,0,8,02,92,02,84,06,3E,4E,63,
-1759383948108328,000003FA,false,Rx,0,8,1E,3E,1E,3E,00,00,00,00,
-1759383948108082,0000046A,false,Rx,0,8,01,00,00,00,00,40,00,00,
-1759383948106996,0000009D,false,Rx,0,8,30,03,80,70,00,0D,00,00,
-1759383948106113,000000C1,false,Rx,0,8,00,00,00,00,00,00,00,00,
-1759383948105860,000000C5,false,Rx,0,8,00,00,00,00,00,00,00,00,
-1759383948105608,000000F1,false,Rx,0,8,00,00,00,00,00,00,00,00,
-1759383948105370,000000AC,false,Rx,0,8,04,70,38,A8,02,00,00,E6,
-1759383948105128,000000AF,false,Rx,0,8,00,00,34,00,00,31,FD,F8,
-1759383948104956,000000C7,false,Rx,0,4,00,00,00,00,00,00,00,00,
-1759383948104720,000000FB,false,Rx,0,8,11,FF,00,30,AB,35,05,FE,
-1759383948104476,0000014F,false,Rx,0,8,FE,18,00,00,00,00,00,00,
-1759383948104240,00000165,false,Rx,0,8,00,00,06,A0,E5,71,0F,00,
-1759383948103992,00000166,false,Rx,0,8,00,00,00,00,00,00,00,00,
-1759383948103745,00000167,false,Rx,0,8,0C,10,00,00,00,00,00,00,
-1759383948103549,00000169,false,Rx,0,6,3B,19,60,F7,74,40,00,00,
-1759383948103381,00000185,false,Rx,0,4,00,03,00,02,00,00,00,00,
-1759383948103136,00000194,false,Rx,0,8,0F,0F,00,01,00,00,00,00,
-1759383948102904,00000196,false,Rx,0,8,75,30,75,30,10,00,75,30,
-1759383948102666,0000019C,false,Rx,0,8,06,A0,26,A0,7F,FE,03,7F,
-1759383948102416,000001A9,false,Rx,0,8,00,00,00,00,00,00,00,00,
-1759383948102166,000001AF,false,Rx,0,8,00,00,00,00,00,00,00,00,
-1759383948101924,000001B6,false,Rx,0,8,00,01,00,00,00,00,05,4E,
-1759383948101688,000001C7,false,Rx,0,8,0C,AF,33,51,00,10,00,00,
-1759383948101458,000001E5,false,Rx,0,8,46,7F,62,58,00,80,99,DE,
-1759383948101210,000001E9,false,Rx,0,8,00,00,00,08,00,00,00,00,
-1759383948100966,000001F1,false,Rx,0,8,0E,00,00,00,08,74,00,00,
-1759383948100831,000001F2,false,Rx,0,2,20,00,00,00,00,00,00,00,
-1759383948100581,000001FD,false,Rx,0,8,00,00,00,00,00,00,00,00,
-1759383948100347,00000227,false,Rx,0,8,75,30,00,50,8A,CD,80,00,
-1759383948100215,0000022A,false,Rx,0,2,00,70,00,00,00,00,00,00,
-1759383948099960,00000230,false,Rx,0,8,00,00,00,00,00,00,00,00,
-1759383948099716,00000163,false,Rx,0,8,40,05,40,02,08,00,00,00,
-1759383948099468,00000242,false,Rx,0,8,00,00,00,00,00,08,00,00,
-1759383948099216,00000244,false,Rx,0,8,00,00,20,04,00,00,00,00,
-1759383948098970,00000094,false,Rx,0,8,80,00,00,00,00,00,03,00,
-1759383948098722,00000246,false,Rx,0,8,00,00,00,00,00,00,00,00,
-1759383948096991,0000009D,false,Rx,0,8,40,04,80,70,00,0C,00,00,
-1759383948096096,000000C1,false,Rx,0,8,10,00,00,00,10,00,00,00,
-1759383948095851,000000C5,false,Rx,0,8,10,00,00,00,10,00,00,00,
-1759383948095599,000000F1,false,Rx,0,8,00,00,00,00,00,00,00,00,
-1759383948095362,000000AC,false,Rx,0,8,04,70,48,A8,02,00,00,96,
-1759383948095120,000000AF,false,Rx,0,8,00,00,30,00,00,41,FC,8D,
-1759383948094948,000000C7,false,Rx,0,4,00,00,00,00,00,00,00,00,
-1759383948094712,000000FB,false,Rx,0,8,11,FF,00,30,AB,44,05,FD,
-1759383948094468,0000019C,false,Rx,0,8,06,A0,26,A0,7F,FF,04,7F,
-1759383948094232,000001C7,false,Rx,0,8,0C,AF,73,50,00,12,00,00,
-1759383948094008,000001E1,false,Rx,0,7,40,BD,03,00,00,00,00,00,
-1759383948093778,000001E5,false,Rx,0,8,46,7F,62,68,00,80,98,AC,
-1759383948093530,0000029B,false,Rx,0,8,00,00,00,00,00,00,00,00,
-1759383948090920,00000391,false,Rx,0,8,02,02,B0,00,D0,00,50,00,
-1759383948118926,00000094,false,Rx,1,8,7F,FF,7C,00,7F,FF,03,7F,
-1759383948118670,00000099,false,Rx,1,8,A0,8F,80,04,00,5D,00,F6,
-1759383948118415,0000014B,false,Rx,1,8,01,90,00,00,00,00,00,00,
-1759383948115513,00000297,false,Rx,1,8,01,03,E0,40,F4,A9,A3,5C,
-1759383948115300,00000171,false,Rx,1,8,00,30,05,B0,60,83,7A,1C,
-1759383948115044,00000088,false,Rx,1,8,00,00,08,00,00,00,00,00,
-1759383948114788,0000008A,false,Rx,1,8,80,00,00,04,00,02,30,B6,
-1759383948114575,0000008E,false,Rx,1,8,5D,05,04,00,13,88,00,C7,
-1759383948114319,0000008F,false,Rx,1,8,00,00,00,00,00,00,00,00,
-1759383948114063,000000DF,false,Rx,1,8,00,00,00,00,00,00,08,00,
-1759383948113807,000000FB,false,Rx,1,8,00,00,00,00,00,00,00,00,
-1759383948113593,00000391,false,Rx,1,8,00,02,B0,00,D0,00,50,00,
-1759383948113337,000003C2,false,Rx,1,8,7F,FF,F3,32,00,12,05,32,
-1759383948110649,00000295,false,Rx,1,8,26,3E,00,02,92,4E,68,AE,
-1759383948110436,0000029B,false,Rx,1,8,3B,96,6D,00,FD,10,00,00,
-1759383948110180,00000334,false,Rx,1,8,00,00,00,00,00,00,00,00,
-1759383948108943,00000094,false,Rx,1,8,80,00,04,00,80,00,03,07,
-1759383948108687,00000099,false,Rx,1,8,A0,80,80,04,00,5D,00,F9,
-1759383948108431,0000014B,false,Rx,1,8,01,90,00,00,00,00,00,00,
-1759383948105615,00000293,false,Rx,1,8,8F,00,B3,36,01,40,00,00,
-1759383948105359,00000173,false,Rx,1,8,00,00,C4,C8,0D,00,0C,FD,
-1759383948105103,00000088,false,Rx,1,8,00,00,08,00,00,00,00,00,
-1759383948104890,0000008A,false,Rx,1,8,7F,FF,00,04,00,02,31,B7,
-1759383948104634,0000008E,false,Rx,1,8,5D,05,04,00,13,88,01,C6,
-1759383948104378,0000008F,false,Rx,1,8,00,00,00,00,00,00,00,00,
-1759383948104122,000000DF,false,Rx,1,8,00,00,00,00,00,00,08,00,
-1759383948103908,000000FB,false,Rx,1,8,00,00,00,00,00,00,00,00,
-1759383948103652,00000194,false,Rx,1,8,00,00,00,01,00,00,00,00,
-1759383948103396,000003AC,false,Rx,1,8,00,90,02,84,11,0E,08,00,
-1759383948103140,00000196,false,Rx,1,8,00,00,00,00,00,00,00,00,
-1759383948102927,000003C2,false,Rx,1,8,7F,FF,F2,E7,00,12,05,32,
-1759383948102671,0000019F,false,Rx,1,8,00,00,00,00,00,00,00,00,
-1759383948100623,000003BC,false,Rx,1,8,00,00,00,00,00,00,00,00,
-1759383948100410,00000172,false,Rx,1,8,60,41,0A,60,41,0A,00,00,
-1759383948098917,00000094,false,Rx,1,8,7F,FF,0C,00,7F,FF,03,0F,
-1759383948098703,00000099,false,Rx,1,8,A0,81,80,04,00,5D,00,F8,
-1759383948098447,0000014B,false,Rx,1,8,01,90,00,00,00,00,00,00,
-1759383948095589,000003B8,false,Rx,1,8,00,00,00,00,00,00,00,00,
-1759383948095375,00000171,false,Rx,1,8,00,30,09,B0,60,83,7A,10,
-1759383948095119,00000088,false,Rx,1,8,00,00,08,00,00,00,00,00,
-1759383948094863,0000008A,false,Rx,1,8,80,00,00,04,00,02,32,B4,
-1759383948094650,0000008E,false,Rx,1,8,5D,05,04,00,13,88,02,C5,
-1759383948094394,0000008F,false,Rx,1,8,00,00,00,00,00,00,00,00,
-1759383948094138,000000DF,false,Rx,1,8,00,00,00,00,00,00,08,00,
-1759383948093882,000000FB,false,Rx,1,8,00,00,00,00,00,00,00,00,
-1759383948093669,000003C2,false,Rx,1,8,7F,FF,F2,3E,00,12,05,32,
-1759383948090725,00000295,false,Rx,1,8,36,3E,00,02,92,4E,63,B5,
-1759383948088976,00000094,false,Rx,1,8,7F,FF,14,00,7F,FF,03,17,
-1759383948088720,00000099,false,Rx,1,8,A0,82,80,04,00,5D,00,FB,
-1759383948088464,0000014B,false,Rx,1,8,01,90,00,00,00,00,00,00,
-1759383948089166,00000094,false,Rx,0,8,80,00,00,00,00,00,03,00,
-1759383948086982,0000009D,false,Rx,0,8,50,05,80,70,00,0B,00,00,
-1759383948086040,000000C1,false,Rx,0,8,20,00,00,00,20,00,00,00,
-1759383948085792,000000C5,false,Rx,0,8,20,00,00,00,20,00,00,00,
-1759383948085556,000000AC,false,Rx,0,8,04,70,58,A8,02,00,00,86,
-1759383948085318,000000AF,false,Rx,0,8,00,00,2C,00,00,51,FB,86,
-1759383948085146,000000C7,false,Rx,0,4,00,00,00,00,00,00,00,00,
-1759383948084894,000000F1,false,Rx,0,8,00,00,00,00,00,00,00,00,
-1759383948084658,000000FB,false,Rx,0,8,11,FF,00,30,AB,53,05,FC,
-1759383948084414,0000014F,false,Rx,0,8,FE,28,00,00,00,00,00,00,
-1759383948084170,00000165,false,Rx,0,8,00,00,06,A0,E5,80,00,00,
-1759383948083922,00000166,false,Rx,0,8,00,00,00,00,00,00,00,00,
-1759383948083674,00000167,false,Rx,0,8,0C,10,00,00,00,00,00,00,
-1759383948083478,00000169,false,Rx,0,6,3B,19,60,F7,74,40,00,00,
-1759383948083310,00000185,false,Rx,0,4,00,03,00,02,00,00,00,00,
-1759383948083066,00000194,false,Rx,0,8,0F,0F,00,01,00,00,00,00,
-1759383948082834,00000196,false,Rx,0,8,75,30,75,30,10,00,75,30,
-1759383948082594,0000019C,false,Rx,0,8,06,A0,26,A0,7F,FE,05,7F,
-1759383948082344,000001A9,false,Rx,0,8,00,00,00,00,00,00,00,00,
-1759383948082094,000001AF,false,Rx,0,8,00,00,00,00,00,00,00,00,
-1759383948081852,000001B6,false,Rx,0,8,00,01,00,00,00,00,06,69,
-1759383948081616,000001C7,false,Rx,0,8,0C,AF,B3,4F,00,14,00,00,
-1759383948081384,000001E5,false,Rx,0,8,46,7F,62,78,00,80,97,32,
-1759383948081136,000001E9,false,Rx,0,8,00,00,00,08,00,00,00,00,
-1759383948080892,000001F1,false,Rx,0,8,0E,00,00,00,08,74,00,00,
-1759383948080756,000001F2,false,Rx,0,2,20,00,00,00,00,00,00,00,
-1759383948080506,000001FD,false,Rx,0,8,00,00,00,00,00,00,00,00,
-1759383948080272,00000227,false,Rx,0,8,75,30,00,60,8A,CD,00,00,
-1759383948080140,0000022A,false,Rx,0,2,00,70,00,00,00,00,00,00,
-1759383948079886,00000230,false,Rx,0,8,00,00,00,00,00,00,00,00,
-1759383948079638,00000242,false,Rx,0,8,00,00,00,00,00,08,00,00,
-1759383948079396,00000163,false,Rx,0,8,41,05,40,02,08,00,00,00,
-1759383948079144,00000244,false,Rx,0,8,00,00,20,04,00,00,00,00,
-1759383948078898,00000094,false,Rx,0,8,80,00,00,00,00,00,03,00,
-1759383948078650,00000246,false,Rx,0,8,00,00,00,00,00,00,00,00,
-1759383948078405,000002EF,false,Rx,0,8,FC,40,00,00,00,00,00,00,
-1759383948078159,0000030C,false,Rx,0,8,C8,30,00,00,00,00,00,01,
-1759383948077911,00000389,false,Rx,0,8,00,00,00,00,00,14,00,00,
-1759383948077669,0000038B,false,Rx,0,8,1B,00,01,00,00,3C,03,E8,
-1759383948077421,000003A3,false,Rx,0,8,00,00,00,00,00,00,00,00,
-1759383948076969,0000009D,false,Rx,0,8,60,06,80,70,00,0A,00,00,
-1759383948075917,000000C1,false,Rx,0,8,30,00,00,00,30,00,00,00,
-1759383948075671,000000C5,false,Rx,0,8,30,00,00,00,30,00,00,00,
-1759383948075433,000000AC,false,Rx,0,8,04,70,68,A8,02,00,00,B6,
-1759383948075193,000000AF,false,Rx,0,8,00,00,28,00,00,61,FA,B3,
-1759383948075021,000000C7,false,Rx,0,4,00,00,00,00,00,00,00,00,
-1759383948074769,000000F1,false,Rx,0,8,00,00,00,00,00,00,00,00,
-1759383948074533,000000FB,false,Rx,0,8,11,FF,00,30,AB,62,05,FB,
-1759383948074295,0000019C,false,Rx,0,8,06,A0,26,A0,7F,FE,06,7F,
-1759383948074057,000001C7,false,Rx,0,8,0C,AF,F3,4E,00,16,00,00,
-1759383948073825,000001E5,false,Rx,0,8,46,7F,62,88,00,80,96,E1,
-1759383948073581,000001FC,false,Rx,0,8,00,44,00,17,00,00,C0,00,
-1759383948073371,00000214,false,Rx,0,6,06,00,00,00,00,00,00,00,
-1759383948073119,0000021C,false,Rx,0,8,00,00,00,00,00,00,00,00,
-1759383948072869,0000023D,false,Rx,0,8,00,00,00,00,00,00,00,00,
-1759383948072617,000002F4,false,Rx,0,8,00,00,00,00,00,00,00,00,
-1759383948072371,000002F6,false,Rx,0,8,80,00,00,00,00,02,00,00,
-1759383948072123,000002FD,false,Rx,0,8,7D,00,00,00,00,00,00,00,
-1759383948071871,00000348,false,Rx,0,8,00,00,00,00,00,00,00,00,
-1759383948071621,0000034A,false,Rx,0,8,00,00,00,00,00,00,00,00,
-1759383948071375,0000046A,false,Rx,0,8,01,00,00,00,00,40,00,00,
-1759383948070897,00000297,false,Rx,0,8,00,03,00,00,00,00,20,00,
-1759383948070664,000002A2,false,Rx,0,8,6C,6B,20,00,41,67,00,BB,
-1759383948070422,00000400,false,Rx,0,8,71,26,02,00,00,40,06,00,
-1759383948070172,00000418,false,Rx,0,8,00,00,00,00,00,00,00,80,
-1759383948069928,00000419,false,Rx,0,8,00,00,00,90,00,00,03,6A,
-1759383948069138,00000094,false,Rx,0,8,80,00,00,00,00,00,03,00,
-1759383948066964,0000009D,false,Rx,0,8,70,07,80,70,00,09,00,00,
-1759383948065986,000000C1,false,Rx,0,8,00,00,00,00,00,00,00,00,
-1759383948065734,000000C5,false,Rx,0,8,00,00,00,00,00,00,00,00,
-1759383948065496,000000AC,false,Rx,0,8,04,70,78,A8,02,00,00,A6,
-1759383948065258,000000AF,false,Rx,0,8,00,00,24,00,00,71,F9,AC,
-1759383948065086,000000C7,false,Rx,0,4,00,00,00,00,00,00,00,00,
-1759383948064834,000000F1,false,Rx,0,8,00,00,00,00,00,00,00,00,
-1759383948064598,000000FB,false,Rx,0,8,11,FF,00,30,AB,71,05,FA,
-1759383948064354,0000014F,false,Rx,0,8,FE,38,00,00,00,00,00,00,
-1759383948064114,00000165,false,Rx,0,8,00,00,06,A0,E5,7F,01,00,
-1759383948063866,00000166,false,Rx,0,8,00,00,00,00,00,00,00,00,
-1759383948063618,00000167,false,Rx,0,8,0C,10,00,00,00,00,00,00,
-1759383948063422,00000169,false,Rx,0,6,3B,19,60,F7,74,40,00,00,
-1759383948063250,00000185,false,Rx,0,4,00,04,00,00,00,00,00,00,
-1759383948063006,00000194,false,Rx,0,8,0F,0F,00,01,00,00,00,00,
-1759383948062774,00000196,false,Rx,0,8,75,30,75,30,10,00,75,30,
-1759383948062532,0000019C,false,Rx,0,8,06,A0,26,A0,7F,FF,07,7F,
-1759383948062282,000001A9,false,Rx,0,8,00,00,00,00,00,00,00,00,
-1759383948062032,000001AF,false,Rx,0,8,00,00,00,00,00,00,00,00,
-1759383948061790,000001B6,false,Rx,0,8,00,01,00,00,00,00,07,74,
-1759383948061554,000001C7,false,Rx,0,8,0C,AF,33,51,00,18,00,00,
-1759383948061328,000001E1,false,Rx,0,7,40,C0,00,00,00,00,00,00,
-1759383948061096,000001E5,false,Rx,0,8,46,7F,62,98,00,80,95,E3,
-1759383948060848,000001E9,false,Rx,0,8,00,00,00,08,00,00,00,00,
-1759383948060604,000001F1,false,Rx,0,8,0E,00,00,00,08,74,00,00,
-1759383948060468,000001F2,false,Rx,0,2,20,00,00,00,00,00,00,00,
-1759383948060218,000001FD,false,Rx,0,8,00,00,00,00,00,00,00,00,
-1759383948059986,00000227,false,Rx,0,8,75,30,00,70,8A,CC,80,00,
-1759383948059746,00000163,false,Rx,0,8,42,05,40,02,08,00,00,00,
-1759383948059614,0000022A,false,Rx,0,2,00,70,00,00,00,00,00,00,
-1759383948059360,00000230,false,Rx,0,8,00,00,00,00,00,00,00,00,
-1759383948059112,00000242,false,Rx,0,8,00,00,00,00,00,08,00,00,
-1759383948058866,00000094,false,Rx,0,8,80,00,00,00,00,00,03,00,
-1759383948058614,00000244,false,Rx,0,8,00,00,20,04,00,00,00,00,
-1759383948058366,00000246,false,Rx,0,8,00,00,00,00,00,00,00,00,
-1759383948058120,000002E7,false,Rx,0,8,08,00,00,00,00,00,00,08,
-1759383948056950,0000009D,false,Rx,0,8,80,08,80,70,00,08,00,00,
-1759383948056162,000000C1,false,Rx,0,8,10,00,00,00,10,00,00,00,
-1759383948055916,000000C5,false,Rx,0,8,10,00,00,00,10,00,00,00,
-1759383948055664,000000F1,false,Rx,0,8,00,00,00,00,00,00,00,00,
-1759383948055429,000000AC,false,Rx,0,8,04,70,88,A8,02,00,00,56,
-1759383948055187,000000AF,false,Rx,0,8,00,00,20,00,00,81,F8,59,
-1759383948055015,000000C7,false,Rx,0,4,00,00,00,00,00,00,00,00,
-1759383948054775,000000FB,false,Rx,0,8,11,FF,00,30,AB,80,05,F9,
-1759383948054533,0000019C,false,Rx,0,8,06,A0,26,A0,7F,FF,08,7F,
-1759383948054297,000001C7,false,Rx,0,8,0C,AF,73,50,00,1A,00,00,
-1759383948054067,000001E5,false,Rx,0,8,46,7F,62,A8,00,80,94,91,
-1759383948085690,00000173,false,Rx,1,8,00,00,C4,C8,0D,00,0C,FD,
-1759383948085392,00000088,false,Rx,1,8,00,00,08,00,00,00,00,00,
-1759383948085136,0000008A,false,Rx,1,8,7F,FF,00,04,00,02,33,B5,
-1759383948084922,0000008E,false,Rx,1,8,5D,05,04,00,13,88,03,C4,
-1759383948084666,0000008F,false,Rx,1,8,00,00,00,00,00,00,00,00,
-1759383948084411,000000DF,false,Rx,1,8,00,00,00,00,00,00,08,00,
-1759383948084155,000000FB,false,Rx,1,8,00,00,00,00,00,00,00,00,
-1759383948083941,00000394,false,Rx,1,8,00,35,00,00,10,35,09,19,
-1759383948083685,000003C2,false,Rx,1,8,7F,FF,F2,89,00,12,05,32,
-1759383948083429,00000194,false,Rx,1,8,00,00,00,01,00,00,00,00,
-1759383948083173,00000196,false,Rx,1,8,00,00,00,00,00,00,00,00,
-1759383948082917,0000019F,false,Rx,1,8,00,00,00,00,00,00,00,00,
-1759383948082704,0000039A,false,Rx,1,8,00,35,02,00,AD,80,00,00,
-1759383948080656,00000172,false,Rx,1,8,60,41,0A,60,41,0A,00,00,
-1759383948078907,00000094,false,Rx,1,8,80,00,1C,00,80,00,03,1F,
-1759383948078651,00000099,false,Rx,1,8,A0,83,80,04,00,5D,00,FA,
-1759383948078437,0000014B,false,Rx,1,8,01,90,00,00,00,00,00,00,
-1759383948075622,00000171,false,Rx,1,8,00,30,0D,B0,60,83,7A,14,
-1759383948075323,00000088,false,Rx,1,8,00,00,08,00,00,00,00,00,
-1759383948075110,0000008A,false,Rx,1,8,7F,FF,00,04,00,02,34,B2,
-1759383948074854,0000008E,false,Rx,1,8,5D,05,04,00,13,88,04,C3,
-1759383948074598,0000008F,false,Rx,1,8,00,00,00,00,00,00,00,00,
-1759383948074384,000000DF,false,Rx,1,8,00,00,00,00,00,00,08,00,
-1759383948074128,000000FB,false,Rx,1,8,00,00,00,00,00,00,00,00,
-1759383948073872,000003C2,false,Rx,1,8,7F,FF,F3,3F,00,12,05,32,
-1759383948070715,000003BE,false,Rx,1,8,00,34,09,16,19,55,00,00,
-1759383948070502,00000295,false,Rx,1,8,46,3E,00,02,92,4E,63,C5,
-1759383948070246,00000299,false,Rx,1,8,63,E7,D0,FF,FF,84,00,00,
-1759383948069990,000002A0,false,Rx,1,8,A0,00,00,00,6B,00,00,CB,
-1759383948069776,00000400,false,Rx,1,8,71,26,02,00,00,40,06,00,
-1759383948069520,00000418,false,Rx,1,8,A0,00,00,00,00,00,00,00,
-1759383948068923,00000094,false,Rx,1,8,80,00,24,00,80,00,03,27,
-1759383948068710,00000099,false,Rx,1,8,A0,84,80,04,00,5D,00,FD,
-1759383948068454,0000014B,false,Rx,1,8,01,90,00,00,00,00,00,00,
-1759383948065638,00000297,false,Rx,1,8,01,03,E0,40,F4,A9,A4,5B,
-1759383948065425,00000173,false,Rx,1,8,00,00,C4,C8,0D,00,0C,FD,
-1759383948065169,00000088,false,Rx,1,8,00,00,08,00,00,00,00,00,
-1759383948064913,0000008A,false,Rx,1,8,80,00,00,04,00,02,35,B3,
-1759383948064699,0000008E,false,Rx,1,8,5D,05,04,00,13,88,05,C2,
-1759383948064443,0000008F,false,Rx,1,8,00,00,00,00,00,00,00,00,
-1759383948064187,000000DF,false,Rx,1,8,00,00,00,00,00,00,08,00,
-1759383948063931,000000FB,false,Rx,1,8,00,00,00,00,00,00,00,00,
-1759383948063675,00000194,false,Rx,1,8,00,00,00,01,00,00,00,00,
-1759383948063462,0000029C,false,Rx,1,8,28,D7,04,00,00,DC,57,12,
-1759383948063206,00000196,false,Rx,1,8,00,00,00,00,00,00,00,00,
-1759383948062950,000003C2,false,Rx,1,8,7F,FF,F3,07,00,12,05,32,
-1759383948062737,0000019F,false,Rx,1,8,00,00,00,00,00,00,00,00,
-1759383948060689,0000029B,false,Rx,1,8,3B,96,6D,00,FD,10,00,00,
-1759383948060433,00000172,false,Rx,1,8,60,41,0A,60,41,0A,00,00,
-1759383948060177,00000322,false,Rx,1,8,00,00,00,20,00,00,00,00,
-1759383948058897,00000094,false,Rx,1,8,7F,FF,2C,00,7F,FF,03,2F,
-1759383948058684,00000099,false,Rx,1,8,A0,85,80,04,00,5D,00,FC,
-1759383948058428,0000014B,false,Rx,1,8,01,90,00,00,00,00,00,00,
-1759383948055654,00000293,false,Rx,1,8,8F,00,B3,36,01,40,00,00,
-1759383948055398,00000171,false,Rx,1,8,00,30,11,B0,60,83,7A,08,
-1759383948055142,00000088,false,Rx,1,8,00,00,08,00,00,00,00,00,
-1759383948054929,0000008A,false,Rx,1,8,80,00,00,04,00,02,36,B0,
-1759383948054673,0000008E,false,Rx,1,8,5D,05,04,00,13,88,06,C1,
-1759383948054417,0000008F,false,Rx,1,8,00,00,00,00,00,00,00,00,
-1759383948054161,000000DF,false,Rx,1,8,00,00,00,00,00,00,08,00,
-1759383948053948,000000FB,false,Rx,1,8,00,00,00,00,00,00,00,00,
-1759383948053692,000003C2,false,Rx,1,8,7F,FF,F2,AA,00,12,05,32,
-1759383948053564,0000044C,false,Rx,1,1,01,00,00,00,00,00,00,00,
-1759383948050913,000003A8,false,Rx,0,8,00,00,00,FF,C3,FF,CB,FF,
-1759383948049159,00000094,false,Rx,0,8,80,00,00,00,00,00,03,00,
-1759383948048911,0000039B,false,Rx,0,8,00,00,00,00,00,00,00,00,
-1759383948046945,0000009D,false,Rx,0,8,90,09,80,70,00,07,00,00,
-1759383948046093,000000C1,false,Rx,0,8,20,00,00,00,20,00,00,00,
-1759383948045845,000000C5,false,Rx,0,8,20,00,00,00,20,00,00,00,
-1759383948045611,000000AC,false,Rx,0,8,04,70,98,A8,02,00,00,46,
-1759383948045371,000000AF,false,Rx,0,8,00,00,1C,00,00,91,F7,7A,
-1759383948045199,000000C7,false,Rx,0,4,00,00,00,00,00,00,00,00,
-1759383948044947,000000F1,false,Rx,0,8,00,00,00,00,00,00,00,00,
-1759383948044707,000000FB,false,Rx,0,8,11,FF,00,30,AB,9F,05,F8,
-1759383948044461,0000014F,false,Rx,0,8,FE,48,00,00,00,00,00,00,
-1759383948044221,00000165,false,Rx,0,8,00,00,06,A0,E5,7E,02,00,
-1759383948043973,00000166,false,Rx,0,8,00,00,00,00,00,00,00,00,
-1759383948043725,00000167,false,Rx,0,8,0C,10,00,00,00,00,00,00,
-1759383948043529,00000169,false,Rx,0,6,3B,19,60,F7,74,40,00,00,
-1759383948043357,00000185,false,Rx,0,4,00,04,00,00,00,00,00,00,
-1759383948043113,00000194,false,Rx,0,8,0F,0F,00,01,00,00,00,00,
-1759383948042881,00000196,false,Rx,0,8,75,30,75,30,10,00,75,30,
-1759383948042641,0000019C,false,Rx,0,8,06,A0,26,A0,7F,FE,09,7F,
-1759383948042391,000001A9,false,Rx,0,8,00,00,00,00,00,00,00,00,
-1759383948042141,000001AF,false,Rx,0,8,00,00,00,00,00,00,00,00,
-1759383948041895,000001B6,false,Rx,0,8,00,01,00,00,00,00,08,CF,
-1759383948041653,000001C7,false,Rx,0,8,0C,AF,B3,4F,00,1C,00,00,
-1759383948041421,000001E5,false,Rx,0,8,46,7F,62,B8,00,80,93,E7,
-1759383948041173,000001E9,false,Rx,0,8,00,00,00,08,00,00,00,00,
-1759383948040929,000001F1,false,Rx,0,8,0E,00,00,00,08,74,00,00,
-1759383948040793,000001F2,false,Rx,0,2,20,00,00,00,00,00,00,00,
-1759383948040543,000001FD,false,Rx,0,8,00,00,00,00,00,00,00,00,
-1759383948040309,00000227,false,Rx,0,8,75,30,00,80,8A,CC,00,00,
-1759383948040177,0000022A,false,Rx,0,2,00,70,00,00,00,00,00,00,
-1759383948039923,00000230,false,Rx,0,8,00,00,00,00,00,00,00,00,
-1759383948039683,00000163,false,Rx,0,8,43,05,40,02,08,00,00,00,
-1759383948039435,00000242,false,Rx,0,8,00,00,00,00,00,08,00,00,
-1759383948039183,00000244,false,Rx,0,8,00,00,20,04,00,00,00,00,
-1759383948038937,00000094,false,Rx,0,8,80,00,00,00,00,00,03,00,
-1759383948038689,00000246,false,Rx,0,8,00,00,00,00,00,00,00,00,
-1759383948038441,0000029B,false,Rx,0,8,00,00,00,00,00,00,00,00,
-1759383948036935,0000009D,false,Rx,0,8,A0,0A,80,70,00,06,00,00,
-1759383948036177,000000C1,false,Rx,0,8,30,00,00,00,30,00,00,00,
-1759383948035931,000000C5,false,Rx,0,8,30,00,00,00,30,00,00,00,
-1759383948035679,000000F1,false,Rx,0,8,00,00,00,00,00,00,00,00,
-1759383948035442,000000AC,false,Rx,0,8,04,70,A8,A8,02,00,00,76,
-1759383948035202,000000AF,false,Rx,0,8,00,00,18,00,00,A1,F6,4F,
-1759383948035030,000000C7,false,Rx,0,4,00,00,00,00,00,00,00,00,
-1759383948034794,000000FB,false,Rx,0,8,11,FF,00,30,AB,AE,05,F7,
-1759383948034554,0000019C,false,Rx,0,8,06,A0,26,A0,7F,FF,0A,7F,
-1759383948034318,000001C7,false,Rx,0,8,0C,AF,F3,4E,00,1E,00,00,
-1759383948034094,000001E1,false,Rx,0,7,40,BF,01,00,00,00,00,00,
-1759383948033860,000001E5,false,Rx,0,8,46,7F,62,C8,00,80,92,01,
-1759383948033616,000002EF,false,Rx,0,8,FB,50,00,00,00,00,00,00,
-1759383948033264,000003A2,false,Rx,0,8,01,8F,10,64,03,FF,00,06,
-1759383948033030,0000039F,false,Rx,0,8,3C,70,00,B6,11,57,09,B5,
-1759383948032781,000003A4,false,Rx,0,8,00,00,14,00,07,00,00,00,
-1759383948030835,000003AB,false,Rx,0,8,00,00,00,01,73,4C,00,00,
-1759383948029163,00000094,false,Rx,0,8,80,00,00,00,00,00,03,00,
-1759383948026925,0000009D,false,Rx,0,8,B0,0B,80,70,00,05,00,00,
-1759383948026129,000000C1,false,Rx,0,8,00,00,00,00,00,00,00,00,
-1759383948050705,00000295,false,Rx,1,8,56,3E,00,02,92,4E,65,D3,
-1759383948050492,000002A2,false,Rx,1,8,6C,00,20,B6,00,67,00,BB,
-1759383948048956,00000692,false,Rx,1,8,28,00,00,00,00,00,00,00,
-1759383948048700,00000094,false,Rx,1,8,80,00,34,00,80,00,03,37,
-1759383948048487,00000099,false,Rx,1,8,A0,86,80,04,00,5D,00,FF,
-1759383948048231,0000014B,false,Rx,1,8,01,90,00,00,00,00,00,00,
-1759383948048017,00000396,false,Rx,1,8,3D,6D,4E,28,C0,46,47,47,
-1759383948047761,0000039B,false,Rx,1,8,3D,3B,84,00,00,00,28,AA,
-1759383948047505,000003A6,false,Rx,1,8,00,00,00,00,00,00,00,00,
-1759383948047249,000002B5,false,Rx,1,8,C0,82,32,80,00,00,00,F0,
-1759383948047036,000002B6,false,Rx,1,8,C0,00,00,01,C0,E0,70,91,
-1759383948046780,000003BF,false,Rx,1,8,28,00,30,00,28,00,30,00,
-1759383948046567,000003DE,false,Rx,1,8,01,F3,01,F4,01,F2,01,F4,
-1759383948046311,000003E2,false,Rx,1,8,1F,B0,18,B2,72,74,69,6A,
-1759383948046055,00000464,false,Rx,1,8,08,00,08,00,00,00,00,00,
-1759383948045841,00000468,false,Rx,1,8,28,00,30,00,28,00,30,00,
-1759383948045585,00000173,false,Rx,1,8,00,00,C4,C8,0D,00,0C,FD,
-1759383948045329,00000088,false,Rx,1,8,00,00,08,00,00,00,00,00,
-1759383948045116,0000008A,false,Rx,1,8,7F,FF,00,04,00,02,37,B1,
-1759383948044860,0000008E,false,Rx,1,8,5D,05,04,00,13,88,07,C0,
-1759383948044604,0000008F,false,Rx,1,8,00,00,00,00,00,00,00,00,
-1759383948044348,000000DF,false,Rx,1,8,00,00,00,00,00,00,08,00,
-1759383948044092,000000FB,false,Rx,1,8,00,00,00,00,00,00,00,00,
-1759383948043879,00000194,false,Rx,1,8,00,00,00,01,00,00,00,00,
-1759383948043623,000003C2,false,Rx,1,8,7F,FF,F2,80,00,12,05,32,
-1759383948043367,00000196,false,Rx,1,8,00,00,00,00,00,00,00,00,
-1759383948043111,00000402,false,Rx,1,8,00,00,00,00,00,05,00,00,
-1759383948042897,0000019F,false,Rx,1,8,00,00,00,00,00,00,00,00,
-1759383948042727,0000041F,false,Rx,1,3,02,70,01,00,00,00,00,00,
-1759383948042471,00000469,false,Rx,1,8,28,00,30,00,28,00,30,00,
-1759383948042257,0000046B,false,Rx,1,8,0B,A4,00,F8,05,81,01,47,
-1759383948041959,0000046C,false,Rx,1,8,04,42,00,00,00,00,00,6D,
-1759383948041746,0000046D,false,Rx,1,8,2A,02,2A,02,00,0A,01,02,
-1759383948041490,0000046F,false,Rx,1,8,00,00,00,00,00,20,00,00,
-1759383948040679,000003BA,false,Rx,1,8,03,0B,24,13,00,00,00,00,
-1759383948040423,00000172,false,Rx,1,8,60,41,0A,60,41,0A,00,00,
-1759383948038930,00000094,false,Rx,1,8,7F,FF,3C,00,80,00,03,3F,
-1759383948038674,00000099,false,Rx,1,8,A0,87,80,04,00,5D,00,FE,
-1759383948038418,0000014B,false,Rx,1,8,01,90,00,00,00,00,00,00,
-1759383948035644,00000171,false,Rx,1,8,00,30,15,B0,60,83,7A,0C,
-1759383948035388,000003AB,false,Rx,1,8,00,01,14,29,73,4C,00,00,
-1759383948035132,00000088,false,Rx,1,8,00,00,08,00,00,00,00,00,
-1759383948034919,0000008A,false,Rx,1,8,80,00,00,04,00,02,38,BE,
-1759383948034663,0000008E,false,Rx,1,8,5D,05,04,00,13,88,08,CF,
-1759383948034407,0000008F,false,Rx,1,8,00,00,00,00,00,00,00,00,
-1759383948034151,000000DF,false,Rx,1,8,00,00,00,00,00,00,08,00,
-1759383948033938,000000FB,false,Rx,1,8,00,00,00,00,00,00,00,00,
-1759383948033682,000003C2,false,Rx,1,8,7F,FF,F2,17,00,12,05,32,
-1759383948032914,0000033B,false,Rx,1,8,80,00,00,41,00,00,00,00,
-1759383948032658,00000323,false,Rx,1,8,00,00,00,00,00,01,00,00,
-1759383948032402,00000324,false,Rx,1,8,70,4D,F7,42,48,00,00,44,
-1759383948032189,0000033D,false,Rx,1,8,15,6D,60,20,00,18,1D,40,
-1759383948031933,000003B7,false,Rx,1,8,00,00,00,00,00,09,3C,35,
-1759383948031677,00000491,false,Rx,1,8,15,6D,00,00,00,00,00,00,
-1759383948030653,00000295,false,Rx,1,8,66,3E,00,02,92,4E,63,E5,
-1759383948030397,00000393,false,Rx,1,8,00,00,00,00,00,00,00,00,
-1759383948028946,00000094,false,Rx,1,8,80,00,44,00,80,00,03,47,
-1759383948028733,00000099,false,Rx,1,8,A0,88,80,04,00,5D,00,F1,
-1759383948028477,0000014B,false,Rx,1,8,01,90,00,00,00,00,00,00,
-1759383948025703,00000173,false,Rx,1,8,00,00,C4,C8,0D,00,0C,FD,
-1759383948025877,000000C5,false,Rx,0,8,00,00,00,00,00,00,00,00,
-1759383948025643,000000AC,false,Rx,0,8,04,70,B8,A8,02,00,00,66,
-1759383948025403,000000AF,false,Rx,0,8,00,00,14,00,00,B1,F5,50,
-1759383948025231,000000C7,false,Rx,0,4,00,00,00,00,00,00,00,00,
-1759383948024979,000000F1,false,Rx,0,8,00,00,00,00,00,00,00,00,
-1759383948024743,000000FB,false,Rx,0,8,11,FF,00,30,AB,BD,05,F6,
-1759383948024495,0000014F,false,Rx,0,8,FE,58,00,00,00,00,00,00,
-1759383948024253,00000165,false,Rx,0,8,00,00,06,A0,E5,7D,03,00,
-1759383948024005,00000166,false,Rx,0,8,00,00,00,00,00,00,00,00,
-1759383948023757,00000167,false,Rx,0,8,0C,10,00,00,00,00,00,00,
-1759383948023561,00000169,false,Rx,0,6,3B,19,60,F7,74,40,00,00,
-1759383948023331,0000017D,false,Rx,0,7,20,20,00,00,00,00,00,00,
-1759383948023161,00000185,false,Rx,0,4,00,04,00,02,00,00,00,00,
-1759383948022917,00000194,false,Rx,0,8,0F,0F,00,01,00,00,00,00,
-1759383948022685,00000196,false,Rx,0,8,75,30,75,30,10,00,75,30,
-1759383948022445,0000019C,false,Rx,0,8,06,A0,26,A0,7F,FE,0B,7F,
-1759383948022195,000001A9,false,Rx,0,8,00,00,00,00,00,00,00,00,
-1759383948021945,000001AF,false,Rx,0,8,00,00,00,00,00,00,00,00,
-1759383948021703,000001B6,false,Rx,0,8,00,01,00,00,00,00,09,D2,
-1759383948021467,000001C7,false,Rx,0,8,0C,AF,33,51,00,00,00,00,
-1759383948021235,000001E5,false,Rx,0,8,46,7F,62,D8,00,80,91,03,
-1759383948020987,000001E9,false,Rx,0,8,00,00,00,08,00,00,00,00,
-1759383948020743,000001F1,false,Rx,0,8,0E,00,00,00,08,74,00,00,
-1759383948020607,000001F2,false,Rx,0,2,20,00,00,00,00,00,00,00,
-1759383948020361,000001FC,false,Rx,0,8,00,5B,00,17,00,00,00,00,
-1759383948020111,000001FD,false,Rx,0,8,00,00,00,00,00,00,00,00,
-1759383948019895,00000214,false,Rx,0,6,00,00,00,00,00,00,00,00,
-1759383948019651,00000163,false,Rx,0,8,40,05,40,02,08,00,00,00,
-1759383948019399,0000021C,false,Rx,0,8,00,00,00,00,00,00,00,00,
-1759383948019167,00000227,false,Rx,0,8,75,30,00,90,8A,CB,80,00,
-1759383948018921,00000094,false,Rx,0,8,80,00,00,00,00,00,03,00,
-1759383948018789,0000022A,false,Rx,0,2,00,70,00,00,00,00,00,00,
-1759383948018535,00000230,false,Rx,0,8,00,00,00,00,00,00,00,00,
-1759383948018285,0000023D,false,Rx,0,8,00,00,00,00,00,00,00,00,
-1759383948018037,00000242,false,Rx,0,8,00,00,00,00,00,08,00,00,
-1759383948017785,00000244,false,Rx,0,8,00,00,20,04,00,00,00,00,
-1759383948017537,00000246,false,Rx,0,8,00,00,00,00,00,00,00,00,
-1759383948017293,00000297,false,Rx,0,8,00,03,00,00,00,00,20,00,
-1759383948017041,000002F4,false,Rx,0,8,00,00,00,00,00,00,00,00,
-1759383948016797,0000009D,false,Rx,0,8,C0,0C,80,70,00,04,00,00,
-1759383948016551,000002F6,false,Rx,0,8,80,00,00,00,00,02,00,00,
-1759383948016303,000002FD,false,Rx,0,8,7D,00,00,00,00,00,00,00,
-1759383948016051,000000C1,false,Rx,0,8,10,00,00,00,10,00,00,00,
-1759383948015805,000000C5,false,Rx,0,8,10,00,00,00,10,00,00,00,
-1759383948015553,000000F1,false,Rx,0,8,00,00,00,00,00,00,00,00,
-1759383948015316,000000AC,false,Rx,0,8,04,70,C8,A8,02,00,00,16,
-1759383948015074,000000AF,false,Rx,0,8,00,00,10,00,00,C1,F4,25,
-1759383948014902,000000C7,false,Rx,0,4,00,00,00,00,00,00,00,00,
-1759383948014666,000000FB,false,Rx,0,8,11,FF,00,30,AB,CC,05,F5,
-1759383948014426,0000019C,false,Rx,0,8,06,A0,26,A0,7F,FF,0C,7F,
-1759383948014188,000001C7,false,Rx,0,8,0C,AF,73,50,00,02,00,00,
-1759383948013956,000001E5,false,Rx,0,8,46,7F,62,E8,00,80,90,71,
-1759383948013716,0000030B,false,Rx,0,8,00,00,00,00,06,38,06,38,
-1759383948013476,00000319,false,Rx,0,8,80,84,00,00,2C,95,00,00,
-1759383948013244,0000031A,false,Rx,0,8,0A,A0,00,17,57,42,90,66,
-1759383948013002,0000031B,false,Rx,0,8,00,00,B6,18,00,00,00,00,
-1759383948012752,0000032E,false,Rx,0,8,00,00,00,00,00,00,00,00,
-1759383948012504,00000336,false,Rx,0,8,00,00,00,00,00,00,00,00,
-1759383948012254,00000343,false,Rx,0,8,00,00,00,00,00,00,00,00,
-1759383948012002,00000348,false,Rx,0,8,00,00,00,00,00,00,00,00,
-1759383948011752,0000034A,false,Rx,0,8,00,00,00,00,00,00,00,00,
-1759383948011502,0000034C,false,Rx,0,8,00,00,00,00,00,00,00,00,
-1759383948011252,0000034F,false,Rx,0,8,00,00,00,00,00,00,00,01,
-1759383948011002,00000353,false,Rx,0,8,00,00,00,00,00,00,00,00,
-1759383948010750,00000361,false,Rx,0,8,00,00,00,00,00,00,00,00,
-1759383948010500,00000364,false,Rx,0,8,00,00,00,00,00,00,00,22,
-1759383948010256,00000372,false,Rx,0,8,00,00,00,00,00,69,00,00,
-1759383948010008,00000373,false,Rx,0,8,00,00,00,00,00,00,00,00,
-1759383948009758,00000376,false,Rx,0,8,00,00,00,00,00,00,00,00,
-1759383948009518,00000379,false,Rx,0,8,64,00,00,6D,00,00,00,00,
-1759383948009286,000003AC,false,Rx,0,8,02,92,02,84,06,3E,4E,68,
-1759383948009040,00000094,false,Rx,0,8,80,00,00,00,00,00,03,00,
-1759383948008796,000002E7,false,Rx,0,8,08,00,00,00,00,00,01,09,
-1759383948008550,000003FA,false,Rx,0,8,1E,3E,1E,3E,00,00,00,00,
-1759383948008304,0000046A,false,Rx,0,8,01,00,00,00,00,40,00,00,
-1759383948008052,0000047E,false,Rx,0,8,00,00,00,00,00,00,00,00,
-1759383948007818,00000541,false,Rx,0,8,19,0A,03,0A,29,4B,00,00,
-1759383948006904,0000009D,false,Rx,0,8,D0,0D,80,70,00,03,00,00,
-1759383948006148,000000C1,false,Rx,0,8,20,00,00,00,20,00,00,00,
-1759383948005900,000000C5,false,Rx,0,8,20,00,00,00,20,00,00,00,
-1759383948005648,000000F1,false,Rx,0,8,00,00,00,00,00,00,00,00,
-1759383948005412,000000AC,false,Rx,0,8,04,70,D8,A8,02,00,00,06,
-1759383948005174,000000AF,false,Rx,0,8,00,00,0C,00,00,D1,F3,2E,
-1759383948005002,000000C7,false,Rx,0,4,00,00,00,00,00,00,00,00,
-1759383948004764,000000FB,false,Rx,0,8,11,FF,00,30,AB,DB,05,F4,
-1759383948004520,0000014F,false,Rx,0,8,FE,68,00,00,00,00,00,00,
-1759383948004280,00000165,false,Rx,0,8,00,00,06,A0,E5,7C,04,00,
-1759383948004032,00000166,false,Rx,0,8,00,00,00,00,00,00,00,00,
-1759383948003784,00000167,false,Rx,0,8,0C,10,00,00,00,00,00,00,
-1759383948003588,00000169,false,Rx,0,6,3B,19,60,F7,74,40,00,00,
-1759383948003416,00000185,false,Rx,0,4,00,04,00,03,00,00,00,00,
-1759383948003172,00000194,false,Rx,0,8,0F,0F,00,01,00,00,00,00,
-1759383948002940,00000196,false,Rx,0,8,75,30,75,30,10,00,75,30,
-1759383948002700,0000019C,false,Rx,0,8,06,A0,26,A0,7F,FF,0D,7F,
-1759383948002450,000001A9,false,Rx,0,8,00,00,00,00,00,00,00,00,
-1759383948002200,000001AF,false,Rx,0,8,00,00,00,00,00,00,00,00,
-1759383948001958,000001B6,false,Rx,0,8,00,01,00,00,00,00,0A,F5,
-1759383948001722,000001C7,false,Rx,0,8,0C,AF,B3,4F,00,04,00,00,
-1759383948001498,000001E1,false,Rx,0,7,40,BE,02,00,00,00,00,00,
-1759383948001266,000001E5,false,Rx,0,8,46,7F,62,F8,00,80,8F,22,
-1759383948001018,000001E9,false,Rx,0,8,00,00,00,08,00,00,00,00,
-1759383948000774,000001F1,false,Rx,0,8,0E,00,00,00,08,74,00,00,
-1759383948000638,000001F2,false,Rx,0,2,20,00,00,00,00,00,00,00,
-1759383948000388,000001FD,false,Rx,0,8,00,00,00,00,00,00,00,00,
-1759383948000154,00000227,false,Rx,0,8,75,30,00,A0,8A,CB,00,00,
-1759383948000022,0000022A,false,Rx,0,2,00,70,00,00,00,00,00,00,
-1759383947999768,00000230,false,Rx,0,8,00,00,00,00,00,00,00,00,
-1759383947999526,00000163,false,Rx,0,8,41,05,40,02,08,00,00,00,
-1759383947999278,00000242,false,Rx,0,8,00,00,00,00,00,08,00,00,
-1759383947999032,00000094,false,Rx,0,8,80,00,00,00,00,00,03,00,
-1759383947998780,00000244,false,Rx,0,8,00,00,20,04,00,00,00,00,
-1759383947998532,00000246,false,Rx,0,8,00,00,00,00,00,00,00,00,
-1759383947996896,0000009D,false,Rx,0,8,E0,0E,80,70,00,02,00,00,
-1759383947996094,000000C1,false,Rx,0,8,30,00,00,00,30,00,00,00,
-1759383947995848,000000C5,false,Rx,0,8,30,00,00,00,30,00,00,00,
-1759383947995596,000000F1,false,Rx,0,8,00,00,00,00,00,00,00,00,
-1759383947995360,000000AC,false,Rx,0,8,04,70,E8,A8,02,00,00,36,
-1759383947995121,000000AF,false,Rx,0,8,00,00,08,00,00,E1,F2,1B,
-1759383947994949,000000C7,false,Rx,0,4,00,00,00,00,00,00,00,00,
-1759383948025447,00000088,false,Rx,1,8,00,00,08,00,00,00,00,00,
-1759383948025191,0000008A,false,Rx,1,8,7F,FF,00,04,00,02,39,BF,
-1759383948024978,0000008E,false,Rx,1,8,5D,05,04,00,13,88,09,CE,
-1759383948024722,0000008F,false,Rx,1,8,00,00,00,00,00,00,00,00,
-1759383948024466,000000DF,false,Rx,1,8,00,00,00,00,00,00,08,00,
-1759383948024210,000000FB,false,Rx,1,8,00,00,00,00,00,00,00,00,
-1759383948023954,00000194,false,Rx,1,8,00,00,00,01,00,00,00,00,
-1759383948023698,00000336,false,Rx,1,8,00,00,00,00,00,00,00,00,
-1759383948023442,00000196,false,Rx,1,8,00,00,00,00,00,00,00,00,
-1759383948023229,0000033F,false,Rx,1,8,57,12,00,DC,28,20,00,48,
-1759383948022973,0000019F,false,Rx,1,8,00,00,00,00,00,00,00,00,
-1759383948022717,00000356,false,Rx,1,8,00,00,00,1E,3E,00,00,00,
-1759383948022461,00000358,false,Rx,1,8,00,00,00,00,00,00,00,00,
-1759383948022248,000003C2,false,Rx,1,8,7F,FF,F2,09,00,12,05,32,
-1759383948021992,000003FC,false,Rx,1,8,1E,3E,00,00,00,00,00,00,
-1759383948021736,0000041D,false,Rx,1,8,00,00,00,00,00,00,00,FE,
-1759383948020626,00000299,false,Rx,1,8,63,E7,D0,FF,FF,84,00,00,
-1759383948020370,00000172,false,Rx,1,8,60,41,0A,60,41,0A,00,00,
-1759383948020157,000003C0,false,Rx,1,8,57,12,DC,00,00,AD,80,00,
-1759383948018877,00000094,false,Rx,1,8,80,00,4C,00,80,00,03,4F,
-1759383948018664,00000099,false,Rx,1,8,A0,89,80,04,00,5D,00,F0,
-1759383948018408,0000014B,false,Rx,1,8,01,90,00,00,00,00,00,00,
-1759383948015592,00000297,false,Rx,1,8,01,03,E0,40,F4,A9,A5,5A,
-1759383948015336,00000171,false,Rx,1,8,00,30,19,B0,60,43,7A,C0,
-1759383948015080,00000088,false,Rx,1,8,00,00,08,00,00,00,00,00,
-1759383948014867,0000008A,false,Rx,1,8,80,00,00,04,00,02,3A,BC,
-1759383948014611,0000008E,false,Rx,1,8,5D,05,04,00,13,88,0A,CD,
-1759383948014355,0000008F,false,Rx,1,8,00,00,00,00,00,00,00,00,
-1759383948014099,000000DF,false,Rx,1,8,00,00,00,00,00,00,08,00,
-1759383948013885,000000FB,false,Rx,1,8,00,00,00,00,00,00,00,00,
-1759383948013629,00000391,false,Rx,1,8,00,02,B0,00,D0,00,50,00,
-1759383948013373,000003C2,false,Rx,1,8,7F,FF,F2,BB,00,12,05,32,
-1759383948010643,00000295,false,Rx,1,8,76,3E,00,02,92,4E,65,F3,
-1759383948010387,0000029B,false,Rx,1,8,3B,96,6D,00,FD,10,00,00,
-1759383948010131,00000334,false,Rx,1,8,00,00,00,00,00,00,00,00,
-1759383948008936,00000094,false,Rx,1,8,7F,FF,54,00,7F,FF,03,57,
-1759383948008680,00000099,false,Rx,1,8,A0,8A,80,04,00,5D,00,F3,
-1759383948008424,0000014B,false,Rx,1,8,01,90,00,00,00,00,00,00,
-1759383948005608,00000293,false,Rx,1,8,8F,00,B3,36,01,40,00,00,
-1759383948005352,00000173,false,Rx,1,8,00,00,C4,C8,0D,00,0C,FD,
-1759383948005096,00000088,false,Rx,1,8,00,00,08,00,00,00,00,00,
-1759383948004883,0000008A,false,Rx,1,8,80,00,00,04,00,02,3B,BD,
-1759383948004627,0000008E,false,Rx,1,8,5D,05,04,00,13,88,0B,CC,
-1759383948004371,0000008F,false,Rx,1,8,00,00,00,00,00,00,00,00,
-1759383948004115,000000DF,false,Rx,1,8,00,00,00,00,00,00,08,00,
-1759383948003902,000000FB,false,Rx,1,8,00,00,00,00,00,00,00,00,
-1759383948003646,00000194,false,Rx,1,8,00,00,00,01,00,00,00,00,
-1759383948003390,000003AC,false,Rx,1,8,00,90,02,84,11,0E,08,00,
-1759383948003134,00000196,false,Rx,1,8,00,00,00,00,00,00,00,00,
-1759383948002920,000003C2,false,Rx,1,8,7F,FF,F3,0D,00,12,05,32,
-1759383948002664,0000019F,false,Rx,1,8,00,00,00,00,00,00,00,00,
-1759383948000659,000003BC,false,Rx,1,8,00,00,00,00,00,00,00,00,
-1759383948000403,00000172,false,Rx,1,8,60,41,0A,60,41,0A,00,00,
-1759383947998910,00000094,false,Rx,1,8,80,00,5C,00,80,00,03,5F,
-1759383947998697,00000099,false,Rx,1,8,A0,8B,80,04,00,5D,00,F2,
-1759383947998441,0000014B,false,Rx,1,8,01,90,00,00,00,00,00,00,
-1759383947995582,000003B8,false,Rx,1,8,00,00,00,00,00,00,00,00,
-1759383947995369,00000171,false,Rx,1,8,00,30,1D,B0,60,83,7A,04,
-1759383947995113,00000088,false,Rx,1,8,00,00,08,00,00,00,00,00,
-1759383947994857,0000008A,false,Rx,1,8,7F,FF,00,04,00,02,3C,BA,
-1759383947994643,0000008E,false,Rx,1,8,5D,05,04,00,13,88,0C,CB,
-1759383947994711,000000FB,false,Rx,0,8,11,FF,00,30,AB,EA,05,F3,
-1759383947994473,0000019C,false,Rx,0,8,06,A0,26,A0,7F,FE,0E,7F,
-1759383947994235,000001C7,false,Rx,0,8,0C,AF,F3,4E,00,06,00,00,
-1759383947994001,000001E5,false,Rx,0,8,46,7F,62,08,00,80,9E,3C,
-1759383947993753,0000029B,false,Rx,0,8,00,00,00,00,00,00,00,00,
-1759383947990911,00000391,false,Rx,0,8,02,02,B0,00,D0,00,50,00,
-1759383947989181,00000094,false,Rx,0,8,80,00,00,00,00,00,03,00,
-1759383947986882,0000009D,false,Rx,0,8,F0,0F,80,70,00,01,00,00,
-1759383947986024,000000C1,false,Rx,0,8,00,00,00,00,00,00,00,00,
-1759383947985772,000000C5,false,Rx,0,8,00,00,00,00,00,00,00,00,
-1759383947985534,000000AC,false,Rx,0,8,04,70,F8,A8,02,00,00,26,
-1759383947985292,000000AF,false,Rx,0,8,00,00,04,00,00,F1,F1,04,
-1759383947985120,000000C7,false,Rx,0,4,00,00,00,00,00,00,00,00,
-1759383947984868,000000F1,false,Rx,0,8,00,00,00,00,00,00,00,00,
-1759383947984628,000000FB,false,Rx,0,8,11,FF,00,30,AB,F9,05,F2,
-1759383947984384,0000014F,false,Rx,0,8,FE,78,00,00,00,00,00,00,
-1759383947984148,00000165,false,Rx,0,8,00,00,06,A0,E5,7B,05,00,
-1759383947983900,00000166,false,Rx,0,8,00,00,00,00,00,00,00,00,
-1759383947983652,00000167,false,Rx,0,8,0C,10,00,00,00,00,00,00,
-1759383947983456,00000169,false,Rx,0,6,3B,19,60,F7,74,40,00,00,
-1759383947983284,00000185,false,Rx,0,4,00,04,00,03,00,00,00,00,
-1759383947983040,00000194,false,Rx,0,8,0F,0F,00,01,00,00,00,00,
-1759383947982808,00000196,false,Rx,0,8,75,30,75,30,10,00,75,30,
-1759383947982564,0000019C,false,Rx,0,8,06,A0,26,A0,7F,FF,0F,7F,
-1759383947982314,000001A9,false,Rx,0,8,00,00,00,00,00,00,00,00,
-1759383947982064,000001AF,false,Rx,0,8,00,00,00,00,00,00,00,00,
-1759383947981820,000001B6,false,Rx,0,8,00,01,00,00,00,00,0B,E8,
-1759383947981584,000001C7,false,Rx,0,8,0C,AF,33,51,00,08,00,00,
-1759383947981350,000001E5,false,Rx,0,8,46,7F,62,18,00,80,9D,3E,
-1759383947981102,000001E9,false,Rx,0,8,00,00,00,08,00,00,00,00,
-1759383947980858,000001F1,false,Rx,0,8,0E,00,00,00,08,74,00,00,
-1759383947980722,000001F2,false,Rx,0,2,20,00,00,00,00,00,00,00,
-1759383947980472,000001FD,false,Rx,0,8,00,00,00,00,00,00,00,00,
-1759383947980240,00000227,false,Rx,0,8,75,30,00,B0,8A,CA,80,00,
-1759383947980108,0000022A,false,Rx,0,2,00,70,00,00,00,00,00,00,
-1759383947979854,00000230,false,Rx,0,8,00,00,00,00,00,00,00,00,
-1759383947979614,00000163,false,Rx,0,8,42,05,40,02,08,00,00,00,
-1759383947979366,00000242,false,Rx,0,8,00,00,00,00,00,08,00,00,
-1759383947979120,00000094,false,Rx,0,8,80,00,00,00,00,00,03,00,
-1759383947978868,00000244,false,Rx,0,8,00,00,20,04,00,00,00,00,
-1759383947978620,00000246,false,Rx,0,8,00,00,00,00,00,00,00,00,
-1759383947978374,000002EF,false,Rx,0,8,FA,60,00,00,00,00,00,00,
-1759383947978128,0000030C,false,Rx,0,8,C8,30,00,00,00,00,00,01,
-1759383947977880,00000389,false,Rx,0,8,00,00,00,00,00,14,00,00,
-1759383947977638,0000038B,false,Rx,0,8,1B,00,01,00,00,3C,03,E8,
-1759383947977390,000003A3,false,Rx,0,8,00,00,00,00,00,00,00,00,
-1759383947976868,0000009D,false,Rx,0,8,00,00,80,70,00,00,00,00,
-1759383947975996,000000C1,false,Rx,0,8,10,00,00,00,10,00,00,00,
-1759383947975750,000000C5,false,Rx,0,8,10,00,00,00,10,00,00,00,
-1759383947975514,000000AC,false,Rx,0,8,04,70,08,A8,02,00,00,D6,
-1759383947975266,000000AF,false,Rx,0,8,00,00,00,00,00,00,00,00,
-1759383947975094,000000C7,false,Rx,0,4,00,00,00,00,00,00,00,00,
-1759383947974842,000000F1,false,Rx,0,8,00,00,00,00,00,00,00,00,
-1759383947974602,000000FB,false,Rx,0,8,11,FF,00,30,AB,08,06,01,
-1759383947974355,0000019C,false,Rx,0,8,06,A0,26,A0,7F,FF,00,7F,
-1759383947974117,000001C7,false,Rx,0,8,0C,AF,73,50,00,0A,00,00,
-1759383947973893,000001E1,false,Rx,0,7,40,BD,03,00,00,00,00,00,
-1759383947973663,000001E5,false,Rx,0,8,46,7F,62,28,00,80,9C,4C,
-1759383947973417,000001FC,false,Rx,0,8,00,5B,00,2D,00,00,40,00,
-1759383947973207,00000214,false,Rx,0,6,02,00,00,00,00,00,00,00,
-1759383947972955,0000021C,false,Rx,0,8,00,00,00,00,00,00,00,00,
-1759383947972705,0000023D,false,Rx,0,8,00,00,00,00,00,00,00,00,
-1759383947972453,000002F4,false,Rx,0,8,00,00,00,00,00,00,00,00,
-1759383947972207,000002F6,false,Rx,0,8,80,00,00,00,00,02,00,00,
-1759383947971959,000002FD,false,Rx,0,8,7D,00,00,00,00,00,00,00,
-1759383947971707,00000348,false,Rx,0,8,00,00,00,00,00,00,00,00,
-1759383947971457,0000034A,false,Rx,0,8,00,00,00,00,00,00,00,00,
-1759383947971209,000003F1,false,Rx,0,8,00,00,00,00,00,00,08,64,
-1759383947970963,0000046A,false,Rx,0,8,01,00,00,00,00,40,00,00,
-1759383947970719,00000297,false,Rx,0,8,00,03,00,00,00,00,20,00,
-1759383947970487,000002A2,false,Rx,0,8,6C,6B,20,00,41,67,00,BB,
-1759383947970245,00000400,false,Rx,0,8,71,26,02,00,00,40,06,00,
-1759383947969995,00000418,false,Rx,0,8,00,00,00,00,00,00,00,80,
-1759383947969749,00000419,false,Rx,0,8,00,00,00,90,00,00,03,5B,
-1759383947969113,00000094,false,Rx,0,8,80,00,00,00,00,00,03,00,
-1759383947966861,0000009D,false,Rx,0,8,10,01,80,70,00,0F,00,00,
-1759383947965983,000000C1,false,Rx,0,8,20,00,00,00,20,00,00,00,
-1759383947965735,000000C5,false,Rx,0,8,20,00,00,00,20,00,00,00,
-1759383947965497,000000AC,false,Rx,0,8,04,70,18,A8,02,00,00,C6,
-1759383947965251,000000AF,false,Rx,0,8,00,00,3C,00,00,11,FF,D2,
-1759383947965079,000000C7,false,Rx,0,4,00,00,00,00,00,00,00,00,
-1759383947964827,000000F1,false,Rx,0,8,00,00,00,00,00,00,00,00,
-1759383947964587,000000FB,false,Rx,0,8,11,FF,00,30,AB,17,06,00,
-1759383947964343,0000014F,false,Rx,0,8,FE,88,00,00,00,00,00,00,
-1759383947964105,00000165,false,Rx,0,8,00,00,06,A0,E5,7A,06,00,
-1759383947963857,00000166,false,Rx,0,8,00,00,00,00,00,00,00,00,
-1759383947963609,00000167,false,Rx,0,8,0C,10,00,00,00,00,00,00,
-1759383947963413,00000169,false,Rx,0,6,3B,19,60,F7,74,40,00,00,
-1759383947963243,00000185,false,Rx,0,4,00,04,00,05,00,00,00,00,
-1759383947962999,00000194,false,Rx,0,8,0F,0F,00,01,00,00,00,00,
-1759383947962767,00000196,false,Rx,0,8,75,30,75,30,10,00,75,30,
-1759383947962529,0000019C,false,Rx,0,8,06,A0,26,A0,7F,FE,01,7F,
-1759383947994387,0000008F,false,Rx,1,8,00,00,00,00,00,00,00,00,
-1759383947994131,000000DF,false,Rx,1,8,00,00,00,00,00,00,08,00,
-1759383947993875,000000FB,false,Rx,1,8,00,00,00,00,00,00,00,00,
-1759383947993662,000003C2,false,Rx,1,8,7F,FF,F2,8C,00,12,05,32,
-1759383947990718,00000295,false,Rx,1,8,86,3E,00,02,92,4E,65,03,
-1759383947988969,00000094,false,Rx,1,8,80,00,64,00,80,00,03,67,
-1759383947988756,00000099,false,Rx,1,8,A0,8C,80,04,00,5D,00,F5,
-1759383947988500,0000014B,false,Rx,1,8,01,90,00,00,00,00,00,00,
-1759383947985684,00000173,false,Rx,1,8,00,00,C4,C8,0D,00,0C,FD,
-1759383947985385,00000088,false,Rx,1,8,00,00,08,00,00,00,00,00,
-1759383947985129,0000008A,false,Rx,1,8,80,00,00,04,00,02,3D,BB,
-1759383947984916,0000008E,false,Rx,1,8,5D,05,04,00,13,88,0D,CA,
-1759383947984660,0000008F,false,Rx,1,8,00,00,00,00,00,00,00,00,
-1759383947984446,000000DF,false,Rx,1,8,00,00,00,00,00,00,08,00,
-1759383947984190,000000FB,false,Rx,1,8,00,00,00,00,00,00,00,00,
-1759383947983934,00000394,false,Rx,1,8,00,35,00,00,10,35,0A,1A,
-1759383947983721,000003C2,false,Rx,1,8,7F,FF,F2,9B,00,12,05,32,
-1759383947983422,00000194,false,Rx,1,8,00,00,00,01,00,00,00,00,
-1759383947983209,00000196,false,Rx,1,8,00,00,00,00,00,00,00,00,
-1759383947982953,0000019F,false,Rx,1,8,00,00,00,00,00,00,00,00,
-1759383947982697,0000039A,false,Rx,1,8,00,35,02,00,BD,40,00,00,
-1759383947980649,00000172,false,Rx,1,8,60,41,0A,60,41,0A,00,00,
-1759383947978900,00000094,false,Rx,1,8,7F,FF,6C,00,80,00,03,6F,
-1759383947978687,00000099,false,Rx,1,8,A0,8D,80,04,00,5D,00,F4,
-1759383947978431,0000014B,false,Rx,1,8,01,90,00,00,00,00,00,00,
-1759383947975615,00000171,false,Rx,1,8,00,30,21,B0,60,83,7A,38,
-1759383947975359,00000088,false,Rx,1,8,00,00,08,00,00,00,00,00,
-1759383947975103,0000008A,false,Rx,1,8,80,00,00,04,00,02,3E,B8,
-1759383947974889,0000008E,false,Rx,1,8,5D,05,04,00,13,88,0E,C9,
-1759383947974633,0000008F,false,Rx,1,8,00,00,00,00,00,00,00,00,
-1759383947974377,000000DF,false,Rx,1,8,00,00,00,00,00,00,08,00,
-1759383947974121,000000FB,false,Rx,1,8,00,00,00,00,00,00,00,00,
-1759383947973908,000003C2,false,Rx,1,8,7F,FF,F3,4F,00,12,05,32,
-1759383947970708,00000295,false,Rx,1,8,96,3E,00,02,92,4E,63,15,
-1759383947970452,00000299,false,Rx,1,8,63,E7,D0,FF,FF,84,00,00,
-1759383947970196,000002A0,false,Rx,1,8,B0,00,00,00,6B,00,00,DB,
-1759383947969983,00000400,false,Rx,1,8,71,26,02,00,00,40,06,00,
-1759383947969727,00000418,false,Rx,1,8,A0,00,00,00,00,00,00,00,
-1759383947968916,00000094,false,Rx,1,8,80,00,74,00,80,00,03,77,
-1759383947968660,00000099,false,Rx,1,8,A0,8E,80,04,00,5D,00,F7,
-1759383947968447,0000014B,false,Rx,1,8,01,90,00,00,00,00,00,00,
-1759383947965631,00000297,false,Rx,1,8,01,03,E0,40,F4,A9,A6,59,
-1759383947965375,00000173,false,Rx,1,8,00,00,C4,C8,0D,00,0C,FD,
-1759383947965119,00000088,false,Rx,1,8,00,00,08,00,00,00,00,00,
-1759383947964906,0000008A,false,Rx,1,8,7F,FF,00,04,00,02,3F,B9,
-1759383947964650,0000008E,false,Rx,1,8,5D,05,04,00,13,88,0F,C8,
-1759383947964394,0000008F,false,Rx,1,8,00,00,00,00,00,00,00,00,
-1759383947964138,000000DF,false,Rx,1,8,00,00,00,00,00,00,08,00,
-1759383947963925,000000FB,false,Rx,1,8,00,00,00,00,00,00,00,00,
-1759383947963669,00000194,false,Rx,1,8,00,00,00,01,00,00,00,00,
-1759383947963413,0000029C,false,Rx,1,8,28,D7,04,00,00,DC,57,12,
-1759383947963157,00000196,false,Rx,1,8,00,00,00,00,00,00,00,00,
-1759383947962943,000003C2,false,Rx,1,8,7F,FF,F3,B6,00,12,05,32,
-1759383947962687,0000019F,false,Rx,1,8,00,00,00,00,00,00,00,00,
-1759383947962279,000001A9,false,Rx,0,8,00,00,00,00,00,00,00,00,
-1759383947962029,000001AF,false,Rx,0,8,00,00,00,00,00,00,00,00,
-1759383947961785,000001B6,false,Rx,0,8,00,01,00,00,00,00,0C,BB,
-1759383947961547,000001C7,false,Rx,0,8,0C,AF,B3,4F,00,0C,00,00,
-1759383947961317,000001E5,false,Rx,0,8,46,7F,62,38,00,80,9B,3A,
-1759383947961069,000001E9,false,Rx,0,8,00,00,00,08,00,00,00,00,
-1759383947960825,000001F1,false,Rx,0,8,0E,00,00,00,08,74,00,00,
-1759383947960689,000001F2,false,Rx,0,2,20,00,00,00,00,00,00,00,
-1759383947960439,000001FD,false,Rx,0,8,00,00,00,00,00,00,00,00,
-1759383947960203,00000227,false,Rx,0,8,75,30,00,C0,8A,CA,00,00,
-1759383947960071,0000022A,false,Rx,0,2,00,70,00,00,00,00,00,00,
-1759383947959817,00000230,false,Rx,0,8,00,00,00,00,00,00,00,00,
-1759383947959577,00000163,false,Rx,0,8,43,05,40,02,08,00,00,00,
-1759383947959329,00000242,false,Rx,0,8,00,00,00,00,00,08,00,00,
-1759383947959083,00000094,false,Rx,0,8,80,00,00,00,00,00,03,00,
-1759383947958831,00000244,false,Rx,0,8,00,00,20,04,00,00,00,00,
-1759383947958583,00000246,false,Rx,0,8,00,00,00,00,00,00,00,00,
-1759383947958339,000002E7,false,Rx,0,8,08,00,00,00,00,00,02,0A,
-1759383947956853,0000009D,false,Rx,0,8,20,02,80,70,00,0E,00,00,
-1759383947956161,000000C1,false,Rx,0,8,30,00,00,00,30,00,00,00,
-1759383947955915,000000C5,false,Rx,0,8,30,00,00,00,30,00,00,00,
-1759383947955663,000000F1,false,Rx,0,8,00,00,00,00,00,00,00,00,
-1759383947955427,000000AC,false,Rx,0,8,04,70,28,A8,02,00,00,F6,
-1759383947955187,000000AF,false,Rx,0,8,00,00,38,00,00,21,FE,E7,
-1759383947955015,000000C7,false,Rx,0,4,00,00,00,00,00,00,00,00,
-1759383947954778,000000FB,false,Rx,0,8,11,FF,00,30,AB,26,05,FF,
-1759383947954536,0000019C,false,Rx,0,8,06,A0,26,A0,7F,FF,02,7F,
-1759383947954300,000001C7,false,Rx,0,8,0C,AF,F3,4E,00,0E,00,00,
-1759383947954070,000001E5,false,Rx,0,8,46,7F,62,48,00,80,9A,DC,
-1759383947950912,000003A8,false,Rx,0,8,00,00,00,FF,C3,FF,CB,FF,
-1759383947949156,00000094,false,Rx,0,8,80,00,00,00,00,00,03,00,
-1759383947948908,0000039B,false,Rx,0,8,00,00,00,00,00,00,00,00,
-1759383947946840,0000009D,false,Rx,0,8,30,03,80,70,00,0D,00,00,
-1759383947946086,000000C1,false,Rx,0,8,00,00,00,00,00,00,00,00,
-1759383947945834,000000C5,false,Rx,0,8,00,00,00,00,00,00,00,00,
-1759383947945596,000000AC,false,Rx,0,8,04,70,38,A8,02,00,00,E6,
-1759383947945354,000000AF,false,Rx,0,8,00,00,34,00,00,31,FD,F8,
-1759383947945182,000000C7,false,Rx,0,4,00,00,00,00,00,00,00,00,
-1759383947944930,000000F1,false,Rx,0,8,00,00,00,00,00,00,00,00,
-1759383947944694,000000FB,false,Rx,0,8,11,FF,00,30,AB,35,05,FE,
-1759383947944450,0000014F,false,Rx,0,8,FE,98,00,00,00,00,00,00,
-1759383947944210,00000165,false,Rx,0,8,00,00,06,A0,E5,79,07,00,
-1759383947943962,00000166,false,Rx,0,8,00,00,00,00,00,00,00,00,
-1759383947943714,00000167,false,Rx,0,8,0C,10,00,00,00,00,00,00,
-1759383947943518,00000169,false,Rx,0,6,3B,19,60,F7,74,40,00,00,
-1759383947943348,00000185,false,Rx,0,4,00,04,00,05,00,00,00,00,
-1759383947943104,00000194,false,Rx,0,8,0F,0F,00,01,00,00,00,00,
-1759383947942872,00000196,false,Rx,0,8,75,30,75,30,10,00,75,30,
-1759383947942634,0000019C,false,Rx,0,8,06,A0,26,A0,7F,FE,03,7F,
-1759383947942384,000001A9,false,Rx,0,8,00,00,00,00,00,00,00,00,
-1759383947942134,000001AF,false,Rx,0,8,00,00,00,00,00,00,00,00,
-1759383947941890,000001B6,false,Rx,0,8,00,01,00,00,00,00,0D,A6,
-1759383947941654,000001C7,false,Rx,0,8,0C,AF,33,51,00,10,00,00,
-1759383947941428,000001E1,false,Rx,0,7,40,C0,00,00,00,00,00,00,
-1759383947941198,000001E5,false,Rx,0,8,46,7F,62,58,00,80,99,DE,
-1759383947940950,000001E9,false,Rx,0,8,00,00,00,08,00,00,00,00,
-1759383947940706,000001F1,false,Rx,0,8,0E,00,00,00,08,74,00,00,
-1759383947940570,000001F2,false,Rx,0,2,20,00,00,00,00,00,00,00,
-1759383947940320,000001FD,false,Rx,0,8,00,00,00,00,00,00,00,00,
-1759383947940086,00000227,false,Rx,0,8,75,30,00,D0,8A,C9,80,00,
-1759383947939954,0000022A,false,Rx,0,2,00,70,00,00,00,00,00,00,
-1759383947939710,00000163,false,Rx,0,8,40,05,40,02,08,00,00,00,
-1759383947939456,00000230,false,Rx,0,8,00,00,00,00,00,00,00,00,
-1759383947939208,00000242,false,Rx,0,8,00,00,00,00,00,08,00,00,
-1759383947938962,00000094,false,Rx,0,8,80,00,00,00,00,00,03,00,
-1759383947938710,00000244,false,Rx,0,8,00,00,20,04,00,00,00,00,
-1759383947938462,00000246,false,Rx,0,8,00,00,00,00,00,00,00,00,
-1759383947938214,0000029B,false,Rx,0,8,00,00,00,00,00,00,00,00,
-1759383947936834,0000009D,false,Rx,0,8,40,04,80,70,00,0C,00,00,
-1759383947936130,000000C1,false,Rx,0,8,10,00,00,00,10,00,00,00,
-1759383947935884,000000C5,false,Rx,0,8,10,00,00,00,10,00,00,00,
-1759383947935632,000000F1,false,Rx,0,8,00,00,00,00,00,00,00,00,
-1759383947935396,000000AC,false,Rx,0,8,04,70,48,A8,02,00,00,96,
-1759383947935154,000000AF,false,Rx,0,8,00,00,30,00,00,41,FC,8D,
-1759383947934982,000000C7,false,Rx,0,4,00,00,00,00,00,00,00,00,
-1759383947934746,000000FB,false,Rx,0,8,11,FF,00,30,AB,44,05,FD,
-1759383947934501,0000019C,false,Rx,0,8,06,A0,26,A0,7F,FF,04,7F,
-1759383947934265,000001C7,false,Rx,0,8,0C,AF,73,50,00,12,00,00,
-1759383947934035,000001E5,false,Rx,0,8,46,7F,62,68,00,80,98,AC,
-1759383947933791,000002EF,false,Rx,0,8,F9,70,00,00,00,00,00,00,
-1759383947933263,000003A2,false,Rx,0,8,01,8F,10,68,03,FF,00,0A,
-1759383947933029,0000039F,false,Rx,0,8,3C,70,00,B6,11,57,0A,B6,
-1759383947932781,000003A4,false,Rx,0,8,00,00,14,00,07,00,00,00,
-1759383947930846,000003AB,false,Rx,0,8,00,00,00,01,73,4C,00,00,
-1759383947960682,0000029B,false,Rx,1,8,3B,96,6D,00,FD,10,00,00,
-1759383947960426,00000172,false,Rx,1,8,60,41,0A,60,41,0A,00,00,
-1759383947960213,00000322,false,Rx,1,8,00,00,00,20,00,00,00,00,
-1759383947958890,00000094,false,Rx,1,8,7F,FF,7C,00,7F,FF,03,7F,
-1759383947958677,00000099,false,Rx,1,8,A0,8F,80,04,00,5D,00,F6,
-1759383947958421,0000014B,false,Rx,1,8,01,90,00,00,00,00,00,00,
-1759383947955648,00000293,false,Rx,1,8,8F,00,B3,36,01,40,00,00,
-1759383947955392,00000171,false,Rx,1,8,00,30,25,B0,60,83,7A,3C,
-1759383947955136,00000088,false,Rx,1,8,00,00,08,00,00,00,00,00,
-1759383947954922,0000008A,false,Rx,1,8,80,00,00,04,00,02,30,B6,
-1759383947954666,0000008E,false,Rx,1,8,5D,05,04,00,13,88,00,C7,
-1759383947954410,0000008F,false,Rx,1,8,00,00,00,00,00,00,00,00,
-1759383947954197,000000DF,false,Rx,1,8,00,00,00,00,00,00,08,00,
-1759383947953941,000000FB,false,Rx,1,8,00,00,00,00,00,00,00,00,
-1759383947953685,000003C2,false,Rx,1,8,7F,FF,F3,BD,00,12,05,32,
-1759383947953600,0000044C,false,Rx,1,1,01,00,00,00,00,00,00,00,
-1759383947950741,00000295,false,Rx,1,8,A6,3E,00,02,92,4E,65,23,
-1759383947950485,000002A2,false,Rx,1,8,6C,00,20,B6,00,67,00,BB,
-1759383947948949,00000692,false,Rx,1,8,28,00,00,00,00,00,00,00,
-1759383947948693,00000094,false,Rx,1,8,80,00,04,00,80,00,03,07,
-1759383947948480,00000099,false,Rx,1,8,A0,80,80,04,00,5D,00,F9,
-1759383947948224,0000014B,false,Rx,1,8,01,90,00,00,00,00,00,00,
-1759383947947968,000002B5,false,Rx,1,8,D0,82,32,80,00,00,00,E0,
-1759383947947755,000002B6,false,Rx,1,8,D0,00,00,01,C0,E0,70,81,
-1759383947947499,00000396,false,Rx,1,8,3D,6D,4E,28,C0,46,46,47,
-1759383947947285,0000039B,false,Rx,1,8,3D,3B,84,00,00,00,2C,AE,
-1759383947947029,000003A6,false,Rx,1,8,00,00,00,00,00,00,00,00,
-1759383947946773,000003BF,false,Rx,1,8,28,00,30,00,28,00,30,00,
-1759383947946560,000003DE,false,Rx,1,8,01,F2,01,F4,01,F2,01,F3,
-1759383947946304,000003E2,false,Rx,1,8,1F,B0,18,B2,72,74,69,6A,
-1759383947946048,00000464,false,Rx,1,8,08,00,08,00,00,00,00,00,
-1759383947945835,00000468,false,Rx,1,8,28,00,30,00,28,00,30,00,
-1759383947945579,00000173,false,Rx,1,8,00,00,C4,C8,0D,00,0C,FD,
-1759383947945323,00000088,false,Rx,1,8,00,00,08,00,00,00,00,00,
-1759383947945109,0000008A,false,Rx,1,8,7F,FF,00,04,00,02,31,B7,
-1759383947944853,0000008E,false,Rx,1,8,5D,05,04,00,13,88,01,C6,
-1759383947944597,0000008F,false,Rx,1,8,00,00,00,00,00,00,00,00,
-1759383947944341,000000DF,false,Rx,1,8,00,00,00,00,00,00,08,00,
-1759383947944085,000000FB,false,Rx,1,8,00,00,00,00,00,00,00,00,
-1759383947943872,00000194,false,Rx,1,8,00,00,00,01,00,00,00,00,
-1759383947943616,000003C2,false,Rx,1,8,7F,FF,F3,23,00,12,05,32,
-1759383947943360,00000196,false,Rx,1,8,00,00,00,00,00,00,00,00,
-1759383947943104,00000402,false,Rx,1,8,00,00,00,00,00,05,00,00,
-1759383947942848,0000019F,false,Rx,1,8,00,00,00,00,00,00,00,00,
-1759383947942635,00000469,false,Rx,1,8,28,00,30,00,28,00,30,00,
-1759383947942379,0000046B,false,Rx,1,8,0B,A4,00,F9,05,7F,01,47,
-1759383947942123,0000046C,false,Rx,1,8,04,42,00,00,00,00,00,6D,
-1759383947941909,0000046D,false,Rx,1,8,2A,04,2A,04,00,0A,01,02,
-1759383947941653,0000046F,false,Rx,1,8,00,00,00,00,00,20,00,00,
-1759383947940715,000003BA,false,Rx,1,8,03,0B,65,46,00,00,00,00,
-1759383947940459,00000172,false,Rx,1,8,60,41,0A,60,41,0A,00,00,
-1759383947938923,00000094,false,Rx,1,8,80,00,0C,00,7F,FF,03,0F,
-1759383947938667,00000099,false,Rx,1,8,A0,81,80,04,00,5D,00,F8,
-1759383947938411,0000014B,false,Rx,1,8,01,8F,00,00,00,00,00,00,
-1759383947935638,00000171,false,Rx,1,8,00,30,29,B0,60,83,7A,30,
-1759383947935382,000003AB,false,Rx,1,8,00,01,14,29,73,4C,00,00,
-1759383947935168,00000088,false,Rx,1,8,00,00,08,00,00,00,00,00,
-1759383947934912,0000008A,false,Rx,1,8,80,00,00,04,00,02,32,B4,
-1759383947934699,0000008E,false,Rx,1,8,5D,05,04,00,13,88,02,C5,
-1759383947934443,0000008F,false,Rx,1,8,00,00,00,00,00,00,00,00,
-1759383947934187,000000DF,false,Rx,1,8,00,00,00,00,00,00,08,00,
-1759383947933931,000000FB,false,Rx,1,8,00,00,00,00,00,00,00,00,
-1759383947933675,000003C2,false,Rx,1,8,7F,FF,F2,5D,00,12,05,32,
-1759383947932907,0000033B,false,Rx,1,8,80,00,00,41,00,00,00,00,
-1759383947932651,00000323,false,Rx,1,8,00,00,00,00,00,01,00,00,
-1759383947932395,00000324,false,Rx,1,8,70,4D,F7,42,48,00,00,44,
-1759383947932182,0000033D,false,Rx,1,8,15,6D,60,20,00,18,1F,40,
-1759383947931926,000003B7,false,Rx,1,8,00,00,00,00,00,0A,3F,35,
-1759383947931670,00000491,false,Rx,1,8,15,6D,00,00,00,00,00,00,
-1759383947930646,00000295,false,Rx,1,8,B6,3E,00,02,92,4E,60,36,
-1759383947930390,00000393,false,Rx,1,8,00,00,00,00,00,00,00,00,
-1759383947929164,00000094,false,Rx,0,8,80,00,00,00,00,00,03,00,
-1759383947926824,0000009D,false,Rx,0,8,50,05,80,70,00,0B,00,00,
-1759383947926126,000000C1,false,Rx,0,8,20,00,00,00,20,00,00,00,
-1759383947925878,000000C5,false,Rx,0,8,20,00,00,00,20,00,00,00,
-1759383947925642,000000AC,false,Rx,0,8,04,70,58,A8,02,00,00,86,
-1759383947925404,000000AF,false,Rx,0,8,00,00,2C,00,00,51,FB,86,
-1759383947925232,000000C7,false,Rx,0,4,00,00,00,00,00,00,00,00,
-1759383947924980,000000F1,false,Rx,0,8,00,00,00,00,00,00,00,00,
-1759383947924744,000000FB,false,Rx,0,8,11,FF,00,30,AB,53,05,FC,
-1759383947924498,0000014F,false,Rx,0,8,FE,A8,00,00,00,00,00,00,
-1759383947924256,00000165,false,Rx,0,8,00,00,06,A0,E5,78,08,00,
-1759383947924008,00000166,false,Rx,0,8,00,00,00,00,00,00,00,00,
-1759383947923760,00000167,false,Rx,0,8,0C,10,00,00,00,00,00,00,
-1759383947923564,00000169,false,Rx,0,6,3B,19,60,F7,74,40,00,00,
-1759383947923334,0000017D,false,Rx,0,7,20,20,00,00,00,00,00,00,
-1759383947923164,00000185,false,Rx,0,4,00,04,00,05,00,00,00,00,
-1759383947922920,00000194,false,Rx,0,8,0F,0F,00,01,00,00,00,00,
-1759383947922688,00000196,false,Rx,0,8,75,30,75,30,10,00,75,30,
-1759383947922448,0000019C,false,Rx,0,8,06,A0,26,A0,7F,FF,05,7F,
-1759383947922198,000001A9,false,Rx,0,8,00,00,00,00,00,00,00,00,
-1759383947921948,000001AF,false,Rx,0,8,00,00,00,00,00,00,00,00,
-1759383947921704,000001B6,false,Rx,0,8,00,01,00,00,00,00,0E,81,
-1759383947921468,000001C7,false,Rx,0,8,0C,AF,B3,4F,00,14,00,00,
-1759383947921236,000001E5,false,Rx,0,8,46,7F,62,78,00,80,97,32,
-1759383947920988,000001E9,false,Rx,0,8,00,00,00,08,00,00,00,00,
-1759383947920744,000001F1,false,Rx,0,8,0E,00,00,00,08,74,00,00,
-1759383947920608,000001F2,false,Rx,0,2,20,00,00,00,00,00,00,00,
-1759383947920362,000001FC,false,Rx,0,8,00,5B,00,44,00,00,80,00,
-1759383947920112,000001FD,false,Rx,0,8,00,00,00,00,00,00,00,00,
-1759383947919902,00000214,false,Rx,0,6,04,00,00,00,00,00,00,00,
-1759383947919660,00000163,false,Rx,0,8,41,05,40,02,08,00,00,00,
-1759383947919408,0000021C,false,Rx,0,8,00,00,00,00,00,00,00,00,
-1759383947919174,00000227,false,Rx,0,8,75,30,00,E0,8A,C9,00,00,
-1759383947918928,00000094,false,Rx,0,8,80,00,00,00,00,00,03,00,
-1759383947918796,0000022A,false,Rx,0,2,00,70,00,00,00,00,00,00,
-1759383947918542,00000230,false,Rx,0,8,00,00,00,00,00,00,00,00,
-1759383947918292,0000023D,false,Rx,0,8,00,00,00,00,00,00,00,00,
-1759383947918044,00000242,false,Rx,0,8,00,00,00,00,00,08,00,00,
-1759383947917792,00000244,false,Rx,0,8,00,00,20,04,00,00,00,00,
-1759383947917544,00000246,false,Rx,0,8,00,00,00,00,00,00,00,00,
-1759383947917300,00000297,false,Rx,0,8,00,03,00,00,00,00,20,00,
-1759383947917048,000002F4,false,Rx,0,8,00,00,00,00,00,00,00,00,
-1759383947916802,000002F6,false,Rx,0,8,80,00,00,00,00,02,00,00,
-1759383947916560,0000009D,false,Rx,0,8,60,06,80,70,00,0A,00,00,
-1759383947916312,000002FD,false,Rx,0,8,7D,00,00,00,00,00,00,00,
-1759383947916072,0000030B,false,Rx,0,8,00,00,00,00,06,38,06,38,
-1759383947915820,000000C1,false,Rx,0,8,30,00,00,00,30,00,00,00,
-1759383947915574,000000C5,false,Rx,0,8,30,00,00,00,30,00,00,00,
-1759383947915322,000000F1,false,Rx,0,8,00,00,00,00,00,00,00,00,
-1759383947915084,000000AC,false,Rx,0,8,04,70,68,A8,02,00,00,B6,
-1759383947914844,000000AF,false,Rx,0,8,00,00,28,00,00,61,FA,B3,
-1759383947914671,000000C7,false,Rx,0,4,00,00,00,00,00,00,00,00,
-1759383947914435,000000FB,false,Rx,0,8,11,FF,00,30,AB,62,05,FB,
-1759383947914197,0000019C,false,Rx,0,8,06,A0,26,A0,7F,FE,06,7F,
-1759383947913960,000001C7,false,Rx,0,8,0C,AF,F3,4E,00,16,00,00,
-1759383947913736,000001E1,false,Rx,0,7,40,BF,01,00,00,00,00,00,
-1759383947913503,000001E5,false,Rx,0,8,46,7F,62,88,00,80,96,E1,
-1759383947913263,00000319,false,Rx,0,8,80,84,00,00,2C,95,00,00,
-1759383947913031,0000031A,false,Rx,0,8,0A,A0,00,17,57,42,90,66,
-1759383947912789,0000031B,false,Rx,0,8,00,00,B6,18,00,00,00,00,
-1759383947912539,0000032E,false,Rx,0,8,00,00,00,00,00,00,00,00,
-1759383947912292,00000336,false,Rx,0,8,00,00,00,00,00,00,00,00,
-1759383947912042,00000343,false,Rx,0,8,00,00,00,00,00,00,00,00,
-1759383947911790,00000348,false,Rx,0,8,00,00,00,00,00,00,00,00,
-1759383947911540,0000034A,false,Rx,0,8,00,00,00,00,00,00,00,00,
-1759383947911290,0000034C,false,Rx,0,8,00,00,00,00,00,00,00,00,
-1759383947911040,0000034F,false,Rx,0,8,00,00,00,00,00,00,00,01,
-1759383947910790,00000353,false,Rx,0,8,00,00,00,00,00,00,00,00,
-1759383947910538,00000361,false,Rx,0,8,00,00,00,00,00,00,00,00,
-1759383947910288,00000364,false,Rx,0,8,00,00,00,00,00,00,00,22,
-1759383947910044,00000372,false,Rx,0,8,00,00,00,00,00,69,00,00,
-1759383947909796,00000373,false,Rx,0,8,00,00,00,00,00,00,00,00,
-1759383947909546,00000376,false,Rx,0,8,00,00,00,00,00,00,00,00,
-1759383947909306,00000379,false,Rx,0,8,64,00,00,6D,00,00,00,00,
-1759383947909060,00000094,false,Rx,0,8,80,00,00,00,00,00,03,00,
-1759383947908816,000002E7,false,Rx,0,8,08,00,00,00,00,00,03,0B,
-1759383947908581,000003AC,false,Rx,0,8,02,92,02,84,06,3E,4E,65,
-1759383947908336,000003FA,false,Rx,0,8,1E,3E,1E,3E,00,00,00,00,
-1759383947908090,0000046A,false,Rx,0,8,01,00,00,00,00,40,00,00,
-1759383947906807,0000009D,false,Rx,0,8,70,07,80,70,00,09,00,00,
-1759383947906113,000000C1,false,Rx,0,8,00,00,00,00,00,00,00,00,
-1759383947905861,000000C5,false,Rx,0,8,00,00,00,00,00,00,00,00,
-1759383947905609,000000F1,false,Rx,0,8,00,00,00,00,00,00,00,00,
-1759383947905371,000000AC,false,Rx,0,8,04,70,78,A8,02,00,00,A6,
-1759383947905133,000000AF,false,Rx,0,8,00,00,24,00,00,71,F9,AC,
-1759383947904961,000000C7,false,Rx,0,4,00,00,00,00,00,00,00,00,
-1759383947904725,000000FB,false,Rx,0,8,11,FF,00,30,AB,71,05,FA,
-1759383947904479,0000014F,false,Rx,0,8,FE,B8,00,00,00,00,00,00,
-1759383947904245,00000165,false,Rx,0,8,00,00,06,A0,E5,77,09,00,
-1759383947903997,00000166,false,Rx,0,8,00,00,00,00,00,00,00,00,
-1759383947903749,00000167,false,Rx,0,8,0C,10,00,00,00,00,00,00,
-1759383947903553,00000169,false,Rx,0,6,3B,19,60,F7,74,40,00,00,
-1759383947903385,00000185,false,Rx,0,4,00,03,00,03,00,00,00,00,
-1759383947903141,00000194,false,Rx,0,8,0F,0F,00,01,00,00,00,00,
-1759383947902909,00000196,false,Rx,0,8,75,30,75,30,10,00,75,30,
-1759383947902667,0000019C,false,Rx,0,8,06,A0,26,A0,7F,FF,07,7F,
-1759383947902418,000001A9,false,Rx,0,8,00,00,00,00,00,00,00,00,
-1759383947902167,000001AF,false,Rx,0,8,00,00,00,00,00,00,00,00,
-1759383947901924,000001B6,false,Rx,0,8,00,01,00,00,00,00,0F,9C,
-1759383947901688,000001C7,false,Rx,0,8,0C,AF,33,51,00,18,00,00,
-1759383947901455,000001E5,false,Rx,0,8,46,7F,62,98,00,80,95,E3,
-1759383947901207,000001E9,false,Rx,0,8,00,00,00,08,00,00,00,00,
-1759383947900963,000001F1,false,Rx,0,8,0E,00,00,00,08,74,00,00,
-1759383947900827,000001F2,false,Rx,0,2,20,00,00,00,00,00,00,00,
-1759383947900577,000001FD,false,Rx,0,8,00,00,00,00,00,00,00,00,
-1759383947900345,00000227,false,Rx,0,8,75,30,00,F0,8A,C8,80,00,
-1759383947900213,0000022A,false,Rx,0,2,00,70,00,00,00,00,00,00,
-1759383947899959,00000230,false,Rx,0,8,00,00,00,00,00,00,00,00,
-1759383947899719,00000163,false,Rx,0,8,42,05,40,02,08,00,00,00,
-1759383947899472,00000242,false,Rx,0,8,00,00,00,00,00,08,00,00,
-1759383947899220,00000244,false,Rx,0,8,00,00,20,04,00,00,00,00,
-1759383947898974,00000094,false,Rx,0,8,80,00,00,00,00,00,03,00,
-1759383947928982,00000094,false,Rx,1,8,7F,FF,14,00,7F,FF,03,17,
-1759383947928726,00000099,false,Rx,1,8,A0,82,80,04,00,5D,00,FB,
-1759383947928470,0000014B,false,Rx,1,8,01,90,00,00,00,00,00,00,
-1759383947925697,00000173,false,Rx,1,8,00,00,C4,C8,0D,00,0C,FD,
-1759383947925398,00000088,false,Rx,1,8,00,00,08,00,00,00,00,00,
-1759383947925185,0000008A,false,Rx,1,8,80,00,00,04,00,02,33,B5,
-1759383947924971,0000008E,false,Rx,1,8,5D,05,04,00,13,88,03,C4,
-1759383947924715,0000008F,false,Rx,1,8,00,00,00,00,00,00,00,00,
-1759383947924459,000000DF,false,Rx,1,8,00,00,00,00,00,00,08,00,
-1759383947924203,000000FB,false,Rx,1,8,00,00,00,00,00,00,00,00,
-1759383947923947,00000194,false,Rx,1,8,00,00,00,01,00,00,00,00,
-1759383947923734,00000336,false,Rx,1,8,00,00,00,00,00,00,00,00,
-1759383947923478,00000196,false,Rx,1,8,00,00,00,00,00,00,00,00,
-1759383947923222,0000033F,false,Rx,1,8,57,12,00,DC,28,20,00,48,
-1759383947922966,0000019F,false,Rx,1,8,00,00,00,00,00,00,00,00,
-1759383947922753,00000356,false,Rx,1,8,00,00,00,1E,3E,00,00,00,
-1759383947922497,00000358,false,Rx,1,8,00,00,00,00,00,00,00,00,
-1759383947922241,000003C2,false,Rx,1,8,7F,FF,F2,95,00,12,05,32,
-1759383947921985,000003FC,false,Rx,1,8,1E,3E,00,00,00,00,00,00,
-1759383947921857,0000041F,false,Rx,1,3,02,70,01,00,00,00,00,00,
-1759383947920620,00000299,false,Rx,1,8,63,E7,D0,FF,FF,84,00,00,
-1759383947920406,00000172,false,Rx,1,8,60,41,0A,60,41,0A,00,00,
-1759383947920150,000003C0,false,Rx,1,8,57,12,DC,00,00,BD,40,00,
-1759383947918870,00000094,false,Rx,1,8,80,00,1C,00,80,00,03,1F,
-1759383947918657,00000099,false,Rx,1,8,A0,83,80,04,00,5D,00,FA,
-1759383947918401,0000014B,false,Rx,1,8,01,90,00,00,00,00,00,00,
-1759383947915542,00000297,false,Rx,1,8,01,03,E0,40,F4,A9,A7,58,
-1759383947915329,00000171,false,Rx,1,8,00,30,2D,B0,60,83,7A,34,
-1759383947915073,00000391,false,Rx,1,8,00,02,B0,00,D0,00,50,00,
-1759383947914817,00000088,false,Rx,1,8,00,00,08,00,00,00,00,00,
-1759383947914604,0000008A,false,Rx,1,8,7F,FF,00,04,00,02,34,B2,
-1759383947914348,0000008E,false,Rx,1,8,5D,05,04,00,13,88,04,C3,
-1759383947914134,0000008F,false,Rx,1,8,00,00,00,00,00,00,00,00,
-1759383947913878,000000DF,false,Rx,1,8,00,00,00,00,00,00,08,00,
-1759383947913623,000000FB,false,Rx,1,8,00,00,00,00,00,00,00,00,
-1759383947913367,000003C2,false,Rx,1,8,7F,FF,F3,35,00,12,05,32,
-1759383947910679,00000295,false,Rx,1,8,C6,3E,00,02,92,4E,63,45,
-1759383947910423,0000029B,false,Rx,1,8,3B,96,6D,00,FD,10,00,00,
-1759383947910167,00000334,false,Rx,1,8,00,00,00,00,00,00,00,00,
-1759383947908929,00000094,false,Rx,1,8,80,00,24,00,80,00,03,27,
-1759383947908673,00000099,false,Rx,1,8,A0,84,80,04,00,5D,00,FD,
-1759383947908460,0000014B,false,Rx,1,8,01,90,00,00,00,00,00,00,
-1759383947905601,00000293,false,Rx,1,8,8F,00,B3,36,01,40,00,00,
-1759383947905345,00000173,false,Rx,1,8,00,00,C4,C8,0D,00,0C,FD,
-1759383947905132,00000088,false,Rx,1,8,00,00,08,00,00,00,00,00,
-1759383947904876,0000008A,false,Rx,1,8,80,00,00,04,00,02,35,B3,
-1759383947904663,0000008E,false,Rx,1,8,5D,05,04,00,13,88,05,C2,
-1759383947904407,0000008F,false,Rx,1,8,00,00,00,00,00,00,00,00,
-1759383947904151,000000DF,false,Rx,1,8,00,00,00,00,00,00,08,00,
-1759383947903895,000000FB,false,Rx,1,8,00,00,00,00,00,00,00,00,
-1759383947903639,00000194,false,Rx,1,8,00,00,00,01,00,00,00,00,
-1759383947903383,000003AC,false,Rx,1,8,00,90,02,84,11,0E,08,00,
-1759383947903170,00000196,false,Rx,1,8,00,00,00,00,00,00,00,00,
-1759383947902914,000003C2,false,Rx,1,8,7F,FF,F3,2A,00,12,05,32,
-1759383947902658,0000019F,false,Rx,1,8,00,00,00,00,00,00,00,00,
-1759383947900652,000003BC,false,Rx,1,8,00,00,00,00,00,00,00,00,
-1759383947900396,00000172,false,Rx,1,8,60,41,0A,60,41,0A,00,00,
-1759383947898946,00000094,false,Rx,1,8,7F,FF,2C,00,7F,FF,03,2F,
-1759383947898690,00000099,false,Rx,1,8,A0,85,80,04,00,5D,00,FC,
-1759383947898726,00000246,false,Rx,0,8,00,00,00,00,00,00,00,00,
-1759383947896793,0000009D,false,Rx,0,8,80,08,80,70,00,08,00,00,
-1759383947896098,000000C1,false,Rx,0,8,10,00,00,00,10,00,00,00,
-1759383947895852,000000C5,false,Rx,0,8,10,00,00,00,10,00,00,00,
-1759383947895600,000000F1,false,Rx,0,8,00,00,00,00,00,00,00,00,
-1759383947895365,000000AC,false,Rx,0,8,04,70,88,A8,02,00,00,56,
-1759383947895123,000000AF,false,Rx,0,8,00,00,20,00,00,81,F8,59,
-1759383947894951,000000C7,false,Rx,0,4,00,00,00,00,00,00,00,00,
-1759383947894711,000000FB,false,Rx,0,8,11,FF,00,30,AB,80,05,F9,
-1759383947894469,0000019C,false,Rx,0,8,06,A0,26,A0,7F,FF,08,7F,
-1759383947894233,000001C7,false,Rx,0,8,0C,AF,73,50,00,1A,00,00,
-1759383947894003,000001E5,false,Rx,0,8,46,7F,62,A8,00,80,94,91,
-1759383947893755,0000029B,false,Rx,0,8,00,00,00,00,00,00,00,00,
-1759383947890923,00000391,false,Rx,0,8,02,02,B0,00,D0,00,50,00,
-1759383947889179,00000094,false,Rx,0,8,80,00,00,00,00,00,03,00,
-1759383947886786,0000009D,false,Rx,0,8,90,09,80,70,00,07,00,00,
-1759383947886040,000000C1,false,Rx,0,8,20,00,00,00,20,00,00,00,
-1759383947885792,000000C5,false,Rx,0,8,20,00,00,00,20,00,00,00,
-1759383947885558,000000AC,false,Rx,0,8,04,70,98,A8,02,00,00,46,
-1759383947885318,000000AF,false,Rx,0,8,00,00,1C,00,00,91,F7,7A,
-1759383947885146,000000C7,false,Rx,0,4,00,00,00,00,00,00,00,00,
-1759383947884895,000000F1,false,Rx,0,8,00,00,00,00,00,00,00,00,
-1759383947884654,000000FB,false,Rx,0,8,11,FF,00,30,AB,9F,05,F8,
-1759383947884410,0000014F,false,Rx,0,8,FE,C8,00,00,00,00,00,00,
-1759383947884173,00000165,false,Rx,0,8,00,00,06,A0,E5,76,0A,00,
-1759383947883925,00000166,false,Rx,0,8,00,00,00,00,00,00,00,00,
-1759383947883677,00000167,false,Rx,0,8,0C,10,00,00,00,00,00,00,
-1759383947883481,00000169,false,Rx,0,6,3B,19,60,F7,74,40,00,00,
-1759383947883313,00000185,false,Rx,0,4,00,03,00,03,00,00,00,00,
-1759383947883069,00000194,false,Rx,0,8,0F,0F,00,01,00,00,00,00,
-1759383947882837,00000196,false,Rx,0,8,75,30,75,30,10,00,75,30,
-1759383947882597,0000019C,false,Rx,0,8,06,A0,26,A0,7F,FE,09,7F,
-1759383947882347,000001A9,false,Rx,0,8,00,00,00,00,00,00,00,00,
-1759383947882096,000001AF,false,Rx,0,8,00,00,00,00,00,00,00,00,
-1759383947881851,000001B6,false,Rx,0,8,00,01,00,00,00,00,00,27,
-1759383947881609,000001C7,false,Rx,0,8,0C,AF,B3,4F,00,1C,00,00,
-1759383947881385,000001E1,false,Rx,0,7,40,BE,02,00,00,00,00,00,
-1759383947881153,000001E5,false,Rx,0,8,46,7F,62,B8,00,80,93,E7,
-1759383947880905,000001E9,false,Rx,0,8,00,00,00,08,00,00,00,00,
-1759383947880661,000001F1,false,Rx,0,8,0E,00,00,00,08,74,00,00,
-1759383947880525,000001F2,false,Rx,0,2,20,00,00,00,00,00,00,00,
-1759383947880275,000001FD,false,Rx,0,8,00,00,00,00,00,00,00,00,
-1759383947880037,00000227,false,Rx,0,8,75,30,00,00,8A,D0,00,00,
-1759383947879905,0000022A,false,Rx,0,2,00,70,00,00,00,00,00,00,
-1759383947879651,00000230,false,Rx,0,8,00,00,00,00,00,00,00,00,
-1759383947879411,00000163,false,Rx,0,8,43,05,40,02,08,00,00,00,
-1759383947879163,00000242,false,Rx,0,8,00,00,00,00,00,08,00,00,
-1759383947878916,00000094,false,Rx,0,8,80,00,00,00,00,00,03,00,
-1759383947878664,00000244,false,Rx,0,8,00,00,20,04,00,00,00,00,
-1759383947878416,00000246,false,Rx,0,8,00,00,00,00,00,00,00,00,
-1759383947878170,000002EF,false,Rx,0,8,F8,80,00,00,00,00,00,00,
-1759383947877924,0000030C,false,Rx,0,8,C8,30,00,00,00,00,00,01,
-1759383947877676,00000389,false,Rx,0,8,00,00,00,00,00,14,00,00,
-1759383947877434,0000038B,false,Rx,0,8,1B,00,01,00,00,3C,03,E8,
-1759383947877186,000003A3,false,Rx,0,8,00,00,00,00,00,00,00,00,
-1759383947876778,0000009D,false,Rx,0,8,A0,0A,80,70,00,06,00,00,
-1759383947875924,000000C1,false,Rx,0,8,30,00,00,00,30,00,00,00,
-1759383947875678,000000C5,false,Rx,0,8,30,00,00,00,30,00,00,00,
-1759383947875442,000000AC,false,Rx,0,8,04,70,A8,A8,02,00,00,76,
-1759383947875201,000000AF,false,Rx,0,8,00,00,18,00,00,A1,F6,4F,
-1759383947875029,000000C7,false,Rx,0,4,00,00,00,00,00,00,00,00,
-1759383947874777,000000F1,false,Rx,0,8,00,00,00,00,00,00,00,00,
-1759383947874541,000000FB,false,Rx,0,8,11,FF,00,30,AB,AE,05,F7,
-1759383947874301,0000019C,false,Rx,0,8,06,A0,26,A0,7F,FF,0A,7F,
-1759383947874065,000001C7,false,Rx,0,8,0C,AF,F3,4E,00,1E,00,00,
-1759383947873831,000001E5,false,Rx,0,8,46,7F,62,C8,00,80,92,01,
-1759383947873585,000001FC,false,Rx,0,8,00,44,00,2D,00,00,C0,00,
-1759383947873375,00000214,false,Rx,0,6,06,00,00,00,00,00,00,00,
-1759383947873123,0000021C,false,Rx,0,8,00,00,00,00,00,00,00,00,
-1759383947872873,0000023D,false,Rx,0,8,00,00,00,00,00,00,00,00,
-1759383947872621,000002F4,false,Rx,0,8,00,00,00,00,00,00,00,00,
-1759383947872375,000002F6,false,Rx,0,8,80,00,00,00,00,02,00,00,
-1759383947872127,000002FD,false,Rx,0,8,7D,00,00,00,00,00,00,00,
-1759383947871875,00000348,false,Rx,0,8,00,00,00,00,00,00,00,00,
-1759383947871625,0000034A,false,Rx,0,8,00,00,00,00,00,00,00,00,
-1759383947871379,0000046A,false,Rx,0,8,01,00,00,00,00,40,00,00,
-1759383947870897,00000297,false,Rx,0,8,00,03,00,00,00,00,20,00,
-1759383947870665,000002A2,false,Rx,0,8,6C,6B,20,00,41,67,00,BB,
-1759383947870423,00000400,false,Rx,0,8,71,26,02,00,00,40,06,00,
-1759383947870173,00000418,false,Rx,0,8,00,00,00,00,00,00,00,80,
-1759383947869927,00000419,false,Rx,0,8,00,00,00,90,00,00,03,4C,
-1759383947898434,0000014B,false,Rx,1,8,01,90,00,00,00,00,00,00,
-1759383947895618,000003B8,false,Rx,1,8,00,00,00,00,00,00,00,00,
-1759383947895362,00000171,false,Rx,1,8,00,30,31,B0,60,83,7A,28,
-1759383947895106,00000088,false,Rx,1,8,00,00,08,00,00,00,00,00,
-1759383947894893,0000008A,false,Rx,1,8,80,00,00,04,00,02,36,B0,
-1759383947894637,0000008E,false,Rx,1,8,5D,05,04,00,13,88,06,C1,
-1759383947894381,0000008F,false,Rx,1,8,00,00,00,00,00,00,00,00,
-1759383947894125,000000DF,false,Rx,1,8,00,00,00,00,00,00,08,00,
-1759383947893869,000000FB,false,Rx,1,8,00,00,00,00,00,00,00,00,
-1759383947893655,000003C2,false,Rx,1,8,7F,FF,F2,97,00,12,05,32,
-1759383947890711,00000295,false,Rx,1,8,D6,3E,00,02,92,4E,63,55,
-1759383947888962,00000094,false,Rx,1,8,80,00,34,00,80,00,03,37,
-1759383947888749,00000099,false,Rx,1,8,A0,86,80,04,00,5D,00,FF,
-1759383947888493,0000014B,false,Rx,1,8,01,90,00,00,00,00,00,00,
-1759383947885677,00000173,false,Rx,1,8,00,00,C4,C8,0D,00,0C,FD,
-1759383947885421,000003C2,false,Rx,1,8,7F,FF,F2,8C,00,12,05,32,
-1759383947885165,00000088,false,Rx,1,8,00,00,08,00,00,00,00,00,
-1759383947884952,0000008A,false,Rx,1,8,7F,FF,00,04,00,02,37,B1,
-1759383947884696,0000008E,false,Rx,1,8,5D,05,04,00,13,88,07,C0,
-1759383947884440,0000008F,false,Rx,1,8,00,00,00,00,00,00,00,00,
-1759383947884184,000000DF,false,Rx,1,8,00,00,00,00,00,00,08,00,
-1759383947883970,000000FB,false,Rx,1,8,00,00,00,00,00,00,00,00,
-1759383947883714,00000394,false,Rx,1,8,00,35,00,00,10,35,0B,1B,
-1759383947883458,00000194,false,Rx,1,8,00,00,00,01,00,00,00,00,
-1759383947883202,00000196,false,Rx,1,8,00,00,00,00,00,00,00,00,
-1759383947882946,0000019F,false,Rx,1,8,00,00,00,00,00,00,00,00,
-1759383947882690,0000039A,false,Rx,1,8,00,35,02,00,CD,00,00,00,
-1759383947880642,00000172,false,Rx,1,8,60,41,0A,60,41,0A,00,00,
-1759383947878893,00000094,false,Rx,1,8,80,00,3C,00,80,00,03,3F,
-1759383947878680,00000099,false,Rx,1,8,A0,87,80,04,00,5D,00,FE,
-1759383947878424,0000014B,false,Rx,1,8,01,90,00,00,00,00,00,00,
-1759383947875651,00000171,false,Rx,1,8,00,30,35,B0,60,83,7A,2C,
-1759383947875395,000003C2,false,Rx,1,8,7F,FF,F2,7F,00,12,05,32,
-1759383947875139,00000088,false,Rx,1,8,00,00,08,00,00,00,00,00,
-1759383947874883,0000008A,false,Rx,1,8,80,00,00,04,00,02,38,BE,
-1759383947874669,0000008E,false,Rx,1,8,5D,05,04,00,13,88,08,CF,
-1759383947874413,0000008F,false,Rx,1,8,00,00,00,00,00,00,00,00,
-1759383947874157,000000DF,false,Rx,1,8,00,00,00,00,00,00,08,00,
-1759383947873901,000000FB,false,Rx,1,8,00,00,00,00,00,00,00,00,
-1759383947870702,000003BE,false,Rx,1,8,00,34,09,17,1A,56,00,00,
-1759383947870488,00000295,false,Rx,1,8,E6,3E,00,02,92,4E,63,65,
-1759383947870232,00000299,false,Rx,1,8,63,E7,D0,FF,FF,84,00,00,
-1759383947870019,000002A0,false,Rx,1,8,C0,00,00,00,6B,00,00,AB,
-1759383947869763,00000400,false,Rx,1,8,71,26,02,00,00,40,06,00,
-1759383947869507,00000418,false,Rx,1,8,A0,00,00,00,00,00,00,00,
-1759383947869141,00000094,false,Rx,0,8,80,00,00,00,00,00,03,00,
-1759383947866767,0000009D,false,Rx,0,8,B0,0B,80,70,00,05,00,00,
-1759383947865979,000000C1,false,Rx,0,8,00,00,00,00,00,00,00,00,
-1759383947865727,000000C5,false,Rx,0,8,00,00,00,00,00,00,00,00,
-1759383947865493,000000AC,false,Rx,0,8,04,70,B8,A8,02,00,00,66,
-1759383947865253,000000AF,false,Rx,0,8,00,00,14,00,00,B1,F5,50,
-1759383947865081,000000C7,false,Rx,0,4,00,00,00,00,00,00,00,00,
-1759383947864829,000000F1,false,Rx,0,8,00,00,00,00,00,00,00,00,
