Time Stamp,ID,Extended,Dir,Bus,LEN,D1,D2,D3,D4,D5,D6,D7,D8
-1759383947071396,0000029B,false,Rx,0,8,00,00,00,00,00,00,00,00,
-1759383947070210,00000163,false,Rx,0,8,41,05,40,02,08,00,00,00,
-1759383947067464,000000AC,false,Rx,0,8,04,70,48,A8,02,00,00,96,
-1759383947067222,000000AF,false,Rx,0,8,00,00,30,00,00,41,FC,8D,
-1759383947067049,000000C7,false,Rx,0,4,00,00,00,00,00,00,00,00,
-1759383947066813,000000FB,false,Rx,0,8,11,FF,00,30,AB,44,05,FD,
-1759383947066575,0000019C,false,Rx,0,8,06,A0,26,A0,7F,FE,04,7F,
-1759383947065525,0000009D,false,Rx,0,8,70,07,80,70,00,09,00,00,
-1759383947065279,00000094,false,Rx,0,8,80,00,00,00,00,00,03,00,
-1759383947064541,000002E7,false,Rx,0,8,08,00,00,00,00,00,0C,04,
-1759383947062929,000000C1,false,Rx,0,8,30,00,00,00,30,00,00,00,
-1759383947062683,000000C5,false,Rx,0,8,30,00,00,00,30,00,00,00,
-1759383947062431,000000F1,false,Rx,0,8,00,00,00,00,00,00,00,00,
-1759383947062191,00000165,false,Rx,0,8,00,00,06,A0,E5,7F,01,00,
-1759383947061943,00000166,false,Rx,0,8,00,00,00,00,00,00,00,00,
-1759383947061695,00000167,false,Rx,0,8,0C,10,00,00,00,00,00,00,
-1759383947061499,00000169,false,Rx,0,6,3B,19,60,F7,74,40,00,00,
-1759383947061331,00000185,false,Rx,0,4,00,03,00,03,00,00,00,00,
-1759383947061081,000001A9,false,Rx,0,8,00,00,00,00,00,00,00,00,
-1759383947060839,000001B6,false,Rx,0,8,00,01,00,00,00,00,07,74,
-1759383947060601,000001C7,false,Rx,0,8,0C,AF,F3,4E,00,16,00,00,
-1759383947060369,000001E5,false,Rx,0,8,46,7F,62,88,00,80,96,E1,
-1759383947060121,000001E9,false,Rx,0,8,00,00,00,08,00,00,00,00,
-1759383947059877,000001F1,false,Rx,0,8,0E,00,00,00,08,75,00,00,
-1759383947059741,000001F2,false,Rx,0,2,20,00,00,00,00,00,00,00,
-1759383947059491,000001FD,false,Rx,0,8,00,00,00,00,00,00,00,00,
-1759383947059257,00000227,false,Rx,0,8,75,30,00,60,8A,CD,00,00,
-1759383947059125,0000022A,false,Rx,0,2,00,70,00,00,00,00,00,00,
-1759383947058871,00000230,false,Rx,0,8,00,00,00,00,00,00,00,00,
-1759383947058623,00000242,false,Rx,0,8,00,00,00,00,00,08,00,00,
-1759383947058371,00000244,false,Rx,0,8,00,00,20,04,00,00,00,00,
-1759383947058123,00000246,false,Rx,0,8,00,00,00,00,00,00,00,00,
-1759383947057137,000000AC,false,Rx,0,8,04,70,58,A8,02,00,00,86,
-1759383947056899,000000AF,false,Rx,0,8,00,00,2C,00,00,51,FB,86,
-1759383947056727,000000C7,false,Rx,0,4,00,00,00,00,00,00,00,00,
-1759383947056491,000000FB,false,Rx,0,8,11,FF,00,30,AB,53,05,FC,
-1759383947056247,0000014F,false,Rx,0,8,FE,28,00,00,00,00,00,00,
-1759383947071260,00000402,false,Rx,1,8,00,00,00,00,00,05,00,00,
-1759383947071004,00000468,false,Rx,1,8,28,00,30,00,28,00,30,00,
-1759383947070791,00000469,false,Rx,1,8,28,00,30,00,28,00,30,00,
-1759383947070535,0000046B,false,Rx,1,8,0B,A4,00,F8,05,81,01,47,
-1759383947070321,0000046C,false,Rx,1,8,06,B3,00,00,00,00,00,AB,
-1759383947070065,0000046D,false,Rx,1,8,42,1B,42,1B,00,11,01,02,
-1759383947069809,0000046F,false,Rx,1,8,00,00,00,00,00,20,00,00,
-1759383947069553,00000692,false,Rx,1,8,28,00,00,00,00,00,00,00,
-1759383947067207,00000088,false,Rx,1,8,00,00,08,00,00,00,00,00,
-1759383947066951,0000008A,false,Rx,1,8,7F,FF,00,04,00,02,32,B4,
-1759383947066737,0000008E,false,Rx,1,8,5D,05,04,00,13,88,02,C5,
-1759383947066482,0000008F,false,Rx,1,8,00,00,00,00,00,00,00,00,
-1759383947066226,000000DF,false,Rx,1,8,00,00,00,00,00,00,08,00,
-1759383947065970,000000FB,false,Rx,1,8,00,00,00,00,00,00,00,00,
-1759383947065756,00000172,false,Rx,1,8,60,21,0A,60,21,0A,00,00,
-1759383947065500,000003BA,false,Rx,1,8,03,0B,65,46,00,00,00,00,
-1759383947065244,000003C2,false,Rx,1,8,7F,FF,FD,7F,00,12,05,32,
-1759383947065031,00000094,false,Rx,1,8,7F,FF,1C,00,7F,FF,03,1F,
-1759383947064775,00000099,false,Rx,1,8,A0,83,80,04,00,5D,00,FA,
-1759383947064519,0000014B,false,Rx,1,8,01,90,00,00,00,00,00,00,
-1759383947061618,00000171,false,Rx,1,8,00,30,0D,B0,60,43,7A,D4,
-1759383947061362,000003AB,false,Rx,1,8,00,01,14,2D,73,4C,00,00,
-1759383947061234,0000041F,false,Rx,1,3,02,70,01,00,00,00,00,00,
-1759383947056839,00000088,false,Rx,1,8,00,00,08,00,00,00,00,00,
-1759383947056583,0000008A,false,Rx,1,8,7F,FF,00,04,00,02,33,B5,
-1759383947056370,0000008E,false,Rx,1,8,5D,05,04,00,13,88,03,C4,
-1759383947056114,0000008F,false,Rx,1,8,00,00,00,00,00,00,00,00,
-1759383947055858,000000DF,false,Rx,1,8,00,00,00,00,00,00,08,00,
-1759383947055602,000000FB,false,Rx,1,8,00,00,00,00,00,00,00,00,
-1759383947056002,00000194,false,Rx,0,8,0F,0F,00,01,00,00,00,00,
-1759383947055770,00000196,false,Rx,0,8,75,30,75,30,10,00,75,30,
-1759383947055530,0000019C,false,Rx,0,8,06,A0,26,A0,7F,FE,05,7F,
-1759383947055284,00000094,false,Rx,0,8,80,00,00,00,00,00,03,00,
-1759383947055042,0000009D,false,Rx,0,8,80,08,80,70,00,08,00,00,
-1759383947054792,000001AF,false,Rx,0,8,00,00,00,00,00,00,00,00,
-1759383947054552,000003AB,false,Rx,0,8,00,00,00,01,73,4C,00,00,
-1759383947052762,000000C1,false,Rx,0,8,00,00,00,00,00,00,00,00,
-1759383947052510,000000C5,false,Rx,0,8,00,00,00,00,00,00,00,00,
-1759383947052258,000000F1,false,Rx,0,8,00,00,00,00,00,00,00,00,
-1759383947052022,000001C7,false,Rx,0,8,0C,AF,33,51,00,18,00,00,
-1759383947051798,000001E1,false,Rx,0,7,40,BF,01,00,00,00,00,00,
-1759383947051566,000001E5,false,Rx,0,8,46,7F,62,98,00,80,95,E3,
-1759383947050184,00000163,false,Rx,0,8,42,05,40,02,08,00,00,00,
-1759383947048704,000003A2,false,Rx,0,8,01,8F,10,7C,03,FF,00,1E,
-1759383947048464,0000039F,false,Rx,0,8,3C,70,00,B6,0F,57,0F,AD,
-1759383947048217,000003A4,false,Rx,0,8,00,00,11,00,07,00,00,00,
-1759383947047393,000000AC,false,Rx,0,8,04,70,68,A8,02,00,00,B6,
-1759383947047153,000000AF,false,Rx,0,8,00,00,28,00,00,61,FA,B3,
-1759383947046981,000000C7,false,Rx,0,4,00,00,00,00,00,00,00,00,
-1759383947046745,000000FB,false,Rx,0,8,11,FF,00,30,AB,62,05,FB,
-1759383947046507,0000019C,false,Rx,0,8,06,A0,26,A0,7F,FE,06,7F,
-1759383947046263,00000297,false,Rx,0,8,00,03,00,00,00,00,20,00,
-1759383947046019,000002EF,false,Rx,0,8,FF,10,00,00,00,00,00,00,
-1759383947045505,0000009D,false,Rx,0,8,90,09,80,70,00,07,00,00,
-1759383947045259,00000094,false,Rx,0,8,80,00,00,00,00,00,03,00,
-1759383947042945,000000C1,false,Rx,0,8,10,00,00,00,10,00,00,00,
-1759383947042699,000000C5,false,Rx,0,8,10,00,00,00,10,00,00,00,
-1759383947042447,000000F1,false,Rx,0,8,00,00,00,00,00,00,00,00,
-1759383947042207,00000165,false,Rx,0,8,00,00,06,A0,E5,7E,02,00,
-1759383947041959,00000166,false,Rx,0,8,00,00,00,00,00,00,00,00,
-1759383947041711,00000167,false,Rx,0,8,0C,10,00,00,00,00,00,00,
-1759383947041515,00000169,false,Rx,0,6,3B,19,60,F7,74,40,00,00,
-1759383947041285,0000017D,false,Rx,0,7,20,20,00,00,00,00,00,00,
-1759383947041117,00000185,false,Rx,0,4,00,03,00,03,00,00,00,00,
-1759383947040867,000001A9,false,Rx,0,8,00,00,00,00,00,00,00,00,
-1759383947040621,000001B6,false,Rx,0,8,00,01,00,00,00,00,08,CF,
-1759383947040385,000001C7,false,Rx,0,8,0C,AF,73,50,00,1A,00,00,
-1759383947040155,000001E5,false,Rx,0,8,46,7F,62,A8,00,80,94,91,
-1759383947039907,000001E9,false,Rx,0,8,00,00,00,08,00,00,00,00,
-1759383947039663,000001F1,false,Rx,0,8,0E,00,00,00,08,75,00,00,
-1759383947039527,000001F2,false,Rx,0,2,20,00,00,00,00,00,00,00,
-1759383947039281,000001FC,false,Rx,0,8,00,44,00,2D,00,00,00,00,
-1759383947039031,000001FD,false,Rx,0,8,00,00,00,00,00,00,00,00,
-1759383947038815,00000214,false,Rx,0,6,00,00,00,00,00,00,00,00,
-1759383947038563,0000021C,false,Rx,0,8,00,00,00,00,00,00,00,00,
-1759383947038331,00000227,false,Rx,0,8,75,30,00,70,8A,CC,80,00,
-1759383947038199,0000022A,false,Rx,0,2,00,70,00,00,00,00,00,00,
-1759383947037945,00000230,false,Rx,0,8,00,00,00,00,00,00,00,00,
-1759383947037695,0000023D,false,Rx,0,8,00,00,00,00,00,00,00,00,
-1759383947037447,00000242,false,Rx,0,8,00,00,00,00,00,08,00,00,
-1759383947037195,00000244,false,Rx,0,8,00,00,20,04,00,00,00,00,
-1759383947036957,000000AC,false,Rx,0,8,04,70,78,A8,02,00,00,A6,
-1759383947036719,000000AF,false,Rx,0,8,00,00,24,00,00,71,F9,AC,
-1759383947036547,000000C7,false,Rx,0,4,00,00,00,00,00,00,00,00,
-1759383947036311,000000FB,false,Rx,0,8,11,FF,00,30,AB,71,05,FA,
-1759383947036067,0000014F,false,Rx,0,8,FE,38,00,00,00,00,00,00,
-1759383947035822,00000194,false,Rx,0,8,0F,0F,00,01,00,00,00,00,
-1759383947035590,00000196,false,Rx,0,8,75,30,75,30,10,00,75,30,
-1759383947035344,00000094,false,Rx,0,8,80,00,00,00,00,00,03,00,
-1759383947035106,0000009D,false,Rx,0,8,A0,0A,80,70,00,06,00,00,
-1759383947034868,0000019C,false,Rx,0,8,06,A0,26,A0,7F,FE,07,7F,
-1759383947034618,000001AF,false,Rx,0,8,00,00,00,00,00,00,00,00,
-1759383947034370,00000246,false,Rx,0,8,00,00,00,00,00,00,00,00,
-1759383947034118,000002F4,false,Rx,0,8,00,00,00,00,00,00,00,00,
-1759383947033872,000002F6,false,Rx,0,8,80,00,00,00,00,01,00,00,
-1759383947033624,000002FD,false,Rx,0,8,7D,00,00,00,00,00,00,00,
-1759383947033384,0000030B,false,Rx,0,8,00,00,00,00,06,38,06,38,
-1759383947033146,00000319,false,Rx,0,8,80,6C,00,00,2C,A1,00,00,
-1759383947032914,0000031A,false,Rx,0,8,0A,A0,00,17,57,42,90,66,
-1759383947032664,000000C1,false,Rx,0,8,20,00,00,00,20,00,00,00,
-1759383947032416,000000C5,false,Rx,0,8,20,00,00,00,20,00,00,00,
-1759383947032164,000000F1,false,Rx,0,8,00,00,00,00,00,00,00,00,
-1759383947031922,000001C7,false,Rx,0,8,0C,AF,B3,4F,00,1C,00,00,
-1759383947031690,000001E5,false,Rx,0,8,46,7F,64,B8,00,80,91,BC,
-1759383947031448,0000031B,false,Rx,0,8,00,00,B6,18,00,00,00,00,
-1759383947031198,0000032E,false,Rx,0,8,00,00,00,00,00,00,00,00,
-1759383947030950,00000336,false,Rx,0,8,00,00,00,00,00,00,00,00,
-1759383947030700,00000343,false,Rx,0,8,00,00,00,00,00,00,00,00,
-1759383947030448,00000348,false,Rx,0,8,00,00,00,00,00,00,00,00,
-1759383947030198,0000034A,false,Rx,0,8,00,00,00,00,00,00,00,00,
-1759383947029958,00000163,false,Rx,0,8,43,05,40,02,08,00,00,00,
-1759383947029708,0000034C,false,Rx,0,8,00,00,00,00,00,00,00,00,
-1759383947029458,0000034F,false,Rx,0,8,00,00,00,00,00,00,00,01,
-1759383947029208,00000353,false,Rx,0,8,00,00,00,00,00,00,00,00,
-1759383947028956,00000361,false,Rx,0,8,00,00,00,00,00,00,00,00,
-1759383947028706,00000364,false,Rx,0,8,00,00,00,00,00,00,00,22,
-1759383947028462,00000372,false,Rx,0,8,00,00,00,00,00,69,00,00,
-1759383947028214,00000373,false,Rx,0,8,00,00,00,00,00,00,00,00,
-1759383947027964,00000376,false,Rx,0,8,00,00,00,00,00,00,00,00,
-1759383947027724,00000379,false,Rx,0,8,64,00,00,6D,00,00,00,00,
-1759383947027486,000003AC,false,Rx,0,8,02,91,02,82,06,3E,4E,2D,
-1759383947027240,000003FA,false,Rx,0,8,1E,3E,1E,3E,00,00,00,00,
-1759383947027006,000000AC,false,Rx,0,8,04,70,88,A8,02,00,00,56,
-1759383947026764,000000AF,false,Rx,0,8,00,00,20,00,00,81,F8,59,
-1759383947026592,000000C7,false,Rx,0,4,00,00,00,00,00,00,00,00,
-1759383947026352,000000FB,false,Rx,0,8,11,FF,00,30,AB,80,05,F9,
-1759383947026114,0000019C,false,Rx,0,8,06,A0,26,A0,7F,FE,08,7F,
-1759383947025865,0000046A,false,Rx,0,8,00,00,00,00,00,40,00,00,
-1759383947025627,00000541,false,Rx,0,8,19,0A,03,0A,2E,58,00,00,
-1759383947025381,00000094,false,Rx,0,8,80,00,00,00,00,00,03,00,
-1759383947055346,00000194,false,Rx,1,8,00,00,00,01,00,00,00,00,
-1759383947055133,00000094,false,Rx,1,8,7F,FF,24,00,7F,FF,03,27,
-1759383947054877,00000099,false,Rx,1,8,A0,84,80,04,00,5D,00,FD,
-1759383947054621,0000014B,false,Rx,1,8,01,90,00,00,00,00,00,00,
-1759383947054407,00000196,false,Rx,1,8,00,00,00,00,00,00,00,00,
-1759383947054151,00000295,false,Rx,1,8,46,3E,00,02,91,4E,2D,88,
-1759383947053895,0000019F,false,Rx,1,8,00,00,00,00,00,00,00,00,
-1759383947053639,00000393,false,Rx,1,8,00,00,00,00,00,00,00,00,
-1759383947053383,000003C2,false,Rx,1,8,7F,FF,FD,77,00,12,05,32,
-1759383947051591,00000173,false,Rx,1,8,00,00,C3,C8,0D,02,0D,00,
-1759383947051335,0000033F,false,Rx,1,8,57,12,00,DC,28,20,00,48,
-1759383947048349,0000033B,false,Rx,1,8,80,00,00,42,00,00,00,00,
-1759383947048093,0000033D,false,Rx,1,8,13,6D,60,20,00,18,00,40,
-1759383947047880,00000323,false,Rx,1,8,00,00,00,00,00,01,00,00,
-1759383947047624,00000324,false,Rx,1,8,70,4E,01,43,48,00,00,44,
-1759383947047368,000003B7,false,Rx,1,8,00,00,00,00,00,0F,3A,35,
-1759383947047154,00000491,false,Rx,1,8,13,6D,00,00,00,00,00,00,
-1759383947046898,00000088,false,Rx,1,8,00,00,08,00,00,00,00,00,
-1759383947046642,0000008A,false,Rx,1,8,7F,FF,00,04,00,02,34,B2,
-1759383947046429,0000008E,false,Rx,1,8,5D,05,04,00,13,88,04,C3,
-1759383947046173,0000008F,false,Rx,1,8,00,00,00,00,00,00,00,00,
-1759383947045917,000000DF,false,Rx,1,8,00,00,00,00,00,00,08,00,
-1759383947045661,000000FB,false,Rx,1,8,00,00,00,00,00,00,00,00,
-1759383947045405,00000172,false,Rx,1,8,60,21,0A,60,21,0A,00,00,
-1759383947045192,00000094,false,Rx,1,8,7F,FF,2C,00,7F,FF,03,2F,
-1759383947044936,00000099,false,Rx,1,8,A0,85,80,04,00,5D,00,FC,
-1759383947044722,0000014B,false,Rx,1,8,01,90,00,00,00,00,00,00,
-1759383947044466,00000299,false,Rx,1,8,63,E7,D0,FF,FF,83,00,00,
-1759383947044210,000003C0,false,Rx,1,8,57,12,DC,00,00,00,00,00,
-1759383947043997,000003C2,false,Rx,1,8,7F,FF,FD,71,00,12,05,32,
-1759383947041522,00000297,false,Rx,1,8,01,03,E0,40,F4,E0,A1,17,
-1759383947041309,00000171,false,Rx,1,8,00,30,11,B0,60,43,7A,C8,
-1759383947041053,00000336,false,Rx,1,8,00,00,00,00,00,00,00,00,
-1759383947040797,00000356,false,Rx,1,8,00,00,00,1E,3E,00,00,00,
-1759383947040541,00000358,false,Rx,1,8,00,00,00,00,00,00,00,00,
-1759383947040328,00000391,false,Rx,1,8,00,02,B0,00,D0,00,50,00,
-1759383947040072,000003FC,false,Rx,1,8,1E,3E,00,00,00,00,00,00,
-1759383947039816,0000041D,false,Rx,1,8,00,00,00,00,00,00,00,FE,
-1759383947036787,00000088,false,Rx,1,8,00,00,08,00,00,00,00,00,
-1759383947036573,0000008A,false,Rx,1,8,7F,FF,00,04,00,02,35,B3,
-1759383947036317,0000008E,false,Rx,1,8,5D,05,04,00,13,88,05,C2,
-1759383947036061,0000008F,false,Rx,1,8,00,00,00,00,00,00,00,00,
-1759383947035805,000000DF,false,Rx,1,8,00,00,00,00,00,00,08,00,
-1759383947035592,000000FB,false,Rx,1,8,00,00,00,00,00,00,00,00,
-1759383947035336,00000194,false,Rx,1,8,00,00,00,01,00,00,00,00,
-1759383947035080,00000094,false,Rx,1,8,7F,FF,34,00,7F,FF,03,37,
-1759383947034867,00000099,false,Rx,1,8,A0,86,80,04,00,5D,00,FF,
-1759383947034611,0000014B,false,Rx,1,8,01,90,00,00,00,00,00,00,
-1759383947034355,00000196,false,Rx,1,8,00,00,00,00,00,00,00,00,
-1759383947034099,00000295,false,Rx,1,8,56,3E,00,02,91,4E,2D,98,
-1759383947033885,0000019F,false,Rx,1,8,00,00,00,00,00,00,00,00,
-1759383947033629,0000029B,false,Rx,1,8,3B,96,6D,00,FD,10,00,00,
-1759383947033373,00000334,false,Rx,1,8,00,00,00,00,00,00,00,00,
-1759383947033160,000003C2,false,Rx,1,8,7F,FF,FD,6A,00,12,05,32,
-1759383947031582,00000293,false,Rx,1,8,8F,00,B3,36,01,40,00,00,
-1759383947031368,00000173,false,Rx,1,8,00,00,C3,C8,0D,02,0D,00,
-1759383947031112,000003AC,false,Rx,1,8,00,90,02,82,10,B2,08,00,
-1759383947026888,00000088,false,Rx,1,8,00,00,08,00,00,00,00,00,
-1759383947026632,0000008A,false,Rx,1,8,7F,FF,00,04,00,02,36,B0,
-1759383947026419,0000008E,false,Rx,1,8,5D,05,04,00,13,88,06,C1,
-1759383947026163,0000008F,false,Rx,1,8,00,00,00,00,00,00,00,00,
-1759383947025907,000000DF,false,Rx,1,8,00,00,00,00,00,00,08,00,
-1759383947025651,000000FB,false,Rx,1,8,00,00,00,00,00,00,00,00,
-1759383947025438,00000172,false,Rx,1,8,60,21,0A,60,21,0A,00,00,
-1759383947025143,0000009D,false,Rx,0,8,B0,0B,80,70,00,05,00,00,
-1759383947022611,000000C1,false,Rx,0,8,30,00,00,00,30,00,00,00,
-1759383947022365,000000C5,false,Rx,0,8,30,00,00,00,30,00,00,00,
-1759383947022113,000000F1,false,Rx,0,8,00,00,00,00,00,00,00,00,
-1759383947021871,00000165,false,Rx,0,8,00,00,06,A0,E5,7D,03,00,
-1759383947021623,00000166,false,Rx,0,8,00,00,00,00,00,00,00,00,
-1759383947021375,00000167,false,Rx,0,8,0C,10,00,00,00,00,00,00,
-1759383947021179,00000169,false,Rx,0,6,3B,19,60,F7,74,40,00,00,
-1759383947021011,00000185,false,Rx,0,4,00,03,00,03,00,00,00,00,
-1759383947020761,000001A9,false,Rx,0,8,00,00,00,00,00,00,00,00,
-1759383947020519,000001B6,false,Rx,0,8,00,01,00,00,00,00,09,D2,
-1759383947020283,000001C7,false,Rx,0,8,0C,AF,F3,4E,00,1E,00,00,
-1759383947020059,000001E1,false,Rx,0,7,40,BE,02,00,00,00,00,00,
-1759383947019827,000001E5,false,Rx,0,8,46,7F,64,C8,00,80,90,5A,
-1759383947019579,000001E9,false,Rx,0,8,00,00,00,08,00,00,00,00,
-1759383947019335,000001F1,false,Rx,0,8,0E,00,00,00,08,75,00,00,
-1759383947019199,000001F2,false,Rx,0,2,20,00,00,00,00,00,00,00,
-1759383947018949,000001FD,false,Rx,0,8,00,00,00,00,00,00,00,00,
-1759383947018715,00000227,false,Rx,0,8,75,30,00,80,8A,CC,00,00,
-1759383947018583,0000022A,false,Rx,0,2,00,70,00,00,00,00,00,00,
-1759383947018329,00000230,false,Rx,0,8,00,00,00,00,00,00,00,00,
-1759383947018081,00000242,false,Rx,0,8,00,00,00,00,00,08,00,00,
-1759383947017829,00000244,false,Rx,0,8,00,00,20,04,00,00,00,00,
-1759383947017581,00000246,false,Rx,0,8,00,00,00,00,00,00,00,00,
-1759383947017333,0000029B,false,Rx,0,8,00,00,00,00,00,00,00,00,
-1759383947017099,000000AC,false,Rx,0,8,04,70,98,A8,02,00,00,46,
-1759383947016859,000000AF,false,Rx,0,8,00,00,1C,00,00,91,F7,7A,
-1759383947016687,000000C7,false,Rx,0,4,00,00,00,00,00,00,00,00,
-1759383947016447,000000FB,false,Rx,0,8,11,FF,00,30,AB,9F,05,F8,
-1759383947016201,0000014F,false,Rx,0,8,FE,48,00,00,00,00,00,00,
-1759383947015957,00000194,false,Rx,0,8,0F,0F,00,01,00,00,00,00,
-1759383947015725,00000196,false,Rx,0,8,75,30,75,30,10,00,75,30,
-1759383947015483,0000019C,false,Rx,0,8,06,A0,26,A0,7F,FF,09,7F,
-1759383947015237,00000094,false,Rx,0,8,80,00,00,00,00,00,03,00,
-1759383947014992,0000009D,false,Rx,0,8,C0,0C,80,70,00,04,00,00,
-1759383947014742,000001AF,false,Rx,0,8,00,00,00,00,00,00,00,00,
-1759383947014496,000002E7,false,Rx,0,8,08,00,00,00,00,00,0D,05,
-1759383947014258,00000391,false,Rx,0,8,02,02,B0,00,D0,00,50,00,
-1759383947012636,000000C1,false,Rx,0,8,00,00,00,00,00,00,00,00,
-1759383947012384,000000C5,false,Rx,0,8,00,00,00,00,00,00,00,00,
-1759383947012132,000000F1,false,Rx,0,8,00,00,00,00,00,00,00,00,
-1759383947011896,000001C7,false,Rx,0,8,0C,AF,33,51,00,00,00,00,
-1759383947011664,000001E5,false,Rx,0,8,46,7F,62,D8,00,80,91,03,
-1759383947010206,00000163,false,Rx,0,8,40,05,40,02,08,00,00,00,
-1759383947007522,000000AC,false,Rx,0,8,04,70,A8,A8,02,00,00,76,
-1759383947007282,000000AF,false,Rx,0,8,00,00,18,00,00,A1,F6,4F,
-1759383947007110,000000C7,false,Rx,0,4,00,00,00,00,00,00,00,00,
-1759383947006874,000000FB,false,Rx,0,8,11,FF,00,30,AB,AE,05,F7,
-1759383947006633,0000019C,false,Rx,0,8,06,A0,26,A0,7F,FF,0A,7F,
-1759383947005465,0000009D,false,Rx,0,8,D0,0D,80,70,00,03,00,00,
-1759383947005219,00000094,false,Rx,0,8,80,00,00,00,00,00,03,00,
-1759383947002900,000000C1,false,Rx,0,8,10,00,00,00,10,00,00,00,
-1759383947002653,000000C5,false,Rx,0,8,10,00,00,00,10,00,00,00,
-1759383947002401,000000F1,false,Rx,0,8,00,00,00,00,00,00,00,00,
-1759383947002161,00000165,false,Rx,0,8,00,00,06,A0,E5,7C,04,00,
-1759383947001913,00000166,false,Rx,0,8,00,00,00,00,00,00,00,00,
-1759383947001665,00000167,false,Rx,0,8,0C,10,00,00,00,00,00,00,
-1759383947001469,00000169,false,Rx,0,6,3B,19,60,F7,74,40,00,00,
-1759383947001301,00000185,false,Rx,0,4,00,03,00,02,00,00,00,00,
-1759383947001051,000001A9,false,Rx,0,8,00,00,00,00,00,00,00,00,
-1759383947000809,000001B6,false,Rx,0,8,00,01,00,00,00,00,0A,F5,
-1759383947000572,000001C7,false,Rx,0,8,0C,AF,73,50,00,02,00,00,
-1759383947000342,000001E5,false,Rx,0,8,46,7F,64,E8,00,80,8E,7B,
-1759383947000094,000001E9,false,Rx,0,8,00,00,00,08,00,00,00,00,
-1759383946999850,000001F1,false,Rx,0,8,0E,00,00,00,08,75,00,00,
-1759383946999714,000001F2,false,Rx,0,2,20,00,00,00,00,00,00,00,
-1759383946999463,000001FD,false,Rx,0,8,00,00,00,00,00,00,00,00,
-1759383946999231,00000227,false,Rx,0,8,75,30,00,90,8A,CB,80,00,
-1759383946999100,0000022A,false,Rx,0,2,00,70,00,00,00,00,00,00,
-1759383946998846,00000230,false,Rx,0,8,00,00,00,00,00,00,00,00,
-1759383946998598,00000242,false,Rx,0,8,00,00,00,00,00,08,00,00,
-1759383946998346,00000244,false,Rx,0,8,00,00,20,04,00,00,00,00,
-1759383946998098,00000246,false,Rx,0,8,00,00,00,00,00,00,00,00,
-1759383946997011,000000AC,false,Rx,0,8,04,70,B8,A8,02,00,00,66,
-1759383946996771,000000AF,false,Rx,0,8,00,00,14,00,00,B1,F5,50,
-1759383946996599,000000C7,false,Rx,0,4,00,00,00,00,00,00,00,00,
-1759383946996363,000000FB,false,Rx,0,8,11,FF,00,30,AB,BD,05,F6,
-1759383946996115,0000014F,false,Rx,0,8,FE,58,00,00,00,00,00,00,
-1759383946995871,00000194,false,Rx,0,8,0F,0F,00,01,00,00,00,00,
-1759383946995639,00000196,false,Rx,0,8,75,30,75,30,10,00,75,30,
-1759383946995401,0000009D,false,Rx,0,8,E0,0E,80,70,00,02,00,00,
-1759383946995155,00000094,false,Rx,0,8,80,00,00,00,00,00,03,00,
-1759383946994915,0000019C,false,Rx,0,8,06,A0,26,A0,7F,FE,0B,7F,
-1759383946994664,000001AF,false,Rx,0,8,00,00,00,00,00,00,00,00,
-1759383946994420,00000297,false,Rx,0,8,00,03,00,00,00,00,20,00,
-1759383946994188,000002A2,false,Rx,0,8,6C,6C,20,00,41,67,00,BB,
-1759383946993942,000002EF,false,Rx,0,8,FE,20,00,00,00,00,00,00,
-1759383946993696,0000030C,false,Rx,0,8,C8,30,00,00,00,00,00,01,
-1759383947025182,00000094,false,Rx,1,8,80,00,3C,00,80,00,03,3F,
-1759383947024926,00000099,false,Rx,1,8,A0,87,80,04,00,5D,00,FE,
-1759383947024712,0000014B,false,Rx,1,8,01,8F,00,00,00,00,00,00,
-1759383947024456,000003BC,false,Rx,1,8,00,00,00,00,00,00,00,00,
-1759383947024200,000003C2,false,Rx,1,8,7F,FF,FC,F7,00,12,05,32,
-1759383947021513,000003B8,false,Rx,1,8,00,00,00,00,00,00,00,00,
-1759383947021257,00000171,false,Rx,1,8,00,30,15,B0,60,43,7A,CC,
-1759383947016819,00000088,false,Rx,1,8,00,00,08,00,00,00,00,00,
-1759383947016606,0000008A,false,Rx,1,8,80,00,00,04,00,02,37,B1,
-1759383947016350,0000008E,false,Rx,1,8,5D,05,04,00,13,88,07,C0,
-1759383947016094,0000008F,false,Rx,1,8,00,00,00,00,00,00,00,00,
-1759383947015881,000000DF,false,Rx,1,8,00,00,00,00,00,00,08,00,
-1759383947015625,000000FB,false,Rx,1,8,00,00,00,00,00,00,00,00,
-1759383947015369,00000194,false,Rx,1,8,00,00,00,01,00,00,00,00,
-1759383947015113,00000094,false,Rx,1,8,80,00,44,00,80,00,03,47,
-1759383947014900,00000099,false,Rx,1,8,A0,88,80,04,00,5D,00,F1,
-1759383947014644,0000014B,false,Rx,1,8,01,90,00,00,00,00,00,00,
-1759383947014388,00000196,false,Rx,1,8,00,00,00,00,00,00,00,00,
-1759383947014174,00000295,false,Rx,1,8,66,3E,00,02,91,4E,2D,A8,
-1759383947013918,0000019F,false,Rx,1,8,00,00,00,00,00,00,00,00,
-1759383947013662,000003C2,false,Rx,1,8,7F,FF,FB,3A,00,12,05,32,
-1759383947011572,00000173,false,Rx,1,8,00,00,C3,C8,0D,02,0D,00,
-1759383947007262,00000088,false,Rx,1,8,00,00,08,00,00,00,00,00,
-1759383947007006,0000008A,false,Rx,1,8,80,00,00,04,00,02,38,BE,
-1759383947006793,0000008E,false,Rx,1,8,5D,05,04,00,13,88,08,CF,
-1759383947006537,0000008F,false,Rx,1,8,00,00,00,00,00,00,00,00,
-1759383947006281,000000DF,false,Rx,1,8,00,00,00,00,00,00,08,00,
-1759383947006025,000000FB,false,Rx,1,8,00,00,00,00,00,00,00,00,
-1759383947005812,00000172,false,Rx,1,8,60,21,0A,60,21,0A,00,00,
-1759383947005385,000003C2,false,Rx,1,8,7F,FF,F8,0A,00,12,05,32,
-1759383947005129,00000094,false,Rx,1,8,7F,FF,4C,00,7F,FF,03,4F,
-1759383947004916,00000099,false,Rx,1,8,A0,89,80,04,00,5D,00,F0,
-1759383947004660,0000014B,false,Rx,1,8,01,90,00,00,00,00,00,00,
-1759383947001631,00000171,false,Rx,1,8,00,30,19,B0,60,43,7A,C0,
-1759383946996724,00000088,false,Rx,1,8,00,00,08,00,00,00,00,00,
-1759383946996468,0000008A,false,Rx,1,8,7F,FF,00,04,00,02,39,BF,
-1759383946996255,0000008E,false,Rx,1,8,5D,05,04,00,13,88,09,CE,
-1759383946995999,0000008F,false,Rx,1,8,00,00,00,00,00,00,00,00,
-1759383946995743,000000DF,false,Rx,1,8,00,00,00,00,00,00,08,00,
-1759383946995487,000000FB,false,Rx,1,8,00,00,00,00,00,00,00,00,
-1759383946995231,00000295,false,Rx,1,8,76,3E,00,02,91,4E,2F,BA,
-1759383946995018,00000094,false,Rx,1,8,80,00,54,00,80,00,03,57,
-1759383946994762,00000099,false,Rx,1,8,A0,8A,80,04,00,5D,00,F3,
-1759383946994548,0000014B,false,Rx,1,8,01,90,00,00,00,00,00,00,
-1759383946994292,00000299,false,Rx,1,8,63,E7,D0,FF,FF,83,00,00,
-1759383946994036,000002A0,false,Rx,1,8,10,00,00,00,6B,00,00,7B,
-1759383946993780,000002B5,false,Rx,1,8,D0,82,32,80,00,00,00,E0,
-1759383946993448,00000389,false,Rx,0,8,00,00,00,00,00,14,00,00,
-1759383946993206,0000038B,false,Rx,0,8,1B,00,01,00,00,3C,03,E8,
-1759383946992958,000003A3,false,Rx,0,8,00,00,00,00,00,00,00,00,
-1759383946992716,00000400,false,Rx,0,8,71,26,02,00,00,40,06,00,
-1759383946992466,000000C1,false,Rx,0,8,20,00,00,00,20,00,00,00,
-1759383946992218,000000C5,false,Rx,0,8,20,00,00,00,20,00,00,00,
-1759383946991966,000000F1,false,Rx,0,8,00,00,00,00,00,00,00,00,
-1759383946991730,000001C7,false,Rx,0,8,0C,AF,B3,4F,00,04,00,00,
-1759383946991506,000001E1,false,Rx,0,7,40,BD,03,00,00,00,00,00,
-1759383946991270,000001E5,false,Rx,0,8,46,7F,64,F8,00,80,8D,79,
-1759383946991024,000001FC,false,Rx,0,8,00,44,00,17,00,00,40,00,
-1759383946990814,00000214,false,Rx,0,6,02,00,00,00,00,00,00,00,
-1759383946990562,0000021C,false,Rx,0,8,00,00,00,00,00,00,00,00,
-1759383946990312,0000023D,false,Rx,0,8,00,00,00,00,00,00,00,00,
-1759383946990070,00000163,false,Rx,0,8,41,05,40,02,08,00,00,00,
-1759383946989818,000002F4,false,Rx,0,8,00,00,00,00,00,00,00,00,
-1759383946989572,000002F6,false,Rx,0,8,80,00,00,00,00,01,00,00,
-1759383946989324,000002FD,false,Rx,0,8,7D,00,00,00,00,00,00,00,
-1759383946989072,00000348,false,Rx,0,8,00,00,00,00,00,00,00,00,
-1759383946988822,0000034A,false,Rx,0,8,00,00,00,00,00,00,00,00,
-1759383946988572,00000418,false,Rx,0,8,00,00,00,00,00,00,00,80,
-1759383946988324,00000419,false,Rx,0,8,00,00,00,90,00,00,03,F1,
-1759383946988076,0000046A,false,Rx,0,8,00,00,00,00,00,40,00,00,
-1759383946987188,000000AC,false,Rx,0,8,04,70,C8,A8,02,00,00,16,
-1759383946986946,000000AF,false,Rx,0,8,00,00,10,00,00,C1,F4,25,
-1759383946986774,000000C7,false,Rx,0,4,00,00,00,00,00,00,00,00,
-1759383946986538,000000FB,false,Rx,0,8,11,FF,00,30,AB,CC,05,F5,
-1759383946986297,0000019C,false,Rx,0,8,06,A0,26,A0,7F,FF,0C,7F,
-1759383946985443,0000009D,false,Rx,0,8,F0,0F,80,70,00,01,00,00,
-1759383946985198,00000094,false,Rx,0,8,80,00,00,00,00,00,03,00,
-1759383946982921,000000C1,false,Rx,0,8,30,00,00,00,30,00,00,00,
-1759383946982676,000000C5,false,Rx,0,8,30,00,00,00,30,00,00,00,
-1759383946982424,000000F1,false,Rx,0,8,00,00,00,00,00,00,00,00,
-1759383946982188,00000165,false,Rx,0,8,00,00,06,A0,E5,7B,05,00,
-1759383946981940,00000166,false,Rx,0,8,00,00,00,00,00,00,00,00,
-1759383946981692,00000167,false,Rx,0,8,0C,10,00,00,00,00,00,00,
-1759383946981495,00000169,false,Rx,0,6,3B,19,60,F7,74,40,00,00,
-1759383946981327,00000185,false,Rx,0,4,00,03,00,02,00,00,00,00,
-1759383946981077,000001A9,false,Rx,0,8,00,00,00,00,00,00,00,00,
-1759383946980833,000001B6,false,Rx,0,8,00,01,00,00,00,00,0B,E8,
-1759383946980595,000001C7,false,Rx,0,8,0C,AF,F3,4E,00,06,00,00,
-1759383946980364,000001E5,false,Rx,0,8,46,7F,64,08,00,80,9C,67,
-1759383946980116,000001E9,false,Rx,0,8,00,00,00,08,00,00,00,00,
-1759383946979872,000001F1,false,Rx,0,8,0E,00,00,00,08,75,00,00,
-1759383946979736,000001F2,false,Rx,0,2,20,00,00,00,00,00,00,00,
-1759383946979486,000001FD,false,Rx,0,8,00,00,00,00,00,00,00,00,
-1759383946979252,00000227,false,Rx,0,8,75,30,00,A0,8A,CB,00,00,
-1759383946979120,0000022A,false,Rx,0,2,00,70,00,00,00,00,00,00,
-1759383946978866,00000230,false,Rx,0,8,00,00,00,00,00,00,00,00,
-1759383946978618,00000242,false,Rx,0,8,00,00,00,00,00,08,00,00,
-1759383946978366,00000244,false,Rx,0,8,00,00,20,04,00,00,00,00,
-1759383946978118,00000246,false,Rx,0,8,00,00,00,00,00,00,00,00,
-1759383946977087,000000AC,false,Rx,0,8,04,70,D8,A8,02,00,00,06,
-1759383946976849,000000AF,false,Rx,0,8,00,00,0C,00,00,D1,F3,2E,
-1759383946976677,000000C7,false,Rx,0,4,00,00,00,00,00,00,00,00,
-1759383946976439,000000FB,false,Rx,0,8,11,FF,00,30,AB,DB,05,F4,
-1759383946976195,0000014F,false,Rx,0,8,FE,68,00,00,00,00,00,00,
-1759383946975951,00000194,false,Rx,0,8,0F,0F,00,01,00,00,00,00,
-1759383946975719,00000196,false,Rx,0,8,75,30,75,30,10,00,75,30,
-1759383946975479,0000019C,false,Rx,0,8,06,A0,26,A0,7F,FE,0D,7F,
-1759383946975233,00000094,false,Rx,0,8,80,00,00,00,00,00,03,00,
-1759383946974987,0000009D,false,Rx,0,8,00,00,80,70,00,00,00,00,
-1759383946974737,000001AF,false,Rx,0,8,00,00,00,00,00,00,00,00,
-1759383946974489,0000039B,false,Rx,0,8,00,00,00,00,00,00,00,00,
-1759383946974241,000003A8,false,Rx,0,8,00,00,00,FF,C3,FF,CB,FF,
-1759383946972581,000000C1,false,Rx,0,8,00,00,00,00,00,00,00,00,
-1759383946972329,000000C5,false,Rx,0,8,00,00,00,00,00,00,00,00,
-1759383946972077,000000F1,false,Rx,0,8,00,00,00,00,00,00,00,00,
-1759383946971841,000001C7,false,Rx,0,8,0C,AF,33,51,00,08,00,00,
-1759383946971609,000001E5,false,Rx,0,8,46,7F,64,18,00,80,9B,11,
-1759383946971361,0000029B,false,Rx,0,8,00,00,00,00,00,00,00,00,
-1759383946970211,00000163,false,Rx,0,8,42,05,40,02,08,00,00,00,
-1759383946967455,000000AC,false,Rx,0,8,04,70,E8,A8,02,00,00,36,
-1759383946967217,000000AF,false,Rx,0,8,00,00,08,00,00,E1,F2,1B,
-1759383946967045,000000C7,false,Rx,0,4,00,00,00,00,00,00,00,00,
-1759383946966807,000000FB,false,Rx,0,8,11,FF,00,30,AB,EA,05,F3,
-1759383946966567,0000019C,false,Rx,0,8,06,A0,26,A0,7F,FF,0E,7F,
-1759383946965441,00000094,false,Rx,0,8,80,00,00,00,00,00,03,00,
-1759383946965199,0000009D,false,Rx,0,8,10,01,80,70,00,0F,00,00,
-1759383946964542,000002E7,false,Rx,0,8,08,00,00,00,00,00,0E,06,
-1759383946962920,000000C1,false,Rx,0,8,10,00,00,00,10,00,00,00,
-1759383946962674,000000C5,false,Rx,0,8,10,00,00,00,10,00,00,00,
-1759383946962422,000000F1,false,Rx,0,8,00,00,00,00,00,00,00,00,
-1759383946962184,00000165,false,Rx,0,8,00,00,06,A0,E5,7A,06,00,
-1759383946961936,00000166,false,Rx,0,8,00,00,00,00,00,00,00,00,
-1759383946961688,00000167,false,Rx,0,8,0C,10,00,00,00,00,00,00,
-1759383946961492,00000169,false,Rx,0,6,3B,19,60,F7,74,40,00,00,
-1759383946961324,00000185,false,Rx,0,4,00,03,00,03,00,00,00,00,
-1759383946961074,000001A9,false,Rx,0,8,00,00,00,00,00,00,00,00,
-1759383946960830,000001B6,false,Rx,0,8,00,01,00,00,00,00,0C,BB,
-1759383946960592,000001C7,false,Rx,0,8,0C,AF,73,50,00,0A,00,00,
-1759383946960366,000001E1,false,Rx,0,7,40,C0,00,00,00,00,00,00,
-1759383946960136,000001E5,false,Rx,0,8,46,7F,64,28,00,80,9A,63,
-1759383946959888,000001E9,false,Rx,0,8,00,00,00,08,00,00,00,00,
-1759383946959644,000001F1,false,Rx,0,8,0E,00,00,00,08,75,00,00,
-1759383946993567,000002B6,false,Rx,1,8,D0,00,00,01,C4,E0,70,85,
-1759383946993311,00000394,false,Rx,1,8,00,35,00,00,10,35,00,10,
-1759383946993098,000003C2,false,Rx,1,8,7F,FF,F5,FB,00,12,05,32,
-1759383946992842,00000194,false,Rx,1,8,00,00,00,01,00,00,00,00,
-1759383946992586,00000400,false,Rx,1,8,71,26,02,00,00,40,06,00,
-1759383946992330,00000196,false,Rx,1,8,00,00,00,00,00,00,00,00,
-1759383946992116,00000418,false,Rx,1,8,A0,00,00,00,00,00,00,00,
-1759383946991860,0000019F,false,Rx,1,8,00,00,00,00,00,00,00,00,
-1759383946991604,0000039A,false,Rx,1,8,00,35,02,00,1F,C0,00,00,
-1759383946991348,00000173,false,Rx,1,8,00,00,C3,C8,0D,02,0D,00,
-1759383946991135,00000297,false,Rx,1,8,01,03,E0,40,F4,E0,A2,14,
-1759383946990879,0000029C,false,Rx,1,8,28,D7,04,00,00,DC,57,12,
-1759383946986911,00000088,false,Rx,1,8,00,00,08,00,00,00,00,00,
-1759383946986698,0000008A,false,Rx,1,8,80,00,00,04,00,02,3A,BC,
-1759383946986442,0000008E,false,Rx,1,8,5D,05,04,00,13,88,0A,CD,
-1759383946986186,0000008F,false,Rx,1,8,00,00,00,00,00,00,00,00,
-1759383946985930,000000DF,false,Rx,1,8,00,00,00,00,00,00,08,00,
-1759383946985674,000000FB,false,Rx,1,8,00,00,00,00,00,00,00,00,
-1759383946985461,00000172,false,Rx,1,8,60,21,0A,60,21,0A,00,00,
-1759383946985205,00000094,false,Rx,1,8,7F,FF,5C,00,7F,FF,03,5F,
-1759383946984991,00000099,false,Rx,1,8,A0,8B,80,04,00,5D,00,F2,
-1759383946984735,0000014B,false,Rx,1,8,01,90,00,00,00,00,00,00,
-1759383946984479,0000029B,false,Rx,1,8,3B,96,6D,00,FD,10,00,00,
-1759383946984266,00000322,false,Rx,1,8,00,00,00,20,00,00,00,00,
-1759383946984010,000003C2,false,Rx,1,8,7F,FF,F5,B3,00,12,05,32,
-1759383946981621,00000293,false,Rx,1,8,8F,00,B3,36,01,40,00,00,
-1759383946981365,00000171,false,Rx,1,8,00,30,1D,B0,60,43,7A,C4,
-1759383946981237,0000044C,false,Rx,1,1,01,00,00,00,00,00,00,00,
-1759383946976800,00000088,false,Rx,1,8,00,00,08,00,00,00,00,00,
-1759383946976544,0000008A,false,Rx,1,8,7F,FF,00,04,00,02,3B,BD,
-1759383946976288,0000008E,false,Rx,1,8,5D,05,04,00,13,88,0B,CC,
-1759383946976074,0000008F,false,Rx,1,8,00,00,00,00,00,00,00,00,
-1759383946975818,000000DF,false,Rx,1,8,00,00,00,00,00,00,08,00,
-1759383946975562,000000FB,false,Rx,1,8,00,00,00,00,00,00,00,00,
-1759383946975306,00000194,false,Rx,1,8,00,00,00,01,00,00,00,00,
-1759383946975050,00000094,false,Rx,1,8,80,00,64,00,7F,FF,03,67,
-1759383946974837,00000099,false,Rx,1,8,A0,8C,80,04,00,5D,00,F5,
-1759383946974581,0000014B,false,Rx,1,8,01,90,00,00,00,00,00,00,
-1759383946974325,00000196,false,Rx,1,8,00,00,00,00,00,00,00,00,
-1759383946974112,00000295,false,Rx,1,8,86,3D,00,02,91,4E,49,2F,
-1759383946973856,0000019F,false,Rx,1,8,00,00,00,00,00,00,00,00,
-1759383946973600,000002A2,false,Rx,1,8,6C,00,20,B6,00,67,00,BB,
-1759383946973386,00000396,false,Rx,1,8,3D,6D,4E,28,C0,46,47,47,
-1759383946973130,0000039B,false,Rx,1,8,3D,3B,84,00,00,00,04,86,
-1759383946972917,000003A6,false,Rx,1,8,00,00,00,00,00,00,00,00,
-1759383946972661,000003BF,false,Rx,1,8,28,00,30,00,28,00,30,00,
-1759383946972405,000003C2,false,Rx,1,8,7F,FF,F5,D4,00,12,05,32,
-1759383946972192,000003DE,false,Rx,1,8,01,F3,01,F4,01,F2,01,F4,
-1759383946971936,000003E2,false,Rx,1,8,1F,B0,18,B2,72,74,69,6A,
-1759383946971680,00000464,false,Rx,1,8,08,00,08,00,00,00,00,00,
-1759383946971467,00000173,false,Rx,1,8,00,00,C3,C8,0D,02,0D,00,
-1759383946971211,00000402,false,Rx,1,8,00,00,00,00,00,05,00,00,
-1759383946970955,00000468,false,Rx,1,8,28,00,30,00,28,00,30,00,
-1759383946970741,00000469,false,Rx,1,8,28,00,30,00,28,00,30,00,
-1759383946970485,0000046B,false,Rx,1,8,0B,A4,00,F9,05,82,01,47,
-1759383946970272,0000046C,false,Rx,1,8,06,B3,00,00,00,00,00,AB,
-1759383946970016,0000046D,false,Rx,1,8,42,1D,42,1D,00,11,01,02,
-1759383946969760,0000046F,false,Rx,1,8,00,00,00,00,00,20,00,00,
-1759383946969547,00000692,false,Rx,1,8,28,00,00,00,00,00,00,00,
-1759383946967200,00000088,false,Rx,1,8,00,00,08,00,00,00,00,00,
-1759383946966944,0000008A,false,Rx,1,8,80,00,00,04,00,02,3C,BA,
-1759383946966731,0000008E,false,Rx,1,8,5D,05,04,00,13,88,0C,CB,
-1759383946966475,0000008F,false,Rx,1,8,00,00,00,00,00,00,00,00,
-1759383946966219,000000DF,false,Rx,1,8,00,00,00,00,00,00,08,00,
-1759383946965963,000000FB,false,Rx,1,8,00,00,00,00,00,00,00,00,
-1759383946965707,00000172,false,Rx,1,8,60,21,0A,60,21,0A,00,00,
-1759383946965493,000003BA,false,Rx,1,8,03,0B,19,46,00,00,00,00,
-1759383946965237,000003C2,false,Rx,1,8,7F,FF,F6,11,00,12,05,32,
-1759383946965024,00000094,false,Rx,1,8,80,00,6C,00,80,00,03,6F,
-1759383946964768,00000099,false,Rx,1,8,A0,8D,80,04,00,5D,00,F4,
-1759383946964512,0000014B,false,Rx,1,8,01,90,00,00,00,00,00,00,
-1759383946961611,00000171,false,Rx,1,8,00,30,21,B0,60,43,7A,F8,
-1759383946961355,000003AB,false,Rx,1,8,00,01,14,2D,73,4C,00,00,
-1759383946959508,000001F2,false,Rx,0,2,20,00,00,00,00,00,00,00,
-1759383946959258,000001FD,false,Rx,0,8,00,00,00,00,00,00,00,00,
-1759383946959026,00000227,false,Rx,0,8,75,30,00,B0,8A,CA,80,00,
-1759383946958894,0000022A,false,Rx,0,2,00,70,00,00,00,00,00,00,
-1759383946958640,00000230,false,Rx,0,8,00,00,00,00,00,00,00,00,
-1759383946958392,00000242,false,Rx,0,8,00,00,00,00,00,08,00,00,
-1759383946958140,00000244,false,Rx,0,8,00,00,20,04,00,00,00,00,
-1759383946957892,00000246,false,Rx,0,8,00,00,00,00,00,00,00,00,
-1759383946957086,000000AC,false,Rx,0,8,04,70,F8,A8,02,00,00,26,
-1759383946956844,000000AF,false,Rx,0,8,00,00,04,00,00,F1,F1,04,
-1759383946956672,000000C7,false,Rx,0,4,00,00,00,00,00,00,00,00,
-1759383946956432,000000FB,false,Rx,0,8,11,FF,00,30,AB,F9,05,F2,
-1759383946956188,0000014F,false,Rx,0,8,FE,78,00,00,00,00,00,00,
-1759383946955944,00000194,false,Rx,0,8,0F,0F,00,01,00,00,00,00,
-1759383946955712,00000196,false,Rx,0,8,75,30,75,30,10,00,75,30,
-1759383946955468,0000019C,false,Rx,0,8,06,A0,26,A0,7F,FF,0F,7F,
-1759383946955222,00000094,false,Rx,0,8,80,00,00,00,00,00,03,00,
-1759383946954980,0000009D,false,Rx,0,8,20,02,80,70,00,0E,00,00,
-1759383946954729,000001AF,false,Rx,0,8,00,00,00,00,00,00,00,00,
-1759383946954490,000003AB,false,Rx,0,8,00,00,00,01,73,4C,00,00,
-1759383946952774,000000C1,false,Rx,0,8,20,00,00,00,20,00,00,00,
-1759383946952526,000000C5,false,Rx,0,8,20,00,00,00,20,00,00,00,
-1759383946952274,000000F1,false,Rx,0,8,00,00,00,00,00,00,00,00,
-1759383946952036,000001C7,false,Rx,0,8,0C,AF,B3,4F,00,0C,00,00,
-1759383946951804,000001E5,false,Rx,0,8,46,7F,64,38,00,80,99,61,
-1759383946950202,00000163,false,Rx,0,8,43,05,40,02,08,00,00,00,
-1759383946948700,000003A2,false,Rx,0,8,01,8F,10,40,03,FF,00,22,
-1759383946948462,0000039F,false,Rx,0,8,3C,70,00,B6,0F,57,00,A2,
-1759383946948216,000003A4,false,Rx,0,8,00,00,11,00,07,00,00,00,
-1759383946947449,000000AC,false,Rx,0,8,04,70,08,A8,02,00,00,D6,
-1759383946947201,000000AF,false,Rx,0,8,00,00,00,00,00,00,00,00,
-1759383946947029,000000C7,false,Rx,0,4,00,00,00,00,00,00,00,00,
-1759383946946789,000000FB,false,Rx,0,8,11,FF,00,30,AB,08,06,01,
-1759383946946549,0000019C,false,Rx,0,8,06,A0,26,A0,7F,FE,00,7F,
-1759383946946305,00000297,false,Rx,0,8,00,03,00,00,00,00,20,00,
-1759383946946059,000002EF,false,Rx,0,8,FD,30,00,00,00,00,00,00,
-1759383946945449,00000094,false,Rx,0,8,80,00,00,00,00,00,03,00,
-1759383946945205,0000009D,false,Rx,0,8,30,03,80,70,00,0D,00,00,
-1759383946942935,000000C1,false,Rx,0,8,30,00,00,00,30,00,00,00,
-1759383946942689,000000C5,false,Rx,0,8,30,00,00,00,30,00,00,00,
-1759383946942437,000000F1,false,Rx,0,8,00,00,00,00,00,00,00,00,
-1759383946942197,00000165,false,Rx,0,8,00,00,06,A0,E5,79,07,00,
-1759383946941949,00000166,false,Rx,0,8,00,00,00,00,00,00,00,00,
-1759383946941701,00000167,false,Rx,0,8,0C,10,00,00,00,00,00,00,
-1759383946941505,00000169,false,Rx,0,6,3B,19,60,F7,74,40,00,00,
-1759383946941275,0000017D,false,Rx,0,7,20,20,00,00,00,00,00,00,
-1759383946941107,00000185,false,Rx,0,4,00,03,00,05,00,00,00,00,
-1759383946940857,000001A9,false,Rx,0,8,00,00,00,00,00,00,00,00,
-1759383946940613,000001B6,false,Rx,0,8,00,01,00,00,00,00,0D,A6,
-1759383946940377,000001C7,false,Rx,0,8,0C,AF,F3,4E,00,0E,00,00,
-1759383946940147,000001E5,false,Rx,0,8,46,7F,62,48,00,80,9A,DC,
-1759383946939899,000001E9,false,Rx,0,8,00,00,00,08,00,00,00,00,
-1759383946939655,000001F1,false,Rx,0,8,0E,00,00,00,08,75,00,00,
-1759383946939519,000001F2,false,Rx,0,2,20,00,00,00,00,00,00,00,
-1759383946939273,000001FC,false,Rx,0,8,00,44,00,44,00,00,80,00,
-1759383946939023,000001FD,false,Rx,0,8,00,00,00,00,00,00,00,00,
-1759383946938813,00000214,false,Rx,0,6,04,00,00,00,00,00,00,00,
-1759383946938561,0000021C,false,Rx,0,8,00,00,00,00,00,00,00,00,
-1759383946938325,00000227,false,Rx,0,8,75,30,00,C0,8A,CA,00,00,
-1759383946938193,0000022A,false,Rx,0,2,00,70,00,00,00,00,00,00,
-1759383946937939,00000230,false,Rx,0,8,00,00,00,00,00,00,00,00,
-1759383946937689,0000023D,false,Rx,0,8,00,00,00,00,00,00,00,00,
-1759383946937441,00000242,false,Rx,0,8,00,00,00,00,00,08,00,00,
-1759383946937189,00000244,false,Rx,0,8,00,00,20,04,00,00,00,00,
-1759383946936951,000000AC,false,Rx,0,8,04,70,18,A8,02,00,00,C6,
-1759383946936704,000000AF,false,Rx,0,8,00,00,3C,00,00,11,FF,D2,
-1759383946936532,000000C7,false,Rx,0,4,00,00,00,00,00,00,00,00,
-1759383946936292,000000FB,false,Rx,0,8,11,FF,00,30,AB,17,06,00,
-1759383946936048,0000014F,false,Rx,0,8,FE,88,00,00,00,00,00,00,
-1759383946935804,00000194,false,Rx,0,8,0F,0F,00,01,00,00,00,00,
-1759383946935572,00000196,false,Rx,0,8,75,30,75,30,10,00,75,30,
-1759383946935326,00000094,false,Rx,0,8,80,00,00,00,00,00,03,00,
-1759383946935086,0000009D,false,Rx,0,8,40,04,80,70,00,0C,00,00,
-1759383946934848,0000019C,false,Rx,0,8,06,A0,26,A0,7F,FE,01,7F,
-1759383946934598,000001AF,false,Rx,0,8,00,00,00,00,00,00,00,00,
-1759383946934350,00000246,false,Rx,0,8,00,00,00,00,00,00,00,00,
-1759383946934098,000002F4,false,Rx,0,8,00,00,00,00,00,00,00,00,
-1759383946933852,000002F6,false,Rx,0,8,80,00,00,00,00,01,00,00,
-1759383946933604,000002FD,false,Rx,0,8,7D,00,00,00,00,00,00,00,
-1759383946933364,0000030B,false,Rx,0,8,00,00,00,00,06,38,06,38,
-1759383946933126,00000319,false,Rx,0,8,80,6C,00,00,2C,A1,00,00,
-1759383946932894,0000031A,false,Rx,0,8,0A,A0,00,17,57,42,90,66,
-1759383946932644,000000C1,false,Rx,0,8,00,00,00,00,00,00,00,00,
-1759383946932392,000000C5,false,Rx,0,8,00,00,00,00,00,00,00,00,
-1759383946932140,000000F1,false,Rx,0,8,00,00,00,00,00,00,00,00,
-1759383946931904,000001C7,false,Rx,0,8,0C,AF,33,51,00,10,00,00,
-1759383946931680,000001E1,false,Rx,0,7,40,BF,01,00,00,00,00,00,
-1759383946931450,000001E5,false,Rx,0,8,46,7F,64,58,00,80,97,19,
-1759383946956790,00000088,false,Rx,1,8,00,00,08,00,00,00,00,00,
-1759383946956534,0000008A,false,Rx,1,8,80,00,00,04,00,02,3D,BB,
-1759383946956320,0000008E,false,Rx,1,8,5D,05,04,00,13,88,0D,CA,
-1759383946956064,0000008F,false,Rx,1,8,00,00,00,00,00,00,00,00,
-1759383946955808,000000DF,false,Rx,1,8,00,00,00,00,00,00,08,00,
-1759383946955553,000000FB,false,Rx,1,8,00,00,00,00,00,00,00,00,
-1759383946955297,00000194,false,Rx,1,8,00,00,00,01,00,00,00,00,
-1759383946955083,00000094,false,Rx,1,8,7F,FF,74,00,7F,FF,03,77,
-1759383946954827,00000099,false,Rx,1,8,A0,8E,80,04,00,5D,00,F7,
-1759383946954571,0000014B,false,Rx,1,8,01,90,00,00,00,00,00,00,
-1759383946954315,00000196,false,Rx,1,8,00,00,00,00,00,00,00,00,
-1759383946954102,00000295,false,Rx,1,8,96,3D,00,02,91,4E,56,20,
-1759383946953846,0000019F,false,Rx,1,8,00,00,00,00,00,00,00,00,
-1759383946953590,00000393,false,Rx,1,8,00,00,00,00,00,00,00,00,
-1759383946953377,000003C2,false,Rx,1,8,7F,FF,F5,C9,00,12,05,32,
-1759383946951585,00000173,false,Rx,1,8,00,00,C3,C8,0D,02,0D,00,
-1759383946951329,0000033F,false,Rx,1,8,57,12,00,DC,28,20,00,48,
-1759383946948342,0000033B,false,Rx,1,8,80,00,00,42,00,00,00,00,
-1759383946948086,00000323,false,Rx,1,8,00,00,00,00,00,01,00,00,
-1759383946947873,00000324,false,Rx,1,8,70,4E,01,43,48,00,00,44,
-1759383946947617,0000033D,false,Rx,1,8,12,6D,60,20,00,17,FF,40,
-1759383946947361,000003B7,false,Rx,1,8,00,00,00,00,00,00,35,35,
-1759383946947105,00000088,false,Rx,1,8,00,00,08,00,00,00,00,00,
-1759383946946892,0000008A,false,Rx,1,8,7F,FF,00,04,00,02,3E,B8,
-1759383946946636,0000008E,false,Rx,1,8,5D,05,04,00,13,88,0E,C9,
-1759383946946380,0000008F,false,Rx,1,8,00,00,00,00,00,00,00,00,
-1759383946946166,000000DF,false,Rx,1,8,00,00,00,00,00,00,08,00,
-1759383946945910,000000FB,false,Rx,1,8,00,00,00,00,00,00,00,00,
-1759383946945654,00000172,false,Rx,1,8,60,21,0A,60,21,0A,00,00,
-1759383946945441,00000299,false,Rx,1,8,63,D7,D0,FF,FF,83,00,00,
-1759383946945185,00000094,false,Rx,1,8,7F,FF,7C,00,7F,FF,03,7F,
-1759383946944929,00000099,false,Rx,1,8,A0,8F,80,04,00,5D,00,F6,
-1759383946944716,0000014B,false,Rx,1,8,01,8F,00,00,00,00,00,00,
-1759383946944460,000003C0,false,Rx,1,8,57,12,DC,00,00,1F,C0,00,
-1759383946944204,000003C2,false,Rx,1,8,7F,FF,F5,2F,00,12,05,32,
-1759383946943990,00000491,false,Rx,1,8,12,6D,00,00,00,00,00,00,
-1759383946941516,00000297,false,Rx,1,8,01,03,E0,40,F4,E0,A3,15,
-1759383946941302,00000171,false,Rx,1,8,00,30,25,B0,60,43,7A,FC,
-1759383946941046,00000336,false,Rx,1,8,00,00,00,00,00,00,00,00,
-1759383946940790,00000356,false,Rx,1,8,00,00,00,1E,3E,00,00,00,
-1759383946940534,00000358,false,Rx,1,8,00,00,00,00,00,00,00,00,
-1759383946940321,00000391,false,Rx,1,8,00,02,B0,00,D0,00,50,00,
-1759383946940065,000003FC,false,Rx,1,8,1E,3E,00,00,00,00,00,00,
-1759383946939894,0000041F,false,Rx,1,3,02,70,01,00,00,00,00,00,
-1759383946936780,00000088,false,Rx,1,8,00,00,08,00,00,00,00,00,
-1759383946936481,0000008A,false,Rx,1,8,7F,FF,00,04,00,02,3F,B9,
-1759383946936268,0000008E,false,Rx,1,8,5D,05,04,00,13,88,0F,C8,
-1759383946936055,0000008F,false,Rx,1,8,00,00,00,00,00,00,00,00,
-1759383946935799,000000DF,false,Rx,1,8,00,00,00,00,00,00,08,00,
-1759383946935543,000000FB,false,Rx,1,8,00,00,00,00,00,00,00,00,
-1759383946935287,00000194,false,Rx,1,8,00,00,00,01,00,00,00,00,
-1759383946935031,00000094,false,Rx,1,8,7F,FF,04,00,7F,FF,03,07,
-1759383946934775,00000099,false,Rx,1,8,A0,80,80,04,00,5D,00,F9,
-1759383946934561,0000014B,false,Rx,1,8,01,8F,00,00,00,00,00,00,
-1759383946934305,00000196,false,Rx,1,8,00,00,00,00,00,00,00,00,
-1759383946934092,00000295,false,Rx,1,8,A6,3D,00,02,91,4E,53,15,
-1759383946933836,0000019F,false,Rx,1,8,00,00,00,00,00,00,00,00,
-1759383946933580,0000029B,false,Rx,1,8,3B,96,6D,00,FD,10,00,00,
-1759383946933324,00000334,false,Rx,1,8,00,00,00,00,00,00,00,00,
-1759383946933111,000003C2,false,Rx,1,8,7F,FF,F5,6E,00,12,05,32,
-1759383946931575,00000293,false,Rx,1,8,8F,00,B3,36,01,40,00,00,
-1759383946931361,00000173,false,Rx,1,8,00,00,C3,C8,0D,00,0C,FD,
-1759383946931105,000003AC,false,Rx,1,8,00,90,02,82,10,B2,08,00,
-1759383946931208,0000031B,false,Rx,0,8,00,00,B6,18,00,00,00,00,
-1759383946930958,0000032E,false,Rx,0,8,00,00,00,00,00,00,00,00,
-1759383946930710,00000336,false,Rx,0,8,00,00,00,00,00,00,00,00,
-1759383946930460,00000343,false,Rx,0,8,00,00,00,00,00,00,00,00,
-1759383946930208,00000348,false,Rx,0,8,00,00,00,00,00,00,00,00,
-1759383946929964,00000163,false,Rx,0,8,40,05,40,02,08,00,00,00,
-1759383946929714,0000034A,false,Rx,0,8,00,00,00,00,00,00,00,00,
-1759383946929464,0000034C,false,Rx,0,8,00,00,00,00,00,00,00,00,
-1759383946929214,0000034F,false,Rx,0,8,00,00,00,00,00,00,00,01,
-1759383946928964,00000353,false,Rx,0,8,00,00,00,00,00,00,00,00,
-1759383946928712,00000361,false,Rx,0,8,00,00,00,00,00,00,00,00,
-1759383946928462,00000364,false,Rx,0,8,00,00,00,00,00,00,00,22,
-1759383946928218,00000372,false,Rx,0,8,00,00,00,00,00,69,00,00,
-1759383946927970,00000373,false,Rx,0,8,00,00,00,00,00,00,00,00,
-1759383946927720,00000376,false,Rx,0,8,00,00,00,00,00,00,00,00,
-1759383946927480,00000379,false,Rx,0,8,64,00,00,6D,00,00,00,00,
-1759383946927242,000003AC,false,Rx,0,8,02,91,02,82,06,3E,4E,2D,
-1759383946927006,000000AC,false,Rx,0,8,04,70,28,A8,02,00,00,F6,
-1759383946926766,000000AF,false,Rx,0,8,00,00,38,00,00,21,FE,E7,
-1759383946926594,000000C7,false,Rx,0,4,00,00,00,00,00,00,00,00,
-1759383946926357,000000FB,false,Rx,0,8,11,FF,00,30,AB,26,05,FF,
-1759383946926115,0000019C,false,Rx,0,8,06,A0,26,A0,7F,FE,02,7F,
-1759383946925870,000003FA,false,Rx,0,8,1E,3E,1E,3E,00,00,00,00,
-1759383946925622,0000046A,false,Rx,0,8,00,00,00,00,00,40,00,00,
-1759383946925376,00000094,false,Rx,0,8,80,00,00,00,00,00,03,00,
-1759383946925136,0000009D,false,Rx,0,8,50,05,80,70,00,0B,00,00,
-1759383946922468,000000C1,false,Rx,0,8,10,00,00,00,10,00,00,00,
-1759383946922222,000000C5,false,Rx,0,8,10,00,00,00,10,00,00,00,
-1759383946921970,000000F1,false,Rx,0,8,00,00,00,00,00,00,00,00,
-1759383946921728,00000165,false,Rx,0,8,00,00,06,A0,E5,78,08,00,
-1759383946921480,00000166,false,Rx,0,8,00,00,00,00,00,00,00,00,
-1759383946921232,00000167,false,Rx,0,8,0C,10,00,00,00,00,00,00,
-1759383946921036,00000169,false,Rx,0,6,3B,19,60,F7,74,40,00,00,
-1759383946920868,00000185,false,Rx,0,4,00,03,00,07,00,00,00,00,
-1759383946920618,000001A9,false,Rx,0,8,00,00,00,00,00,00,00,00,
-1759383946920374,000001B6,false,Rx,0,8,00,01,00,00,00,00,0E,81,
-1759383946920138,000001C7,false,Rx,0,8,0C,AF,73,50,00,12,00,00,
-1759383946919908,000001E5,false,Rx,0,8,46,7F,64,68,00,80,96,6B,
-1759383946919660,000001E9,false,Rx,0,8,00,00,00,08,00,00,00,00,
-1759383946919416,000001F1,false,Rx,0,8,0E,00,00,00,08,75,00,00,
-1759383946919280,000001F2,false,Rx,0,2,20,00,00,00,00,00,00,00,
-1759383946919030,000001FD,false,Rx,0,8,00,00,00,00,00,00,00,00,
-1759383946918796,00000227,false,Rx,0,8,75,30,00,D0,8A,C9,80,00,
-1759383946918664,0000022A,false,Rx,0,2,00,70,00,00,00,00,00,00,
-1759383946918410,00000230,false,Rx,0,8,00,00,00,00,00,00,00,00,
-1759383946918162,00000242,false,Rx,0,8,00,00,00,00,00,08,00,00,
-1759383946917910,00000244,false,Rx,0,8,00,00,20,04,00,00,00,00,
-1759383946917662,00000246,false,Rx,0,8,00,00,00,00,00,00,00,00,
-1759383946917413,0000029B,false,Rx,0,8,00,00,00,00,00,00,00,00,
-1759383946917115,000000AC,false,Rx,0,8,04,70,38,A8,02,00,00,E6,
-1759383946916873,000000AF,false,Rx,0,8,00,00,34,00,00,31,FD,F8,
-1759383946916701,000000C7,false,Rx,0,4,00,00,00,00,00,00,00,00,
-1759383946916465,000000FB,false,Rx,0,8,11,FF,00,30,AB,35,05,FE,
-1759383946916221,0000014F,false,Rx,0,8,FE,98,00,00,00,00,00,00,
-1759383946915977,00000194,false,Rx,0,8,0F,0F,00,01,00,00,00,00,
-1759383946915745,00000196,false,Rx,0,8,75,30,75,30,10,00,75,30,
-1759383946915507,0000019C,false,Rx,0,8,06,A0,26,A0,7F,FE,03,7F,
-1759383946915261,00000094,false,Rx,0,8,80,00,00,00,00,00,03,00,
-1759383946915019,0000009D,false,Rx,0,8,60,06,80,70,00,0A,00,00,
-1759383946914769,000001AF,false,Rx,0,8,00,00,00,00,00,00,00,00,
-1759383946914522,000002E7,false,Rx,0,8,08,00,00,00,00,00,0F,07,
-1759383946914284,00000391,false,Rx,0,8,02,02,B0,00,D0,00,50,00,
-1759383946912652,000000C1,false,Rx,0,8,20,00,00,00,20,00,00,00,
-1759383946912404,000000C5,false,Rx,0,8,20,00,00,00,20,00,00,00,
-1759383946912152,000000F1,false,Rx,0,8,00,00,00,00,00,00,00,00,
-1759383946911916,000001C7,false,Rx,0,8,0C,AF,B3,4F,00,14,00,00,
-1759383946911686,000001E5,false,Rx,0,8,46,7F,64,78,00,80,95,69,
-1759383946910016,00000163,false,Rx,0,8,41,05,40,02,08,00,00,00,
-1759383946907440,000000AC,false,Rx,0,8,04,70,48,A8,02,00,00,96,
-1759383946907198,000000AF,false,Rx,0,8,00,00,30,00,00,41,FC,8D,
-1759383946907026,000000C7,false,Rx,0,4,00,00,00,00,00,00,00,00,
-1759383946906790,000000FB,false,Rx,0,8,11,FF,00,30,AB,44,05,FD,
-1759383946906552,0000019C,false,Rx,0,8,06,A0,26,A0,7F,FE,04,7F,
-1759383946905430,00000094,false,Rx,0,8,80,00,00,00,00,00,03,00,
-1759383946905192,0000009D,false,Rx,0,8,70,07,80,70,00,09,00,00,
-1759383946902826,000000C1,false,Rx,0,8,30,00,00,00,30,00,00,00,
-1759383946902580,000000C5,false,Rx,0,8,30,00,00,00,30,00,00,00,
-1759383946902328,000000F1,false,Rx,0,8,00,00,00,00,00,00,00,00,
-1759383946902094,00000165,false,Rx,0,8,00,00,06,A0,E5,77,09,00,
-1759383946901846,00000166,false,Rx,0,8,00,00,00,00,00,00,00,00,
-1759383946901598,00000167,false,Rx,0,8,0C,10,00,00,00,00,00,00,
-1759383946901402,00000169,false,Rx,0,6,3B,19,60,F7,74,40,00,00,
-1759383946901234,00000185,false,Rx,0,4,00,03,00,03,00,00,00,00,
-1759383946900984,000001A9,false,Rx,0,8,00,00,00,00,00,00,00,00,
-1759383946900740,000001B6,false,Rx,0,8,00,01,00,00,00,00,0F,9C,
-1759383946900502,000001C7,false,Rx,0,8,0C,AF,F3,4E,00,16,00,00,
-1759383946900278,000001E1,false,Rx,0,7,40,BE,02,00,00,00,00,00,
-1759383946900046,000001E5,false,Rx,0,8,46,7F,62,88,00,80,96,E1,
-1759383946899798,000001E9,false,Rx,0,8,00,00,00,08,00,00,00,00,
-1759383946899554,000001F1,false,Rx,0,8,0E,00,00,00,08,75,00,00,
-1759383946926882,00000088,false,Rx,1,8,00,00,08,00,00,00,00,00,
-1759383946926668,0000008A,false,Rx,1,8,7F,FF,00,04,00,02,30,B6,
-1759383946926412,0000008E,false,Rx,1,8,5D,05,04,00,13,88,00,C7,
-1759383946926156,0000008F,false,Rx,1,8,00,00,00,00,00,00,00,00,
-1759383946925900,000000DF,false,Rx,1,8,00,00,00,00,00,00,08,00,
-1759383946925644,000000FB,false,Rx,1,8,00,00,00,00,00,00,00,00,
-1759383946925431,00000172,false,Rx,1,8,60,21,0A,60,21,0A,00,00,
-1759383946925175,00000094,false,Rx,1,8,7F,FF,0C,00,7F,FF,03,0F,
-1759383946924962,00000099,false,Rx,1,8,A0,81,80,04,00,5D,00,F8,
-1759383946924706,0000014B,false,Rx,1,8,01,90,00,00,00,00,00,00,
-1759383946924450,000003BC,false,Rx,1,8,00,00,00,00,00,00,00,00,
-1759383946924194,000003C2,false,Rx,1,8,7F,FF,F5,E6,00,12,05,32,
-1759383946921549,000003B8,false,Rx,1,8,00,00,00,00,00,00,00,00,
-1759383946921293,00000171,false,Rx,1,8,00,30,29,B0,60,43,7A,F0,
-1759383946916813,00000088,false,Rx,1,8,00,00,08,00,00,00,00,00,
-1759383946916599,0000008A,false,Rx,1,8,7F,FF,00,04,00,02,31,B7,
-1759383946916343,0000008E,false,Rx,1,8,5D,05,04,00,13,88,01,C6,
-1759383946916087,0000008F,false,Rx,1,8,00,00,00,00,00,00,00,00,
-1759383946915874,000000DF,false,Rx,1,8,00,00,00,00,00,00,08,00,
-1759383946915618,000000FB,false,Rx,1,8,00,00,00,00,00,00,00,00,
-1759383946915362,00000194,false,Rx,1,8,00,00,00,01,00,00,00,00,
-1759383946915106,00000094,false,Rx,1,8,7F,FF,14,00,7F,FF,03,17,
-1759383946914893,00000099,false,Rx,1,8,A0,82,80,04,00,5D,00,FB,
-1759383946914637,0000014B,false,Rx,1,8,01,90,00,00,00,00,00,00,
-1759383946914381,00000196,false,Rx,1,8,00,00,00,00,00,00,00,00,
-1759383946914167,00000295,false,Rx,1,8,B6,3D,00,02,91,4E,58,0E,
-1759383946913911,0000019F,false,Rx,1,8,00,00,00,00,00,00,00,00,
-1759383946913655,000003C2,false,Rx,1,8,7F,FF,F7,1B,00,12,05,32,
-1759383946911565,00000173,false,Rx,1,8,00,00,C3,C8,0D,00,0C,FD,
-1759383946907170,00000088,false,Rx,1,8,00,00,08,00,00,00,00,00,
-1759383946906914,0000008A,false,Rx,1,8,7F,FF,00,04,00,02,32,B4,
-1759383946906701,0000008E,false,Rx,1,8,5D,05,04,00,13,88,02,C5,
-1759383946906445,0000008F,false,Rx,1,8,00,00,00,00,00,00,00,00,
-1759383946906189,000000DF,false,Rx,1,8,00,00,00,00,00,00,08,00,
-1759383946905933,000000FB,false,Rx,1,8,00,00,00,00,00,00,00,00,
-1759383946905720,00000172,false,Rx,1,8,60,21,0A,60,21,0A,00,00,
-1759383946905464,000003C2,false,Rx,1,8,7F,FF,F9,FC,00,12,05,32,
-1759383946905208,00000094,false,Rx,1,8,80,00,1C,00,80,00,03,1F,
-1759383946904994,00000099,false,Rx,1,8,A0,83,80,04,00,5D,00,FA,
-1759383946904738,0000014B,false,Rx,1,8,01,90,00,00,00,00,00,00,
-1759383946901624,00000171,false,Rx,1,8,00,30,2D,B0,60,43,7A,F4,
-1759383946899418,000001F2,false,Rx,0,2,20,00,00,00,00,00,00,00,
-1759383946899168,000001FD,false,Rx,0,8,00,00,00,00,00,00,00,00,
-1759383946898934,00000227,false,Rx,0,8,75,30,00,E0,8A,C9,00,00,
-1759383946898802,0000022A,false,Rx,0,2,00,70,00,00,00,00,00,00,
-1759383946898548,00000230,false,Rx,0,8,00,00,00,00,00,00,00,00,
-1759383946898300,00000242,false,Rx,0,8,00,00,00,00,00,08,00,00,
-1759383946898048,00000244,false,Rx,0,8,00,00,20,04,00,00,00,00,
-1759383946897800,00000246,false,Rx,0,8,00,00,00,00,00,00,00,00,
-1759383946897055,000000AC,false,Rx,0,8,04,70,58,A8,02,00,00,86,
-1759383946896817,000000AF,false,Rx,0,8,00,00,2C,00,00,51,FB,86,
-1759383946896645,000000C7,false,Rx,0,4,00,00,00,00,00,00,00,00,
-1759383946896409,000000FB,false,Rx,0,8,11,FF,00,30,AB,53,05,FC,
-1759383946896163,0000014F,false,Rx,0,8,FE,A8,00,00,00,00,00,00,
-1759383946895919,00000194,false,Rx,0,8,0F,0F,00,01,00,00,00,00,
-1759383946895687,00000196,false,Rx,0,8,75,30,75,30,10,00,75,30,
-1759383946895447,0000019C,false,Rx,0,8,06,A0,26,A0,7F,FF,05,7F,
-1759383946895201,00000094,false,Rx,0,8,80,00,00,00,00,00,03,00,
-1759383946894959,0000009D,false,Rx,0,8,80,08,80,70,00,08,00,00,
-1759383946894709,000001AF,false,Rx,0,8,00,00,00,00,00,00,00,00,
-1759383946894464,00000297,false,Rx,0,8,00,03,00,00,00,00,20,00,
-1759383946894232,000002A2,false,Rx,0,8,6C,6C,20,00,41,67,00,BB,
-1759383946893988,000002EF,false,Rx,0,8,FC,40,00,00,00,00,00,00,
-1759383946893742,0000030C,false,Rx,0,8,C8,30,00,00,00,00,00,01,
-1759383946893494,00000389,false,Rx,0,8,00,00,00,00,00,14,00,00,
-1759383946893252,0000038B,false,Rx,0,8,1B,00,01,00,00,3C,03,E8,
-1759383946893004,000003A3,false,Rx,0,8,00,00,00,00,00,00,00,00,
-1759383946892762,00000400,false,Rx,0,8,71,26,02,00,00,40,06,00,
-1759383946892512,000000C1,false,Rx,0,8,00,00,00,00,00,00,00,00,
-1759383946892260,000000C5,false,Rx,0,8,00,00,00,00,00,00,00,00,
-1759383946892008,000000F1,false,Rx,0,8,00,00,00,00,00,00,00,00,
-1759383946891772,000001C7,false,Rx,0,8,0C,AF,33,51,00,18,00,00,
-1759383946891540,000001E5,false,Rx,0,8,46,7F,64,98,00,80,93,CC,
-1759383946891294,000001FC,false,Rx,0,8,00,44,00,2D,00,00,C0,00,
-1759383946891084,00000214,false,Rx,0,6,06,00,00,00,00,00,00,00,
-1759383946890832,0000021C,false,Rx,0,8,00,00,00,00,00,00,00,00,
-1759383946890582,0000023D,false,Rx,0,8,00,00,00,00,00,00,00,00,
-1759383946890330,000002F4,false,Rx,0,8,00,00,00,00,00,00,00,00,
-1759383946890090,00000163,false,Rx,0,8,42,05,40,02,08,00,00,00,
-1759383946889844,000002F6,false,Rx,0,8,80,00,00,00,00,01,00,00,
-1759383946889596,000002FD,false,Rx,0,8,7D,00,00,00,00,00,00,00,
-1759383946889344,00000348,false,Rx,0,8,00,00,00,00,00,00,00,00,
-1759383946889094,0000034A,false,Rx,0,8,00,00,00,00,00,00,00,00,
-1759383946888844,00000418,false,Rx,0,8,00,00,00,00,00,00,00,80,
-1759383946888598,00000419,false,Rx,0,8,00,00,00,90,00,00,03,E2,
-1759383946888350,0000046A,false,Rx,0,8,00,00,00,00,00,40,00,00,
-1759383946887156,000000AC,false,Rx,0,8,04,70,68,A8,02,00,00,B6,
-1759383946886916,000000AF,false,Rx,0,8,00,00,28,00,00,61,FA,B3,
-1759383946886743,000000C7,false,Rx,0,4,00,00,00,00,00,00,00,00,
-1759383946886507,000000FB,false,Rx,0,8,11,FF,00,30,AB,62,05,FB,
-1759383946886267,0000019C,false,Rx,0,8,06,A0,26,A0,7F,FF,06,7F,
-1759383946885435,00000094,false,Rx,0,8,80,00,00,00,00,00,03,00,
-1759383946885197,0000009D,false,Rx,0,8,90,09,80,70,00,07,00,00,
-1759383946882929,000000C1,false,Rx,0,8,10,00,00,00,10,00,00,00,
-1759383946882683,000000C5,false,Rx,0,8,10,00,00,00,10,00,00,00,
-1759383946882431,000000F1,false,Rx,0,8,00,00,00,00,00,00,00,00,
-1759383946882193,00000165,false,Rx,0,8,00,00,06,A0,E5,76,0A,00,
-1759383946881945,00000166,false,Rx,0,8,00,00,00,00,00,00,00,00,
-1759383946881697,00000167,false,Rx,0,8,0C,10,00,00,00,00,00,00,
-1759383946881501,00000169,false,Rx,0,6,3B,19,60,F7,74,40,00,00,
-1759383946881333,00000185,false,Rx,0,4,00,03,00,02,00,00,00,00,
-1759383946881083,000001A9,false,Rx,0,8,00,00,00,00,00,00,00,00,
-1759383946880837,000001B6,false,Rx,0,8,00,01,00,00,00,00,00,27,
-1759383946880601,000001C7,false,Rx,0,8,0C,AF,73,50,00,1A,00,00,
-1759383946880367,000001E5,false,Rx,0,8,46,7F,64,A8,00,80,92,BE,
-1759383946880119,000001E9,false,Rx,0,8,00,00,00,08,00,00,00,00,
-1759383946879875,000001F1,false,Rx,0,8,0E,00,00,00,08,75,00,00,
-1759383946879739,000001F2,false,Rx,0,2,20,00,00,00,00,00,00,00,
-1759383946879489,000001FD,false,Rx,0,8,00,00,00,00,00,00,00,00,
-1759383946879257,00000227,false,Rx,0,8,75,30,00,F0,8A,C8,80,00,
-1759383946879125,0000022A,false,Rx,0,2,00,70,00,00,00,00,00,00,
-1759383946878871,00000230,false,Rx,0,8,00,00,00,00,00,00,00,00,
-1759383946878623,00000242,false,Rx,0,8,00,00,00,00,00,08,00,00,
-1759383946878371,00000244,false,Rx,0,8,00,00,20,04,00,00,00,00,
-1759383946878123,00000246,false,Rx,0,8,00,00,00,00,00,00,00,00,
-1759383946877145,000000AC,false,Rx,0,8,04,70,78,A8,02,00,00,A6,
-1759383946876907,000000AF,false,Rx,0,8,00,00,24,00,00,71,F9,AC,
-1759383946876735,000000C7,false,Rx,0,4,00,00,00,00,00,00,00,00,
-1759383946876499,000000FB,false,Rx,0,8,11,FF,00,30,AB,71,05,FA,
-1759383946876252,0000014F,false,Rx,0,8,FE,B8,00,00,00,00,00,00,
-1759383946876008,00000194,false,Rx,0,8,0F,0F,00,01,00,00,00,00,
-1759383946875776,00000196,false,Rx,0,8,75,30,75,30,10,00,75,30,
-1759383946875538,0000019C,false,Rx,0,8,06,A0,26,A0,7F,FE,07,7F,
-1759383946875292,00000094,false,Rx,0,8,80,00,00,00,00,00,03,00,
-1759383946875054,0000009D,false,Rx,0,8,A0,0A,80,70,00,06,00,00,
-1759383946874804,000001AF,false,Rx,0,8,00,00,00,00,00,00,00,00,
-1759383946874556,0000039B,false,Rx,0,8,00,00,00,00,00,00,00,00,
-1759383946874308,000003A8,false,Rx,0,8,00,00,00,FF,C3,FF,CB,FF,
-1759383946872626,000000C1,false,Rx,0,8,20,00,00,00,20,00,00,00,
-1759383946872378,000000C5,false,Rx,0,8,20,00,00,00,20,00,00,00,
-1759383946872126,000000F1,false,Rx,0,8,00,00,00,00,00,00,00,00,
-1759383946871884,000001C7,false,Rx,0,8,0C,AF,B3,4F,00,1C,00,00,
-1759383946871660,000001E1,false,Rx,0,7,40,BD,03,00,00,00,00,00,
-1759383946871428,000001E5,false,Rx,0,8,46,7F,64,B8,00,80,91,BC,
-1759383946871180,0000029B,false,Rx,0,8,00,00,00,00,00,00,00,00,
-1759383946896717,00000088,false,Rx,1,8,00,00,08,00,00,00,00,00,
-1759383946896504,0000008A,false,Rx,1,8,80,00,00,04,00,02,33,B5,
-1759383946896248,0000008E,false,Rx,1,8,5D,05,04,00,13,88,03,C4,
-1759383946895992,0000008F,false,Rx,1,8,00,00,00,00,00,00,00,00,
-1759383946895736,000000DF,false,Rx,1,8,00,00,00,00,00,00,08,00,
-1759383946895523,000000FB,false,Rx,1,8,00,00,00,00,00,00,00,00,
-1759383946895267,00000295,false,Rx,1,8,C6,3E,00,02,91,4E,53,76,
-1759383946895011,00000094,false,Rx,1,8,80,00,24,00,80,00,03,27,
-1759383946894798,00000099,false,Rx,1,8,A0,84,80,04,00,5D,00,FD,
-1759383946894542,0000014B,false,Rx,1,8,01,90,00,00,00,00,00,00,
-1759383946894328,00000299,false,Rx,1,8,63,D7,D0,FF,FF,83,00,00,
-1759383946894072,000002A0,false,Rx,1,8,20,00,00,00,6C,00,00,4C,
-1759383946893816,000002B5,false,Rx,1,8,E0,82,32,80,00,00,00,D0,
-1759383946893603,000002B6,false,Rx,1,8,E0,00,00,01,C4,E2,71,B6,
-1759383946893347,00000394,false,Rx,1,8,00,35,00,00,10,35,01,11,
-1759383946893134,000003BE,false,Rx,1,8,00,35,09,19,05,59,00,00,
-1759383946892878,00000194,false,Rx,1,8,00,00,00,01,00,00,00,00,
-1759383946892622,000003C2,false,Rx,1,8,7F,FF,FC,57,00,12,05,32,
-1759383946892366,00000196,false,Rx,1,8,00,00,00,00,00,00,00,00,
-1759383946892152,00000400,false,Rx,1,8,71,26,02,00,00,40,06,00,
-1759383946891896,0000019F,false,Rx,1,8,00,00,00,00,00,00,00,00,
-1759383946891640,00000418,false,Rx,1,8,A0,00,00,00,00,00,00,00,
-1759383946891384,00000173,false,Rx,1,8,00,00,C3,C8,0D,00,0C,FD,
-1759383946891171,00000297,false,Rx,1,8,01,03,E0,40,F4,E0,A4,12,
-1759383946890915,0000029C,false,Rx,1,8,28,D7,04,00,00,DC,57,12,
-1759383946890702,0000039A,false,Rx,1,8,00,35,02,00,2F,80,00,00,
-1759383946886905,00000088,false,Rx,1,8,00,00,08,00,00,00,00,00,
-1759383946886649,0000008A,false,Rx,1,8,80,00,00,04,00,02,34,B2,
-1759383946886435,0000008E,false,Rx,1,8,5D,05,04,00,13,88,04,C3,
-1759383946886179,0000008F,false,Rx,1,8,00,00,00,00,00,00,00,00,
-1759383946885923,000000DF,false,Rx,1,8,00,00,00,00,00,00,08,00,
-1759383946885667,000000FB,false,Rx,1,8,00,00,00,00,00,00,00,00,
-1759383946885411,00000172,false,Rx,1,8,60,21,0A,60,21,0A,00,00,
-1759383946885198,00000094,false,Rx,1,8,7F,FF,2C,00,7F,FF,03,2F,
-1759383946884942,00000099,false,Rx,1,8,A0,85,80,04,00,5D,00,FC,
-1759383946884686,0000014B,false,Rx,1,8,01,90,00,00,00,00,00,00,
-1759383946884473,0000029B,false,Rx,1,8,3B,96,6D,00,FD,10,00,00,
-1759383946884217,00000322,false,Rx,1,8,00,00,00,20,00,00,00,00,
-1759383946883961,000003C2,false,Rx,1,8,7F,FF,FB,F1,00,12,05,32,
-1759383946881614,00000293,false,Rx,1,8,8F,00,B3,36,01,40,00,00,
-1759383946881401,00000171,false,Rx,1,8,00,30,31,B0,60,43,7A,E8,
-1759383946881273,0000044C,false,Rx,1,1,01,00,00,00,00,00,00,00,
-1759383946876836,00000088,false,Rx,1,8,00,00,08,00,00,00,00,00,
-1759383946876622,0000008A,false,Rx,1,8,7F,FF,00,04,00,02,35,B3,
-1759383946876366,0000008E,false,Rx,1,8,5D,05,04,00,13,88,05,C2,
-1759383946876110,0000008F,false,Rx,1,8,00,00,00,00,00,00,00,00,
-1759383946875854,000000DF,false,Rx,1,8,00,00,00,00,00,00,08,00,
-1759383946875641,000000FB,false,Rx,1,8,00,00,00,00,00,00,00,00,
-1759383946875385,00000194,false,Rx,1,8,00,00,00,01,00,00,00,00,
-1759383946875129,00000094,false,Rx,1,8,7F,FF,34,00,7F,FF,03,37,
-1759383946874916,00000099,false,Rx,1,8,A0,86,80,04,00,5D,00,FF,
-1759383946874660,0000014B,false,Rx,1,8,01,8F,00,00,00,00,00,00,
-1759383946874404,00000196,false,Rx,1,8,00,00,00,00,00,00,00,00,
-1759383946874190,00000295,false,Rx,1,8,D6,3D,00,02,91,4E,3F,09,
-1759383946873934,0000019F,false,Rx,1,8,00,00,00,00,00,00,00,00,
-1759383946873678,000002A2,false,Rx,1,8,6C,00,20,B6,00,67,00,BB,
-1759383946873465,00000396,false,Rx,1,8,3D,6D,4E,28,C0,46,47,47,
-1759383946873209,0000039B,false,Rx,1,8,3D,3B,84,00,00,00,08,8A,
-1759383946872953,000003A6,false,Rx,1,8,00,00,00,00,00,00,00,00,
-1759383946872740,000003BF,false,Rx,1,8,28,00,30,00,28,00,30,00,
-1759383946872484,000003C2,false,Rx,1,8,7F,FF,F7,BB,00,12,05,32,
-1759383946872270,000003DE,false,Rx,1,8,01,F2,01,F4,01,F2,01,F4,
-1759383946872014,000003E2,false,Rx,1,8,1F,B0,18,B2,72,74,69,6A,
-1759383946871758,00000464,false,Rx,1,8,08,00,08,00,00,00,00,00,
-1759383946871545,00000173,false,Rx,1,8,00,00,C3,C8,0D,00,0C,FD,
-1759383946871289,00000402,false,Rx,1,8,00,00,00,00,00,05,00,00,
-1759383946871033,00000468,false,Rx,1,8,28,00,30,00,28,00,30,00,
-1759383946870777,00000469,false,Rx,1,8,28,00,30,00,28,00,30,00,
-1759383946870564,0000046B,false,Rx,1,8,0B,A4,00,F9,05,81,01,47,
-1759383946870308,0000046C,false,Rx,1,8,06,B3,00,00,00,00,00,AB,
-1759383946870095,0000046D,false,Rx,1,8,42,1F,42,1F,00,11,01,02,
-1759383946869839,0000046F,false,Rx,1,8,00,00,00,00,00,20,00,00,
-1759383946869583,00000692,false,Rx,1,8,28,00,00,00,00,00,00,00,
-1759383946870212,00000163,false,Rx,0,8,43,05,40,02,08,00,00,00,
-1759383946867420,000000AC,false,Rx,0,8,04,70,88,A8,02,00,00,56,
-1759383946867177,000000AF,false,Rx,0,8,00,00,20,00,00,81,F8,59,
-1759383946867005,000000C7,false,Rx,0,4,00,00,00,00,00,00,00,00,
-1759383946866765,000000FB,false,Rx,0,8,11,FF,00,30,AB,80,05,F9,
-1759383946866527,0000019C,false,Rx,0,8,06,A0,26,A0,7F,FE,08,7F,
-1759383946865453,00000094,false,Rx,0,8,80,00,00,00,00,00,03,00,
-1759383946865215,0000009D,false,Rx,0,8,B0,0B,80,70,00,05,00,00,
-1759383946864545,000002E7,false,Rx,0,8,08,00,00,00,00,00,00,08,
-1759383946862919,000000C1,false,Rx,0,8,30,00,00,00,30,00,00,00,
-1759383946862673,000000C5,false,Rx,0,8,30,00,00,00,30,00,00,00,
-1759383946862421,000000F1,false,Rx,0,8,00,00,00,00,00,00,00,00,
-1759383946862185,00000165,false,Rx,0,8,00,00,06,A0,E5,75,0B,00,
-1759383946861937,00000166,false,Rx,0,8,00,00,00,00,00,00,00,00,
-1759383946861689,00000167,false,Rx,0,8,0C,10,00,00,00,00,00,00,
-1759383946861493,00000169,false,Rx,0,6,3B,19,60,F7,74,40,00,00,
-1759383946861325,00000185,false,Rx,0,4,00,03,00,02,00,00,00,00,
-1759383946861075,000001A9,false,Rx,0,8,00,00,00,00,00,00,00,00,
-1759383946860831,000001B6,false,Rx,0,8,00,01,00,00,00,00,01,3A,
-1759383946860595,000001C7,false,Rx,0,8,0C,AF,F3,4E,00,1E,00,00,
-1759383946860363,000001E5,false,Rx,0,8,46,7F,64,C8,00,80,90,5A,
-1759383946860115,000001E9,false,Rx,0,8,00,00,00,08,00,00,00,00,
-1759383946859871,000001F1,false,Rx,0,8,0E,00,00,00,08,75,00,00,
-1759383946859735,000001F2,false,Rx,0,2,20,00,00,00,00,00,00,00,
-1759383946859485,000001FD,false,Rx,0,8,00,00,00,00,00,00,00,00,
-1759383946859247,00000227,false,Rx,0,8,75,30,00,00,8A,D0,00,00,
-1759383946859115,0000022A,false,Rx,0,2,00,70,00,00,00,00,00,00,
-1759383946858861,00000230,false,Rx,0,8,00,00,00,00,00,00,00,00,
-1759383946858613,00000242,false,Rx,0,8,00,00,00,00,00,08,00,00,
-1759383946858361,00000244,false,Rx,0,8,00,00,20,04,00,00,00,00,
-1759383946858113,00000246,false,Rx,0,8,00,00,00,00,00,00,00,00,
-1759383946857147,000000AC,false,Rx,0,8,04,70,98,A8,02,00,00,46,
-1759383946856907,000000AF,false,Rx,0,8,00,00,1C,00,00,91,F7,7A,
-1759383946856735,000000C7,false,Rx,0,4,00,00,00,00,00,00,00,00,
-1759383946856495,000000FB,false,Rx,0,8,11,FF,00,30,AB,9F,05,F8,
-1759383946856251,0000014F,false,Rx,0,8,FE,C8,00,00,00,00,00,00,
-1759383946856006,00000194,false,Rx,0,8,0F,0F,00,01,00,00,00,00,
-1759383946855774,00000196,false,Rx,0,8,75,30,75,30,10,00,75,30,
-1759383946855532,0000019C,false,Rx,0,8,06,A0,26,A0,7F,FF,09,7F,
-1759383946855286,00000094,false,Rx,0,8,80,00,00,00,00,00,03,00,
-1759383946855042,0000009D,false,Rx,0,8,C0,0C,80,70,00,04,00,00,
-1759383946854792,000001AF,false,Rx,0,8,00,00,00,00,00,00,00,00,
-1759383946854552,000003AB,false,Rx,0,8,00,00,00,01,73,4C,00,00,
-1759383946852758,000000C1,false,Rx,0,8,00,00,00,00,00,00,00,00,
-1759383946852506,000000C5,false,Rx,0,8,00,00,00,00,00,00,00,00,
-1759383946852254,000000F1,false,Rx,0,8,00,00,00,00,00,00,00,00,
-1759383946852018,000001C7,false,Rx,0,8,0C,AF,33,51,00,00,00,00,
-1759383946851786,000001E5,false,Rx,0,8,46,7F,64,D8,00,80,8F,09,
-1759383946850192,00000163,false,Rx,0,8,40,05,40,02,08,00,00,00,
-1759383946848702,000003A2,false,Rx,0,8,01,8F,10,44,03,FF,00,26,
-1759383946848464,0000039F,false,Rx,0,8,3C,70,00,B6,0F,57,01,A3,
-1759383946848217,000003A4,false,Rx,0,8,00,00,11,00,07,00,00,00,
-1759383946847435,000000AC,false,Rx,0,8,04,70,A8,A8,02,00,00,76,
-1759383946847195,000000AF,false,Rx,0,8,00,00,18,00,00,A1,F6,4F,
-1759383946847023,000000C7,false,Rx,0,4,00,00,00,00,00,00,00,00,
-1759383946846787,000000FB,false,Rx,0,8,11,FF,00,30,AB,AE,05,F7,
-1759383946846545,0000019C,false,Rx,0,8,06,A0,26,A0,7F,FE,0A,7F,
-1759383946846301,00000297,false,Rx,0,8,00,03,00,00,00,00,20,00,
-1759383946846057,000002EF,false,Rx,0,8,FB,50,00,00,00,00,00,00,
-1759383946845431,00000094,false,Rx,0,8,80,00,00,00,00,00,03,00,
-1759383946845192,0000009D,false,Rx,0,8,D0,0D,80,70,00,03,00,00,
-1759383946842926,000000C1,false,Rx,0,8,10,00,00,00,10,00,00,00,
-1759383946842680,000000C5,false,Rx,0,8,10,00,00,00,10,00,00,00,
-1759383946842428,000000F1,false,Rx,0,8,00,00,00,00,00,00,00,00,
-1759383946842190,00000165,false,Rx,0,8,00,00,06,A0,E5,74,0C,00,
-1759383946841942,00000166,false,Rx,0,8,00,00,00,00,00,00,00,00,
-1759383946841694,00000167,false,Rx,0,8,0C,10,00,00,00,00,00,00,
-1759383946841498,00000169,false,Rx,0,6,3B,19,60,F7,74,40,00,00,
-1759383946841268,0000017D,false,Rx,0,7,20,20,00,00,00,00,00,00,
-1759383946841098,00000185,false,Rx,0,4,00,04,00,02,00,00,00,00,
-1759383946840848,000001A9,false,Rx,0,8,00,00,00,00,00,00,00,00,
-1759383946840606,000001B6,false,Rx,0,8,00,01,00,00,00,00,02,1D,
-1759383946840368,000001C7,false,Rx,0,8,0C,AF,73,50,00,02,00,00,
-1759383946840142,000001E1,false,Rx,0,7,40,C0,00,00,00,00,00,00,
-1759383946839912,000001E5,false,Rx,0,8,46,7F,64,E8,00,80,8E,7B,
-1759383946839664,000001E9,false,Rx,0,8,00,00,00,08,00,00,00,00,
-1759383946839420,000001F1,false,Rx,0,8,0E,00,00,00,08,75,00,00,
-1759383946839284,000001F2,false,Rx,0,2,20,00,00,00,00,00,00,00,
-1759383946839038,000001FC,false,Rx,0,8,00,5B,00,17,00,00,00,00,
-1759383946838788,000001FD,false,Rx,0,8,00,00,00,00,00,00,00,00,
-1759383946838572,00000214,false,Rx,0,6,00,00,00,00,00,00,00,00,
-1759383946838320,0000021C,false,Rx,0,8,00,00,00,00,00,00,00,00,
-1759383946838082,00000227,false,Rx,0,8,75,30,00,10,8A,CF,80,00,
-1759383946837950,0000022A,false,Rx,0,2,00,70,00,00,00,00,00,00,
-1759383946837696,00000230,false,Rx,0,8,00,00,00,00,00,00,00,00,
-1759383946837446,0000023D,false,Rx,0,8,00,00,00,00,00,00,00,00,
-1759383946837198,00000242,false,Rx,0,8,00,00,00,00,00,08,00,00,
-1759383946836964,000000AC,false,Rx,0,8,04,70,B8,A8,02,00,00,66,
-1759383946836724,000000AF,false,Rx,0,8,00,00,14,00,00,B1,F5,50,
-1759383946836552,000000C7,false,Rx,0,4,00,00,00,00,00,00,00,00,
-1759383946836316,000000FB,false,Rx,0,8,11,FF,00,30,AB,BD,05,F6,
-1759383946867108,00000088,false,Rx,1,8,00,00,08,00,00,00,00,00,
-1759383946866895,0000008A,false,Rx,1,8,7F,FF,00,04,00,02,36,B0,
-1759383946866639,0000008E,false,Rx,1,8,5D,05,04,00,13,88,06,C1,
-1759383946866383,0000008F,false,Rx,1,8,00,00,00,00,00,00,00,00,
-1759383946866169,000000DF,false,Rx,1,8,00,00,00,00,00,00,08,00,
-1759383946865913,000000FB,false,Rx,1,8,00,00,00,00,00,00,00,00,
-1759383946865657,00000172,false,Rx,1,8,60,21,0A,60,21,0A,00,00,
-1759383946865444,000003BA,false,Rx,1,8,03,0B,65,46,00,00,00,00,
-1759383946865188,00000094,false,Rx,1,8,80,00,3C,00,80,00,03,3F,
-1759383946864932,00000099,false,Rx,1,8,A0,87,80,04,00,5D,00,FE,
-1759383946864719,0000014B,false,Rx,1,8,01,8F,00,00,00,00,00,00,
-1759383946864463,000003C2,false,Rx,1,8,7F,FF,F1,93,00,12,05,32,
-1759383946861604,00000171,false,Rx,1,8,00,30,35,B0,60,43,7A,EC,
-1759383946861348,000003AB,false,Rx,1,8,00,01,14,2D,73,4C,00,00,
-1759383946856826,00000088,false,Rx,1,8,00,00,08,00,00,00,00,00,
-1759383946856612,0000008A,false,Rx,1,8,80,00,00,04,00,02,37,B1,
-1759383946856356,0000008E,false,Rx,1,8,5D,05,04,00,13,88,07,C0,
-1759383946856100,0000008F,false,Rx,1,8,00,00,00,00,00,00,00,00,
-1759383946855887,000000DF,false,Rx,1,8,00,00,00,00,00,00,08,00,
-1759383946855631,000000FB,false,Rx,1,8,00,00,00,00,00,00,00,00,
-1759383946855375,00000194,false,Rx,1,8,00,00,00,01,00,00,00,00,
-1759383946855119,00000094,false,Rx,1,8,7F,FF,44,00,80,00,03,47,
-1759383946854906,00000099,false,Rx,1,8,A0,88,80,04,00,5D,00,F1,
-1759383946854650,0000014B,false,Rx,1,8,01,90,00,00,00,00,00,00,
-1759383946854394,00000196,false,Rx,1,8,00,00,00,00,00,00,00,00,
-1759383946854180,00000295,false,Rx,1,8,E6,3C,00,02,91,4E,34,33,
-1759383946853924,0000019F,false,Rx,1,8,00,00,00,00,00,00,00,00,
-1759383946853668,00000393,false,Rx,1,8,00,00,00,00,00,00,00,00,
-1759383946853412,000003C2,false,Rx,1,8,7F,FF,ED,A5,00,12,05,32,
-1759383946851578,00000173,false,Rx,1,8,00,00,C3,C8,0D,00,0C,FD,
-1759383946851365,0000033F,false,Rx,1,8,57,12,00,DC,28,20,00,48,
-1759383946848335,0000033B,false,Rx,1,8,80,00,00,42,00,00,00,00,
-1759383946848079,00000323,false,Rx,1,8,00,00,00,00,00,01,00,00,
-1759383946847866,00000324,false,Rx,1,8,70,4D,FC,43,48,00,00,44,
-1759383946847610,0000033D,false,Rx,1,8,11,6B,60,20,00,18,05,40,
-1759383946847354,000003B7,false,Rx,1,8,00,00,00,00,00,01,34,35,
-1759383946847141,00000088,false,Rx,1,8,00,00,08,00,00,00,00,00,
-1759383946846885,0000008A,false,Rx,1,8,7F,FF,00,04,00,02,38,BE,
-1759383946846629,0000008E,false,Rx,1,8,5D,05,04,00,13,88,08,CF,
-1759383946846373,0000008F,false,Rx,1,8,00,00,00,00,00,00,00,00,
-1759383946846159,000000DF,false,Rx,1,8,00,00,00,00,00,00,08,00,
-1759383946845903,000000FB,false,Rx,1,8,00,00,00,00,00,00,00,00,
-1759383946845647,00000172,false,Rx,1,8,60,21,0A,60,21,0A,00,00,
-1759383946845391,00000299,false,Rx,1,8,63,D7,D0,FF,FF,83,00,00,
-1759383946845178,00000094,false,Rx,1,8,7F,FF,4C,00,7F,FF,03,4F,
-1759383946844965,00000099,false,Rx,1,8,A0,89,80,04,00,5D,00,F0,
-1759383946844709,0000014B,false,Rx,1,8,01,8F,00,00,00,00,00,00,
-1759383946844453,000003C0,false,Rx,1,8,57,12,DC,00,00,2F,80,00,
-1759383946844240,000003C2,false,Rx,1,8,7F,FF,EC,C6,00,12,05,32,
-1759383946843984,00000491,false,Rx,1,8,11,6B,00,00,00,00,00,00,
-1759383946841552,00000297,false,Rx,1,8,01,03,E0,40,F4,E0,A5,13,
-1759383946841296,00000171,false,Rx,1,8,00,30,39,B0,60,83,7A,20,
-1759383946841040,00000336,false,Rx,1,8,00,00,00,00,00,00,00,00,
-1759383946840784,00000356,false,Rx,1,8,00,00,00,1E,3E,00,00,00,
-1759383946840570,00000358,false,Rx,1,8,00,00,00,00,00,00,00,00,
-1759383946840314,00000391,false,Rx,1,8,00,02,B0,00,D0,00,50,00,
-1759383946840058,000003FC,false,Rx,1,8,1E,3E,00,00,00,00,00,00,
-1759383946839802,0000041D,false,Rx,1,8,00,00,00,00,00,00,00,FE,
-1759383946836773,00000088,false,Rx,1,8,00,00,08,00,00,00,00,00,
-1759383946836560,0000008A,false,Rx,1,8,7F,FF,00,04,00,02,39,BF,
-1759383946836304,0000008E,false,Rx,1,8,5D,05,04,00,13,88,09,CE,
-1759383946836048,0000008F,false,Rx,1,8,00,00,00,00,00,00,00,00,
-1759383946835835,000000DF,false,Rx,1,8,00,00,00,00,00,00,08,00,
-1759383946836072,0000014F,false,Rx,0,8,FE,D8,00,00,00,00,00,00,
-1759383946835828,00000194,false,Rx,0,8,0F,0F,00,01,00,00,00,00,
-1759383946835596,00000196,false,Rx,0,8,75,30,75,30,10,00,75,30,
-1759383946835350,00000094,false,Rx,0,8,80,00,00,00,00,00,03,00,
-1759383946835112,0000009D,false,Rx,0,8,E0,0E,80,70,00,02,00,00,
-1759383946834872,0000019C,false,Rx,0,8,06,A0,26,A0,7F,FE,0B,7F,
-1759383946834622,000001AF,false,Rx,0,8,00,00,00,00,00,00,00,00,
-1759383946834370,00000244,false,Rx,0,8,00,00,20,04,00,00,00,00,
-1759383946834122,00000246,false,Rx,0,8,00,00,00,00,00,00,00,00,
-1759383946833870,000002F4,false,Rx,0,8,00,00,00,00,00,00,00,00,
-1759383946833624,000002F6,false,Rx,0,8,80,00,00,00,00,01,00,00,
-1759383946833376,000002FD,false,Rx,0,8,7D,00,00,00,00,00,00,00,
-1759383946833136,0000030B,false,Rx,0,8,00,00,00,00,06,38,06,38,
-1759383946832898,00000319,false,Rx,0,8,80,6C,00,00,2C,A1,00,00,
-1759383946832648,000000C1,false,Rx,0,8,20,00,00,00,20,00,00,00,
-1759383946832400,000000C5,false,Rx,0,8,20,00,00,00,20,00,00,00,
-1759383946832148,000000F1,false,Rx,0,8,00,00,00,00,00,00,00,00,
-1759383946831912,000001C7,false,Rx,0,8,0C,AF,B3,4F,00,04,00,00,
-1759383946831676,000001E5,false,Rx,0,8,46,7F,64,F8,00,80,8D,79,
-1759383946831444,0000031A,false,Rx,0,8,0A,A0,00,17,57,42,90,66,
-1759383946831202,0000031B,false,Rx,0,8,00,00,B6,18,00,00,00,00,
-1759383946830952,0000032E,false,Rx,0,8,00,00,00,00,00,00,00,00,
-1759383946830704,00000336,false,Rx,0,8,00,00,00,00,00,00,00,00,
-1759383946830454,00000343,false,Rx,0,8,00,00,00,00,00,00,00,00,
-1759383946830202,00000348,false,Rx,0,8,00,00,00,00,00,00,00,00,
-1759383946829960,00000163,false,Rx,0,8,41,05,40,02,08,00,00,00,
-1759383946829710,0000034A,false,Rx,0,8,00,00,00,00,00,00,00,00,
-1759383946829460,0000034C,false,Rx,0,8,00,00,00,00,00,00,00,00,
-1759383946829210,0000034F,false,Rx,0,8,00,00,00,00,00,00,00,01,
-1759383946828960,00000353,false,Rx,0,8,00,00,00,00,00,00,00,00,
-1759383946828708,00000361,false,Rx,0,8,00,00,00,00,00,00,00,00,
-1759383946828458,00000364,false,Rx,0,8,00,00,00,00,00,00,00,22,
-1759383946828214,00000372,false,Rx,0,8,00,00,00,00,00,69,00,00,
-1759383946827966,00000373,false,Rx,0,8,00,00,00,00,00,00,00,00,
-1759383946827716,00000376,false,Rx,0,8,00,00,00,00,00,00,00,00,
-1759383946827476,00000379,false,Rx,0,8,64,00,00,6D,00,00,00,00,
-1759383946827244,000003AC,false,Rx,0,8,02,91,02,82,06,3D,4E,53,
-1759383946827007,000000AC,false,Rx,0,8,04,70,C8,A8,02,00,00,16,
-1759383946826765,000000AF,false,Rx,0,8,00,00,10,00,00,C1,F4,25,
-1759383946826593,000000C7,false,Rx,0,4,00,00,00,00,00,00,00,00,
-1759383946826357,000000FB,false,Rx,0,8,11,FF,00,30,AB,CC,05,F5,
-1759383946826119,0000019C,false,Rx,0,8,06,A0,26,A0,7F,FE,0C,7F,
-1759383946825871,000003F1,false,Rx,0,8,00,00,00,00,00,00,08,64,
-1759383946825625,000003FA,false,Rx,0,8,1E,3E,1E,3E,00,00,00,00,
-1759383946825379,00000094,false,Rx,0,8,80,00,00,00,00,00,03,00,
-1759383946825137,0000009D,false,Rx,0,8,F0,0F,80,70,00,01,00,00,
-1759383946824889,0000046A,false,Rx,0,8,00,00,00,00,00,40,00,00,
-1759383946824637,0000047E,false,Rx,0,8,00,00,00,00,00,00,00,00,
-1759383946824393,00000517,false,Rx,0,8,00,E1,10,00,00,00,00,00,
-1759383946824147,00000540,false,Rx,0,8,00,21,53,00,00,00,00,00,
-1759383946823909,00000541,false,Rx,0,8,19,0A,03,0A,2E,58,00,00,
-1759383946822608,000000C1,false,Rx,0,8,30,00,00,00,30,00,00,00,
-1759383946822362,000000C5,false,Rx,0,8,30,00,00,00,30,00,00,00,
-1759383946822110,000000F1,false,Rx,0,8,00,00,00,00,00,00,00,00,
-1759383946821876,00000165,false,Rx,0,8,00,00,06,A0,E5,73,0D,00,
-1759383946821628,00000166,false,Rx,0,8,00,00,00,00,00,00,00,00,
-1759383946821380,00000167,false,Rx,0,8,0C,10,00,00,00,00,00,00,
-1759383946821184,00000169,false,Rx,0,6,3B,19,60,F7,74,40,00,00,
-1759383946821012,00000185,false,Rx,0,4,00,04,00,03,00,00,00,00,
-1759383946820762,000001A9,false,Rx,0,8,00,00,00,00,00,00,00,00,
-1759383946820518,000001B6,false,Rx,0,8,00,01,00,00,00,00,03,00,
-1759383946820280,000001C7,false,Rx,0,8,0C,AF,F3,4E,00,06,00,00,
-1759383946820048,000001E5,false,Rx,0,8,46,7F,64,08,00,80,9C,67,
-1759383946819800,000001E9,false,Rx,0,8,00,00,00,08,00,00,00,00,
-1759383946819556,000001F1,false,Rx,0,8,0E,00,00,00,08,75,00,00,
-1759383946819420,000001F2,false,Rx,0,2,20,00,00,00,00,00,00,00,
-1759383946819170,000001FD,false,Rx,0,8,00,00,00,00,00,00,00,00,
-1759383946818934,00000227,false,Rx,0,8,75,30,00,20,8A,CF,00,00,
-1759383946818802,0000022A,false,Rx,0,2,00,70,00,00,00,00,00,00,
-1759383946818548,00000230,false,Rx,0,8,00,00,00,00,00,00,00,00,
-1759383946818300,00000242,false,Rx,0,8,00,00,00,00,00,08,00,00,
-1759383946818048,00000244,false,Rx,0,8,00,00,20,04,00,00,00,00,
-1759383946817800,00000246,false,Rx,0,8,00,00,00,00,00,00,00,00,
-1759383946817552,0000029B,false,Rx,0,8,00,00,00,00,00,00,00,00,
-1759383946817106,000000AC,false,Rx,0,8,04,70,D8,A8,02,00,00,06,
-1759383946816868,000000AF,false,Rx,0,8,00,00,0C,00,00,D1,F3,2E,
-1759383946816696,000000C7,false,Rx,0,4,00,00,00,00,00,00,00,00,
-1759383946816458,000000FB,false,Rx,0,8,11,FF,00,30,AB,DB,05,F4,
-1759383946816212,0000014F,false,Rx,0,8,FE,E8,00,00,00,00,00,00,
-1759383946815968,00000194,false,Rx,0,8,0F,0F,00,01,00,00,00,00,
-1759383946815736,00000196,false,Rx,0,8,75,30,75,30,10,00,75,30,
-1759383946815495,0000019C,false,Rx,0,8,06,A0,26,A0,7F,FE,0D,7F,
-1759383946815249,00000094,false,Rx,0,8,80,00,00,00,00,00,03,00,
-1759383946815003,0000009D,false,Rx,0,8,00,00,80,70,00,00,00,00,
-1759383946814753,000001AF,false,Rx,0,8,00,00,00,00,00,00,00,00,
-1759383946814509,000002E7,false,Rx,0,8,08,00,00,00,00,00,01,09,
-1759383946814271,00000391,false,Rx,0,8,02,02,B0,00,D0,00,50,00,
-1759383946812619,000000C1,false,Rx,0,8,00,00,00,00,00,00,00,00,
-1759383946812367,000000C5,false,Rx,0,8,00,00,00,00,00,00,00,00,
-1759383946812115,000000F1,false,Rx,0,8,00,00,00,00,00,00,00,00,
-1759383946811879,000001C7,false,Rx,0,8,0C,AF,33,51,00,08,00,00,
-1759383946811655,000001E1,false,Rx,0,7,40,BF,01,00,00,00,00,00,
-1759383946811423,000001E5,false,Rx,0,8,46,7F,64,18,00,80,9B,11,
-1759383946810213,00000163,false,Rx,0,8,42,05,40,02,08,00,00,00,
-1759383946807505,000000AC,false,Rx,0,8,04,70,E8,A8,02,00,00,36,
-1759383946807267,000000AF,false,Rx,0,8,00,00,08,00,00,E1,F2,1B,
-1759383946807095,000000C7,false,Rx,0,4,00,00,00,00,00,00,00,00,
-1759383946806857,000000FB,false,Rx,0,8,11,FF,00,30,AB,EA,05,F3,
-1759383946806619,0000019C,false,Rx,0,8,06,A0,26,A0,7F,FE,0E,7F,
-1759383946805431,00000094,false,Rx,0,8,80,00,00,00,00,00,03,00,
-1759383946805188,0000009D,false,Rx,0,8,10,01,80,70,00,0F,00,00,
-1759383946835579,000000FB,false,Rx,1,8,00,00,00,00,00,00,00,00,
-1759383946835323,00000194,false,Rx,1,8,00,00,00,01,00,00,00,00,
-1759383946835067,00000094,false,Rx,1,8,7F,FF,54,00,7F,FF,03,57,
-1759383946834853,00000099,false,Rx,1,8,A0,8A,80,04,00,5D,00,F3,
-1759383946834597,0000014B,false,Rx,1,8,01,8F,00,00,00,00,00,00,
-1759383946834341,00000196,false,Rx,1,8,00,00,00,00,00,00,00,00,
-1759383946834128,00000295,false,Rx,1,8,F6,3C,00,02,91,4E,6A,7D,
-1759383946833872,0000019F,false,Rx,1,8,00,00,00,00,00,00,00,00,
-1759383946833616,0000029B,false,Rx,1,8,3B,96,6D,00,FD,10,00,00,
-1759383946833360,00000334,false,Rx,1,8,00,00,00,00,00,00,00,00,
-1759383946833147,000003C2,false,Rx,1,8,7F,FF,EC,3D,00,12,05,32,
-1759383946831611,00000293,false,Rx,1,8,8F,00,B3,36,01,40,00,00,
-1759383946831355,00000173,false,Rx,1,8,00,00,C3,C8,0D,01,0C,FD,
-1759383946831099,000003AC,false,Rx,1,8,00,90,02,82,10,B2,08,00,
-1759383946826875,00000088,false,Rx,1,8,00,00,08,00,00,00,00,00,
-1759383946826662,0000008A,false,Rx,1,8,7F,FF,00,04,00,02,3A,BC,
-1759383946826406,0000008E,false,Rx,1,8,5D,05,04,00,13,88,0A,CD,
-1759383946826150,0000008F,false,Rx,1,8,00,00,00,00,00,00,00,00,
-1759383946825894,000000DF,false,Rx,1,8,00,00,00,00,00,00,08,00,
-1759383946825638,000000FB,false,Rx,1,8,00,00,00,00,00,00,00,00,
-1759383946825424,00000172,false,Rx,1,8,60,21,0A,60,21,0A,00,00,
-1759383946825168,00000094,false,Rx,1,8,7F,FF,5C,00,7F,FF,03,5F,
-1759383946824955,00000099,false,Rx,1,8,A0,8B,80,04,00,5D,00,F2,
-1759383946824699,0000014B,false,Rx,1,8,01,8F,00,00,00,00,00,00,
-1759383946824443,000003BC,false,Rx,1,8,00,00,00,00,00,00,00,00,
-1759383946824230,000003C2,false,Rx,1,8,7F,FF,EB,AA,00,12,05,32,
-1759383946821499,000003B8,false,Rx,1,8,00,00,00,00,00,00,00,00,
-1759383946821243,00000171,false,Rx,1,8,00,30,3D,B0,60,83,7A,24,
-1759383946821115,0000041F,false,Rx,1,3,02,70,01,00,00,00,00,00,
-1759383946816763,00000088,false,Rx,1,8,00,00,08,00,00,00,00,00,
-1759383946816550,0000008A,false,Rx,1,8,7F,FF,00,04,00,02,3B,BD,
-1759383946816294,0000008E,false,Rx,1,8,5D,05,04,00,13,88,0B,CC,
-1759383946816038,0000008F,false,Rx,1,8,00,00,00,00,00,00,00,00,
-1759383946815825,000000DF,false,Rx,1,8,00,00,00,00,00,00,08,00,
-1759383946815569,000000FB,false,Rx,1,8,00,00,00,00,00,00,00,00,
-1759383946815313,00000194,false,Rx,1,8,00,00,00,01,00,00,00,00,
-1759383946815057,00000094,false,Rx,1,8,7F,FF,64,00,7F,FF,03,67,
-1759383946814843,00000099,false,Rx,1,8,A0,8C,80,04,00,5D,00,F5,
-1759383946814587,0000014B,false,Rx,1,8,01,90,00,00,00,00,00,00,
-1759383946814331,00000196,false,Rx,1,8,00,00,00,00,00,00,00,00,
-1759383946814118,00000295,false,Rx,1,8,06,3B,00,02,91,4E,81,61,
-1759383946813862,0000019F,false,Rx,1,8,00,00,00,00,00,00,00,00,
-1759383946813606,000003C2,false,Rx,1,8,7F,FF,EB,F0,00,12,05,32,
-1759383946811601,00000173,false,Rx,1,8,00,00,C3,C8,0D,01,0C,FD,
-1759383946807249,00000088,false,Rx,1,8,00,00,08,00,00,00,00,00,
-1759383946806993,0000008A,false,Rx,1,8,7F,FF,00,04,00,02,3C,BA,
-1759383946806780,0000008E,false,Rx,1,8,5D,05,04,00,13,88,0C,CB,
-1759383946806524,0000008F,false,Rx,1,8,00,00,00,00,00,00,00,00,
-1759383946806268,000000DF,false,Rx,1,8,00,00,00,00,00,00,08,00,
-1759383946806012,000000FB,false,Rx,1,8,00,00,00,00,00,00,00,00,
-1759383946805798,00000172,false,Rx,1,8,60,21,0A,60,21,0A,00,00,
-1759383946805542,000003C2,false,Rx,1,8,7F,FF,EC,A0,00,12,05,32,
-1759383946805244,00000094,false,Rx,1,8,7F,FF,6C,00,7F,FF,03,6F,
-1759383946804988,00000099,false,Rx,1,8,A0,8D,80,04,00,5D,00,F4,
-1759383946804732,0000014B,false,Rx,1,8,01,8F,00,00,00,00,00,00,
-1759383946802910,000000C1,false,Rx,0,8,10,00,00,00,10,00,00,00,
-1759383946802664,000000C5,false,Rx,0,8,10,00,00,00,10,00,00,00,
-1759383946802412,000000F1,false,Rx,0,8,00,00,00,00,00,00,00,00,
-1759383946802174,00000165,false,Rx,0,8,00,00,06,A0,E5,72,0E,00,
-1759383946801926,00000166,false,Rx,0,8,00,00,00,00,00,00,00,00,
-1759383946801678,00000167,false,Rx,0,8,0C,10,00,00,00,00,00,00,
-1759383946801482,00000169,false,Rx,0,6,3B,19,60,F7,74,40,00,00,
-1759383946801312,00000185,false,Rx,0,4,00,04,00,02,00,00,00,00,
-1759383946801062,000001A9,false,Rx,0,8,00,00,00,00,00,00,00,00,
-1759383946800820,000001B6,false,Rx,0,8,00,01,00,00,00,00,04,53,
-1759383946800582,000001C7,false,Rx,0,8,0C,AF,73,50,00,0A,00,00,
-1759383946800352,000001E5,false,Rx,0,8,46,7F,64,28,00,80,9A,63,
-1759383946800104,000001E9,false,Rx,0,8,00,00,00,08,00,00,00,00,
-1759383946799860,000001F1,false,Rx,0,8,0E,00,00,00,08,74,00,00,
-1759383946799724,000001F2,false,Rx,0,2,20,00,00,00,00,00,00,00,
-1759383946799474,000001FD,false,Rx,0,8,00,00,00,00,00,00,00,00,
-1759383946799242,00000227,false,Rx,0,8,75,30,00,30,8A,CE,80,00,
-1759383946799110,0000022A,false,Rx,0,2,00,70,00,00,00,00,00,00,
-1759383946798856,00000230,false,Rx,0,8,00,00,00,00,00,00,00,00,
-1759383946798608,00000242,false,Rx,0,8,00,00,00,00,00,08,00,00,
-1759383946798356,00000244,false,Rx,0,8,00,00,20,04,00,00,00,00,
-1759383946798108,00000246,false,Rx,0,8,00,00,00,00,00,00,00,00,
-1759383946797008,000000AC,false,Rx,0,8,04,70,F8,A8,02,00,00,26,
-1759383946796766,000000AF,false,Rx,0,8,00,00,04,00,00,F1,F1,04,
-1759383946796594,000000C7,false,Rx,0,4,00,00,00,00,00,00,00,00,
-1759383946796354,000000FB,false,Rx,0,8,11,FF,00,30,AB,F9,05,F2,
-1759383946796108,0000014F,false,Rx,0,8,FE,F8,00,00,00,00,00,00,
-1759383946795864,00000194,false,Rx,0,8,0F,0F,00,01,00,00,00,00,
-1759383946795632,00000196,false,Rx,0,8,75,30,75,30,10,00,75,30,
-1759383946795390,0000019C,false,Rx,0,8,06,A0,26,A0,7F,FE,0F,7F,
-1759383946795144,00000094,false,Rx,0,8,80,00,00,00,00,00,03,00,
-1759383946794901,0000009D,false,Rx,0,8,20,02,80,70,00,0E,00,00,
-1759383946794651,000001AF,false,Rx,0,8,00,00,00,00,00,00,00,00,
-1759383946794407,00000297,false,Rx,0,8,00,03,00,00,00,00,20,00,
-1759383946794175,000002A2,false,Rx,0,8,6C,6C,20,00,41,67,00,BB,
-1759383946793929,000002EF,false,Rx,0,8,FA,60,00,00,00,00,00,00,
-1759383946793683,0000030C,false,Rx,0,8,C8,30,00,00,00,00,00,01,
-1759383946793435,00000389,false,Rx,0,8,00,00,00,00,00,14,00,00,
-1759383946793193,0000038B,false,Rx,0,8,1B,00,01,00,00,3C,03,E8,
-1759383946792945,000003A3,false,Rx,0,8,00,00,00,00,00,00,00,00,
-1759383946792695,000000C1,false,Rx,0,8,20,00,00,00,20,00,00,00,
-1759383946792447,000000C5,false,Rx,0,8,20,00,00,00,20,00,00,00,
-1759383946792195,000000F1,false,Rx,0,8,00,00,00,00,00,00,00,00,
-1759383946791957,000001C7,false,Rx,0,8,0C,AF,B3,4F,00,0C,00,00,
-1759383946791725,000001E5,false,Rx,0,8,46,7F,64,38,00,80,99,61,
-1759383946791479,000001FC,false,Rx,0,8,00,5B,00,17,00,00,40,00,
-1759383946791269,00000214,false,Rx,0,6,02,00,00,00,00,00,00,00,
-1759383946791017,0000021C,false,Rx,0,8,00,00,00,00,00,00,00,00,
-1759383946790767,0000023D,false,Rx,0,8,00,00,00,00,00,00,00,00,
-1759383946790515,000002F4,false,Rx,0,8,00,00,00,00,00,00,00,00,
-1759383946790269,000002F6,false,Rx,0,8,80,00,00,00,00,01,00,00,
-1759383946790029,00000163,false,Rx,0,8,43,05,40,02,08,00,00,00,
-1759383946789781,000002FD,false,Rx,0,8,7D,00,00,00,00,00,00,00,
-1759383946789529,00000348,false,Rx,0,8,00,00,00,00,00,00,00,00,
-1759383946789279,0000034A,false,Rx,0,8,00,00,00,00,00,00,00,00,
-1759383946789037,00000400,false,Rx,0,8,71,26,02,00,00,40,06,00,
-1759383946788787,00000418,false,Rx,0,8,00,00,00,00,00,00,00,80,
-1759383946788543,00000419,false,Rx,0,8,00,00,00,90,00,00,03,D3,
-1759383946788295,0000046A,false,Rx,0,8,00,00,00,00,00,40,00,00,
-1759383946787191,000000AC,false,Rx,0,8,04,70,08,A8,02,00,00,D6,
-1759383946786942,000000AF,false,Rx,0,8,00,00,00,00,00,00,00,00,
-1759383946786770,000000C7,false,Rx,0,4,00,00,00,00,00,00,00,00,
-1759383946786530,000000FB,false,Rx,0,8,11,FF,00,30,AB,08,06,01,
-1759383946786284,0000019C,false,Rx,0,8,06,A0,26,A0,7F,FF,00,7F,
-1759383946785438,00000094,false,Rx,0,8,80,00,00,00,00,00,03,00,
-1759383946785194,0000009D,false,Rx,0,8,30,03,80,70,00,0D,00,00,
-1759383946782918,000000C1,false,Rx,0,8,30,00,00,00,30,00,00,00,
-1759383946782672,000000C5,false,Rx,0,8,30,00,00,00,30,00,00,00,
-1759383946782420,000000F1,false,Rx,0,8,00,00,00,00,00,00,00,00,
-1759383946782184,00000165,false,Rx,0,8,00,00,06,A0,E5,71,0F,00,
-1759383946781936,00000166,false,Rx,0,8,00,00,00,00,00,00,00,00,
-1759383946781688,00000167,false,Rx,0,8,0C,10,00,00,00,00,00,00,
-1759383946781492,00000169,false,Rx,0,6,3B,19,60,F7,74,40,00,00,
-1759383946781322,00000185,false,Rx,0,4,00,04,00,02,00,00,00,00,
-1759383946781072,000001A9,false,Rx,0,8,00,00,00,00,00,00,00,00,
-1759383946780830,000001B6,false,Rx,0,8,00,01,00,00,00,00,05,4E,
-1759383946780594,000001C7,false,Rx,0,8,0C,AF,F3,4E,00,0E,00,00,
-1759383946780370,000001E1,false,Rx,0,7,40,BE,02,00,00,00,00,00,
-1759383946780140,000001E5,false,Rx,0,8,46,7F,64,48,00,80,98,87,
-1759383946779892,000001E9,false,Rx,0,8,00,00,00,08,00,00,00,00,
-1759383946779648,000001F1,false,Rx,0,8,0E,00,00,00,08,74,00,00,
-1759383946779512,000001F2,false,Rx,0,2,20,00,00,00,00,00,00,00,
-1759383946779262,000001FD,false,Rx,0,8,00,00,00,00,00,00,00,00,
-1759383946779028,00000227,false,Rx,0,8,75,30,00,40,8A,CE,00,00,
-1759383946778896,0000022A,false,Rx,0,2,00,70,00,00,00,00,00,00,
-1759383946778642,00000230,false,Rx,0,8,00,00,00,00,00,00,00,00,
-1759383946778394,00000242,false,Rx,0,8,00,00,00,00,00,08,00,00,
-1759383946778142,00000244,false,Rx,0,8,00,00,20,04,00,00,00,00,
-1759383946777894,00000246,false,Rx,0,8,00,00,00,00,00,00,00,00,
-1759383946777076,000000AC,false,Rx,0,8,04,70,18,A8,02,00,00,C6,
-1759383946776830,000000AF,false,Rx,0,8,00,00,3C,00,00,11,FF,D2,
-1759383946776658,000000C7,false,Rx,0,4,00,00,00,00,00,00,00,00,
-1759383946776417,000000FB,false,Rx,0,8,11,FF,00,30,AB,17,06,00,
-1759383946776171,0000014F,false,Rx,0,8,FE,08,00,00,00,00,00,00,
-1759383946775927,00000194,false,Rx,0,8,0F,0F,00,01,00,00,00,00,
-1759383946775695,00000196,false,Rx,0,8,75,30,75,30,10,00,75,30,
-1759383946775453,0000019C,false,Rx,0,8,06,A0,26,A0,7F,FF,01,7F,
-1759383946775207,00000094,false,Rx,0,8,80,00,00,00,00,00,03,00,
-1759383946774967,0000009D,false,Rx,0,8,40,04,80,70,00,0C,00,00,
-1759383946801617,00000171,false,Rx,1,8,00,30,01,B0,60,83,7A,18,
-1759383946796711,00000088,false,Rx,1,8,00,00,08,00,00,00,00,00,
-1759383946796455,0000008A,false,Rx,1,8,7F,FF,00,04,00,02,3D,BB,
-1759383946796241,0000008E,false,Rx,1,8,5D,05,04,00,13,88,0D,CA,
-1759383946795985,0000008F,false,Rx,1,8,00,00,00,00,00,00,00,00,
-1759383946795729,000000DF,false,Rx,1,8,00,00,00,00,00,00,08,00,
-1759383946795473,000000FB,false,Rx,1,8,00,00,00,00,00,00,00,00,
-1759383946795260,00000295,false,Rx,1,8,16,3C,00,02,91,4E,89,7E,
-1759383946795004,00000094,false,Rx,1,8,80,00,74,00,80,00,03,77,
-1759383946794791,00000099,false,Rx,1,8,A0,8E,80,04,00,5D,00,F7,
-1759383946794535,0000014B,false,Rx,1,8,01,90,00,00,00,00,00,00,
-1759383946794279,00000299,false,Rx,1,8,63,D7,D0,FF,FF,83,00,00,
-1759383946794065,000002A0,false,Rx,1,8,30,00,00,00,6C,00,00,5C,
-1759383946793809,000002B5,false,Rx,1,8,F0,82,32,80,00,00,00,C0,
-1759383946793554,000002B6,false,Rx,1,8,F0,00,00,01,C0,E2,71,A2,
-1759383946793340,00000394,false,Rx,1,8,00,35,00,00,10,35,02,12,
-1759383946793084,000003C2,false,Rx,1,8,7F,FF,ED,02,00,12,05,32,
-1759383946792828,00000194,false,Rx,1,8,00,00,00,01,00,00,00,00,
-1759383946792615,00000400,false,Rx,1,8,71,26,02,00,00,40,06,00,
-1759383946792359,00000196,false,Rx,1,8,00,00,00,00,00,00,00,00,
-1759383946792103,00000418,false,Rx,1,8,A0,00,00,00,00,00,00,00,
-1759383946791847,0000019F,false,Rx,1,8,00,00,00,00,00,00,00,00,
-1759383946791591,0000039A,false,Rx,1,8,00,35,02,00,3F,40,00,00,
-1759383946791378,00000173,false,Rx,1,8,00,00,C3,C8,0D,01,0C,FD,
-1759383946791122,00000297,false,Rx,1,8,01,03,E0,40,F4,E0,A6,10,
-1759383946790908,0000029C,false,Rx,1,8,28,D7,04,00,00,DC,57,12,
-1759383946786898,00000088,false,Rx,1,8,00,00,08,00,00,00,00,00,
-1759383946786684,0000008A,false,Rx,1,8,80,00,00,04,00,02,3E,B8,
-1759383946786428,0000008E,false,Rx,1,8,5D,05,04,00,13,88,0E,C9,
-1759383946786172,0000008F,false,Rx,1,8,00,00,00,00,00,00,00,00,
-1759383946785959,000000DF,false,Rx,1,8,00,00,00,00,00,00,08,00,
-1759383946785703,000000FB,false,Rx,1,8,00,00,00,00,00,00,00,00,
-1759383946785447,00000172,false,Rx,1,8,60,21,0A,60,21,0A,00,00,
-1759383946785234,00000094,false,Rx,1,8,80,00,7C,00,80,00,03,7F,
-1759383946784978,00000099,false,Rx,1,8,A0,8F,80,04,00,5D,00,F6,
-1759383946784722,0000014B,false,Rx,1,8,01,90,00,00,00,00,00,00,
-1759383946784509,0000029B,false,Rx,1,8,3B,96,6D,00,FD,10,00,00,
-1759383946784253,00000322,false,Rx,1,8,00,00,00,20,00,00,00,00,
-1759383946783997,000003C2,false,Rx,1,8,7F,FF,ED,22,00,12,05,32,
-1759383946781607,00000293,false,Rx,1,8,8F,00,B3,36,01,40,00,00,
-1759383946781394,00000171,false,Rx,1,8,00,30,05,B0,60,83,7A,1C,
-1759383946781266,0000044C,false,Rx,1,1,01,00,00,00,00,00,00,00,
-1759383946776743,00000088,false,Rx,1,8,00,00,08,00,00,00,00,00,
-1759383946776530,0000008A,false,Rx,1,8,80,00,00,04,00,02,3F,B9,
-1759383946776274,0000008E,false,Rx,1,8,5D,05,04,00,13,88,0F,C8,
-1759383946776018,0000008F,false,Rx,1,8,00,00,00,00,00,00,00,00,
-1759383946775762,000000DF,false,Rx,1,8,00,00,00,00,00,00,08,00,
-1759383946775506,000000FB,false,Rx,1,8,00,00,00,00,00,00,00,00,
-1759383946775293,00000194,false,Rx,1,8,00,00,00,01,00,00,00,00,
-1759383946775037,00000094,false,Rx,1,8,80,00,04,00,7F,FF,03,07,
-1759383946774781,00000099,false,Rx,1,8,A0,80,80,04,00,5D,00,F9,
-1759383946774525,0000014B,false,Rx,1,8,01,90,00,00,00,00,00,00,
-1759383946774717,000001AF,false,Rx,0,8,00,00,00,00,00,00,00,00,
-1759383946774469,0000039B,false,Rx,0,8,00,00,00,00,00,00,00,00,
-1759383946774221,000003A8,false,Rx,0,8,00,00,00,FF,C3,FF,CB,FF,
-1759383946772587,000000C1,false,Rx,0,8,00,00,00,00,00,00,00,00,
-1759383946772335,000000C5,false,Rx,0,8,00,00,00,00,00,00,00,00,
-1759383946772083,000000F1,false,Rx,0,8,00,00,00,00,00,00,00,00,
-1759383946771847,000001C7,false,Rx,0,8,0C,AF,33,51,00,10,00,00,
-1759383946771617,000001E5,false,Rx,0,8,46,7F,64,58,00,80,97,19,
-1759383946771369,0000029B,false,Rx,0,8,00,00,00,00,00,00,00,00,
-1759383946770209,00000163,false,Rx,0,8,40,05,40,02,08,00,00,00,
-1759383946767452,000000AC,false,Rx,0,8,04,70,28,A8,02,00,00,F6,
-1759383946767212,000000AF,false,Rx,0,8,00,00,38,00,00,21,FE,E7,
-1759383946767040,000000C7,false,Rx,0,4,00,00,00,00,00,00,00,00,
-1759383946766804,000000FB,false,Rx,0,8,11,FF,00,30,AB,26,05,FF,
-1759383946766562,0000019C,false,Rx,0,8,06,A0,26,A0,7F,FF,02,7F,
-1759383946765442,00000094,false,Rx,0,8,80,00,00,00,00,00,03,00,
-1759383946765202,0000009D,false,Rx,0,8,50,05,80,70,00,0B,00,00,
-1759383946764534,000002E7,false,Rx,0,8,08,00,00,00,00,00,02,0A,
-1759383946762915,000000C1,false,Rx,0,8,10,00,00,00,10,00,00,00,
-1759383946762669,000000C5,false,Rx,0,8,10,00,00,00,10,00,00,00,
-1759383946762417,000000F1,false,Rx,0,8,00,00,00,00,00,00,00,00,
-1759383946762173,00000165,false,Rx,0,8,00,00,06,A0,E5,80,00,00,
-1759383946761925,00000166,false,Rx,0,8,00,00,00,00,00,00,00,00,
-1759383946761677,00000167,false,Rx,0,8,0C,10,00,00,00,00,00,00,
-1759383946761481,00000169,false,Rx,0,6,3B,19,60,F7,74,40,00,00,
-1759383946761311,00000185,false,Rx,0,4,00,04,00,02,00,00,00,00,
-1759383946761061,000001A9,false,Rx,0,8,00,00,00,00,00,00,00,00,
-1759383946760819,000001B6,false,Rx,0,8,00,01,00,00,00,00,06,69,
-1759383946760583,000001C7,false,Rx,0,8,0C,AF,73,50,00,12,00,00,
-1759383946760353,000001E5,false,Rx,0,8,46,7F,64,68,00,80,96,6B,
-1759383946760105,000001E9,false,Rx,0,8,00,00,00,08,00,00,00,00,
-1759383946759861,000001F1,false,Rx,0,8,0E,00,00,00,08,74,00,00,
-1759383946759725,000001F2,false,Rx,0,2,20,00,00,00,00,00,00,00,
-1759383946759475,000001FD,false,Rx,0,8,00,00,00,00,00,00,00,00,
-1759383946759241,00000227,false,Rx,0,8,75,30,00,50,8A,CD,80,00,
-1759383946759109,0000022A,false,Rx,0,2,00,70,00,00,00,00,00,00,
-1759383946758855,00000230,false,Rx,0,8,00,00,00,00,00,00,00,00,
-1759383946758607,00000242,false,Rx,0,8,00,00,00,00,00,08,00,00,
-1759383946758355,00000244,false,Rx,0,8,00,00,20,04,00,00,00,00,
-1759383946758107,00000246,false,Rx,0,8,00,00,00,00,00,00,00,00,
-1759383946757153,000000AC,false,Rx,0,8,04,70,38,A8,02,00,00,E6,
-1759383946756911,000000AF,false,Rx,0,8,00,00,34,00,00,31,FD,F8,
-1759383946756739,000000C7,false,Rx,0,4,00,00,00,00,00,00,00,00,
-1759383946756503,000000FB,false,Rx,0,8,11,FF,00,30,AB,35,05,FE,
-1759383946756259,0000014F,false,Rx,0,8,FE,18,00,00,00,00,00,00,
-1759383946756015,00000194,false,Rx,0,8,0F,0F,00,01,00,00,00,00,
-1759383946755783,00000196,false,Rx,0,8,75,30,75,30,10,00,75,30,
-1759383946755543,0000019C,false,Rx,0,8,06,A0,26,A0,7F,FF,03,7F,
-1759383946755297,00000094,false,Rx,0,8,80,00,00,00,00,00,03,00,
-1759383946755054,0000009D,false,Rx,0,8,60,06,80,70,00,0A,00,00,
-1759383946754804,000001AF,false,Rx,0,8,00,00,00,00,00,00,00,00,
-1759383946754564,000003AB,false,Rx,0,8,00,00,00,01,73,4C,00,00,
-1759383946752764,000000C1,false,Rx,0,8,20,00,00,00,20,00,00,00,
-1759383946752516,000000C5,false,Rx,0,8,20,00,00,00,20,00,00,00,
-1759383946752264,000000F1,false,Rx,0,8,00,00,00,00,00,00,00,00,
-1759383946752028,000001C7,false,Rx,0,8,0C,AF,B3,4F,00,14,00,00,
-1759383946751804,000001E1,false,Rx,0,7,40,BD,03,00,00,00,00,00,
-1759383946751572,000001E5,false,Rx,0,8,46,7F,62,78,00,80,97,32,
-1759383946750202,00000163,false,Rx,0,8,41,05,40,02,08,00,00,00,
-1759383946748698,000003A2,false,Rx,0,8,01,8F,10,48,03,FF,00,2A,
-1759383946748458,0000039F,false,Rx,0,8,3C,70,00,B6,0F,57,02,A0,
-1759383946748212,000003A4,false,Rx,0,8,00,00,11,00,07,00,00,00,
-1759383946747352,000000AC,false,Rx,0,8,04,70,48,A8,02,00,00,96,
-1759383946747110,000000AF,false,Rx,0,8,00,00,30,00,00,41,FC,8D,
-1759383946746938,000000C7,false,Rx,0,4,00,00,00,00,00,00,00,00,
-1759383946746702,000000FB,false,Rx,0,8,11,FF,00,30,AB,44,05,FD,
-1759383946746464,0000019C,false,Rx,0,8,06,A0,26,A0,7F,FE,04,7F,
-1759383946746221,00000297,false,Rx,0,8,00,03,00,00,00,00,20,00,
-1759383946745977,000002EF,false,Rx,0,8,F9,70,00,00,00,00,00,00,
-1759383946745391,00000094,false,Rx,0,8,80,00,00,00,00,00,03,00,
-1759383946774312,00000196,false,Rx,1,8,00,00,00,00,00,00,00,00,
-1759383946774056,00000295,false,Rx,1,8,26,3C,00,02,91,4E,84,43,
-1759383946773800,0000019F,false,Rx,1,8,00,00,00,00,00,00,00,00,
-1759383946773586,000002A2,false,Rx,1,8,6C,00,20,B6,00,67,00,BB,
-1759383946773330,00000396,false,Rx,1,8,3D,6D,4E,28,C0,46,47,47,
-1759383946773117,0000039B,false,Rx,1,8,3D,3B,84,00,00,00,0C,8E,
-1759383946772861,000003A6,false,Rx,1,8,00,00,00,00,00,00,00,00,
-1759383946772605,000003BF,false,Rx,1,8,28,00,30,00,28,00,30,00,
-1759383946772392,000003C2,false,Rx,1,8,7F,FF,EC,AE,00,12,05,32,
-1759383946772136,000003DE,false,Rx,1,8,01,F2,01,F4,01,F2,01,F4,
-1759383946771922,000003E2,false,Rx,1,8,1F,B0,18,B2,72,74,69,6A,
-1759383946771666,00000464,false,Rx,1,8,08,00,08,00,00,00,00,00,
-1759383946771410,00000173,false,Rx,1,8,00,00,C3,C8,0D,01,0C,FD,
-1759383946771154,00000402,false,Rx,1,8,00,00,00,00,00,05,00,00,
-1759383946770941,00000468,false,Rx,1,8,28,00,30,00,28,00,30,00,
-1759383946770685,00000469,false,Rx,1,8,28,00,30,00,28,00,30,00,
-1759383946770429,0000046B,false,Rx,1,8,0B,A4,00,F9,05,81,01,47,
-1759383946770216,0000046C,false,Rx,1,8,06,B3,00,00,00,00,00,AB,
-1759383946769960,0000046D,false,Rx,1,8,42,21,42,21,00,11,01,02,
-1759383946769746,0000046F,false,Rx,1,8,00,00,00,00,00,20,00,00,
-1759383946769490,00000692,false,Rx,1,8,28,00,00,00,00,00,00,00,
-1759383946767187,00000088,false,Rx,1,8,00,00,08,00,00,00,00,00,
-1759383946766931,0000008A,false,Rx,1,8,80,00,00,04,00,02,30,B6,
