date Thu Nov 23 04:18:22 PM 2023
base hex timestamps absolute
// version 7.0.0
0.000000 1 3b8 Rx d 8 00 00 00 00 00 00 00 12 
0.010100 1 3ba Rx d 8 50 50 41 41 41 41 00 00 
0.020100 1 3bc Rx d 8 50 50 00 00 00 00 00 00 
0.030100 1 3bd Rx d 8 14 0b 13 00 00 00 00 00 
0.040300 1 3be Rx d 8 00 00 00 81 00 00 00 00 
0.100800 1 3b8 Rx d 8 00 00 00 00 00 00 00 12 
0.110800 1 3ba Rx d 8 50 50 41 41 41 41 00 00 
0.120900 1 3bc Rx d 8 50 50 00 00 00 00 00 00 
0.131000 1 3bd Rx d 8 14 0b 13 00 00 00 00 00 
0.141200 1 3be Rx d 8 00 00 00 81 00 00 00 00 
0.201800 1 3b8 Rx d 8 00 00 00 00 00 00 00 12 
0.211600 1 3ba Rx d 8 50 50 41 41 41 41 00 00 
0.221800 1 3bc Rx d 8 50 50 00 00 00 00 00 00 
0.232100 1 3bd Rx d 8 14 0b 13 00 00 00 00 00 
0.241900 1 3be Rx d 8 00 00 00 81 00 00 00 00 
0.302500 1 3b8 Rx d 8 00 00 00 00 00 00 00 12 
0.312500 1 3ba Rx d 8 50 50 41 41 41 41 00 00 
0.323000 1 3bc Rx d 8 50 50 00 00 00 00 00 00 
0.332600 1 3bd Rx d 8 14 0b 13 00 00 00 00 00 
0.342800 1 3be Rx d 8 00 00 00 81 00 00 00 00 
0.403200 1 3b8 Rx d 8 00 00 00 00 00 00 00 12 
0.413200 1 3ba Rx d 8 50 50 41 41 41 41 00 00 
0.423300 1 3bc Rx d 8 50 50 00 00 00 00 00 00 
0.433500 1 3bd Rx d 8 14 0b 13 00 00 00 00 00 
0.443500 1 3be Rx d 8 00 00 00 81 00 00 00 00 
0.504100 1 3b8 Rx d 8 00 00 00 00 00 00 00 12 
0.514100 1 3ba Rx d 8 50 50 41 41 41 41 00 00 
0.524200 1 3bc Rx d 8 50 50 00 00 00 00 00 00 
0.534200 1 3bd Rx d 8 14 0b 13 00 00 00 00 00 
0.544400 1 3be Rx d 8 00 00 00 81 00 00 00 00 
0.604800 1 3b8 Rx d 8 00 00 00 00 00 00 00 12 
0.615000 1 3ba Rx d 8 50 50 41 41 41 41 00 00 
0.625000 1 3bc Rx d 8 50 50 00 00 00 00 00 00 
0.635100 1 3bd Rx d 8 14 0b 13 00 00 00 00 00 
0.645100 1 3be Rx d 8 00 00 00 81 00 00 00 00 
0.705700 1 3b8 Rx d 8 00 00 00 00 00 00 00 12 
0.715700 1 3ba Rx d 8 50 50 41 41 41 41 00 00 
0.725800 1 3bc Rx d 8 50 50 00 00 00 00 00 00 
0.736000 1 3bd Rx d 8 14 0b 13 00 00 00 00 00 
0.746100 1 3be Rx d 8 00 00 00 81 00 00 00 00 
0.806500 1 3b8 Rx d 8 00 00 00 00 00 00 00 12 
0.816500 1 3ba Rx d 8 50 50 41 41 41 41 00 00 
0.826900 1 3bc Rx d 8 50 50 00 00 00 00 00 00 
0.836800 1 3bd Rx d 8 14 0b 13 00 00 00 00 00 
0.846700 1 3be Rx d 8 00 00 00 81 00 00 00 00 
0.907500 1 3b8 Rx d 8 00 00 00 00 00 00 3b 12 
0.917400 1 3ba Rx d 8 50 50 41 41 41 41 00 00 
0.927300 1 3bc Rx d 8 50 50 00 00 00 00 00 00 
0.937600 1 3bd Rx d 8 14 0b 13 00 00 00 00 00 
0.947600 1 3be Rx d 8 00 00 00 81 00 00 00 00 
1.008200 1 3b8 Rx d 8 00 00 00 00 00 00 3b 12 
1.018200 1 3ba Rx d 8 50 50 41 41 41 41 00 00 
1.028300 1 3bc Rx d 8 50 50 00 00 00 00 00 00 
1.038200 1 3bd Rx d 8 14 0b 13 00 00 00 00 00 
1.048500 1 3be Rx d 8 00 00 00 81 00 00 00 00 
1.109000 1 3b8 Rx d 8 00 00 00 00 00 00 3b 12 
1.119100 1 3ba Rx d 8 50 50 41 41 41 41 00 00 
1.129100 1 3bc Rx d 8 50 50 00 00 00 00 00 00 
1.139100 1 3bd Rx d 8 14 0b 13 00 00 00 00 00 
1.149500 1 3be Rx d 8 00 00 00 81 00 00 00 00 
1.210300 1 3b8 Rx d 8 00 00 01 00 00 00 3b 12 
1.219900 1 3ba Rx d 8 50 50 41 41 41 41 00 00 
1.229900 1 3bc Rx d 8 50 50 34 a5 00 3c 00 00 
1.239900 1 3bd Rx d 8 14 0b 13 00 00 00 00 00 
1.250100 1 3be Rx d 8 00 00 00 81 00 00 00 00 
1.310600 1 3b8 Rx d 8 00 00 01 00 00 00 3b 12 
1.320600 1 3ba Rx d 8 50 50 41 41 41 41 00 00 
1.330700 1 3bc Rx d 8 50 50 34 a5 00 3c 00 00 
1.340900 1 3bd Rx d 8 14 0b 13 00 00 00 00 00 
1.350900 1 3be Rx d 8 00 00 00 81 00 00 00 00 
1.411500 1 3b8 Rx d 8 00 00 01 00 00 00 3b 12 
1.421400 1 3ba Rx d 8 50 50 3e 35 3f 42 00 00 
1.431500 1 3bc Rx d 8 50 50 34 a5 00 3c 00 00 
1.441700 1 3bd Rx d 8 14 0b 13 00 00 00 00 00 
1.451600 1 3be Rx d 8 00 00 00 81 00 00 00 00 
1.512200 1 3b8 Rx d 8 00 00 01 00 00 00 3b 12 
1.522200 1 3ba Rx d 8 50 50 3e 35 3f 42 00 00 
1.532200 1 3bc Rx d 8 50 50 34 a5 00 3c 00 00 
1.542500 1 3bd Rx d 8 14 0b 13 00 00 00 00 00 
1.552500 1 3be Rx d 8 00 00 00 81 00 00 00 00 
1.613400 1 3b8 Rx d 8 00 00 01 00 04 00 93 12 
1.623100 1 3ba Rx d 8 50 50 3e 35 3f 42 00 00 
1.633200 1 3bc Rx d 8 50 50 34 a5 00 3c 00 00 
1.643700 1 3bd Rx d 8 14 0b 13 00 00 00 00 00 
1.653200 1 3be Rx d 8 00 00 00 81 00 00 00 00 
1.714000 1 3b8 Rx d 8 00 00 01 00 04 00 93 12 
1.723900 1 3ba Rx d 8 50 50 3e 35 3f 42 00 00 
1.734000 1 3bc Rx d 8 50 50 34 91 00 3c 00 00 
1.744100 1 3bd Rx d 8 14 0b 13 00 00 00 00 00 
1.754300 1 3be Rx d 8 00 00 00 81 00 00 00 00 
1.815300 1 3b8 Rx d 8 00 00 01 00 04 00 93 12 
1.824800 1 3ba Rx d 8 50 50 3e 35 3f 42 00 00 
1.834800 1 3bc Rx d 8 50 50 34 91 00 3c 00 00 
1.845000 1 3bd Rx d 8 14 0b 13 00 00 00 00 00 
1.855100 1 3be Rx d 8 00 00 00 81 00 00 00 00 
1.915700 1 3b8 Rx d 8 00 00 01 00 04 00 93 12 
1.925900 1 3ba Rx d 8 50 50 4c 42 4c 51 00 00 
1.935800 1 3bc Rx d 8 50 50 34 91 00 3c 00 00 
1.946000 1 3bd Rx d 8 14 0b 13 00 00 00 00 00 
1.956300 1 3be Rx d 8 00 00 00 81 00 00 00 00 
2.016500 1 3b8 Rx d 8 00 00 01 00 04 00 93 12 
2.026600 1 3ba Rx d 8 50 50 4c 42 4c 51 00 00 
2.036600 1 3bc Rx d 8 50 50 34 91 00 3c 00 00 
2.046900 1 3bd Rx d 8 14 0b 13 00 00 00 00 00 
2.056900 1 3be Rx d 8 00 00 00 81 00 00 00 00 
2.117400 1 3b8 Rx d 8 00 00 01 00 04 00 93 12 
2.127700 1 3ba Rx d 8 50 50 4c 42 4c 51 00 00 
2.137400 1 3bc Rx d 8 50 50 34 91 00 3c 00 00 
2.147600 1 3bd Rx d 8 14 0b 13 00 00 00 00 00 
2.158300 1 3be Rx d 8 00 00 00 81 00 00 00 00 
2.218300 1 3b8 Rx d 8 00 00 01 00 04 00 93 12 
2.228200 1 3ba Rx d 8 50 50 4c 42 4c 51 00 00 
2.238400 1 3bc Rx d 8 50 50 34 91 00 3c 00 00 
2.248500 1 3bd Rx d 8 14 0b 13 00 00 00 00 00 
2.258500 1 3be Rx d 8 00 00 00 81 00 00 00 00 
2.319100 1 3b8 Rx d 8 00 00 01 00 04 00 93 12 
2.329600 1 3ba Rx d 8 50 50 4c 42 4c 51 00 00 
2.339100 1 3bc Rx d 8 50 50 34 8d 00 3c 00 00 
2.349300 1 3bd Rx d 8 14 0b 13 00 00 00 00 00 
2.359300 1 3be Rx d 8 00 00 00 81 00 00 00 00 
2.420000 1 3b8 Rx d 8 00 00 01 00 04 00 93 12 
2.430000 1 3ba Rx d 8 50 50 4c 42 4c 51 00 00 
2.440200 1 3bc Rx d 8 50 50 34 8d 00 3c 00 00 
2.450100 1 3bd Rx d 8 14 0b 13 00 00 00 00 00 
2.460300 1 3be Rx d 8 00 00 00 80 00 00 00 00 
2.520900 1 3b8 Rx d 8 00 00 01 00 04 00 93 12 
2.531100 1 3ba Rx d 8 50 50 54 4b 55 5b 00 00 
2.540900 1 3bc Rx d 8 50 50 34 8d 00 3c 00 00 
2.550900 1 3bd Rx d 8 14 0b 13 00 00 00 00 00 
2.561000 1 3be Rx d 8 00 00 00 80 00 00 00 00 
2.621600 1 3b8 Rx d 8 00 00 01 00 04 00 93 12 
2.631500 1 3ba Rx d 8 50 50 54 4b 55 5b 00 00 
2.641700 1 3bc Rx d 8 50 50 34 8d 00 3c 00 00 
2.651800 1 3bd Rx d 8 14 0b 13 00 00 00 00 00 
2.661900 1 3be Rx d 8 00 00 00 80 00 00 00 00 
2.722400 1 3b8 Rx d 8 00 00 01 00 04 00 93 12 
2.733000 1 3ba Rx d 8 50 50 54 4b 55 5b 00 00 
2.742600 1 3bc Rx d 8 50 50 34 8d 00 3c 00 00 
2.752800 1 3bd Rx d 8 14 0b 13 00 00 00 00 00 
2.763400 1 3be Rx d 8 00 00 00 80 00 00 00 00 
2.823400 1 3b8 Rx d 8 00 00 01 00 01 00 19 12 
2.833400 1 3ba Rx d 8 50 50 54 4b 55 5b 00 00 
2.843500 1 3bc Rx d 8 50 50 34 84 00 8c 00 00 
2.853400 1 3bd Rx d 8 14 0b 13 00 00 00 00 00 
2.863600 1 3be Rx d 8 00 00 00 80 00 00 00 00 
2.924100 1 3b8 Rx d 8 00 00 01 08 01 00 19 12 
2.934200 1 3ba Rx d 8 50 50 5a 50 5a 60 00 00 
2.944200 1 3bc Rx d 8 50 50 34 84 00 8c 00 00 
2.954400 1 3bd Rx d 8 14 0b 13 00 00 00 00 00 
2.964400 1 3be Rx d 8 00 00 00 80 00 00 00 00 
3.024900 1 3b8 Rx d 8 00 00 01 08 01 00 19 12 
3.035100 1 3ba Rx d 8 50 50 5a 50 5a 60 00 00 
3.045100 1 3bc Rx d 8 50 50 34 84 00 8c 00 00 
3.055200 1 3bd Rx d 8 14 0b 13 00 00 00 00 00 
3.065100 1 3be Rx d 8 00 00 00 80 00 00 00 00 
3.126300 1 3b8 Rx d 8 00 00 01 08 01 00 19 12 
3.135700 1 3ba Rx d 8 50 50 5a 50 5a 60 00 00 
3.146000 1 3bc Rx d 8 50 50 34 76 00 8c 00 00 
3.156000 1 3bd Rx d 8 14 0b 13 00 00 00 00 00 
3.166000 1 3be Rx d 8 00 00 00 80 00 00 00 00 
3.226700 1 3b8 Rx d 8 00 00 01 08 01 00 19 12 
3.237100 1 3ba Rx d 8 50 50 5c 52 5c 63 00 00 
3.246800 1 3bc Rx d 8 50 50 34 76 00 8c 00 00 
3.256900 1 3bd Rx d 8 14 0b 13 00 00 00 00 00 
3.267500 1 3be Rx d 8 00 00 00 80 00 00 00 00 
3.327600 1 3b8 Rx d 8 00 00 01 08 01 00 19 12 
3.337600 1 3ba Rx d 8 50 50 5c 52 5c 63 00 00 
3.347800 1 3bc Rx d 8 50 50 34 76 00 8c 00 00 
3.357700 1 3bd Rx d 8 14 0b 13 00 00 00 00 00 
3.367800 1 3be Rx d 8 00 00 00 80 00 00 00 00 
3.428400 1 3b8 Rx d 8 00 00 01 08 01 00 19 12 
3.438500 1 3ba Rx d 8 50 50 5c 52 5c 63 00 00 
3.448400 1 3bc Rx d 8 50 50 34 75 00 8c 00 00 
3.458600 1 3bd Rx d 8 14 0b 13 00 00 00 00 00 
3.468700 1 3be Rx d 8 00 00 00 80 00 00 00 00 
3.529200 1 3b8 Rx d 8 00 00 01 10 01 00 19 12 
3.539200 1 3ba Rx d 8 50 50 5e 54 5e 65 00 00 
3.549300 1 3bc Rx d 8 50 50 34 75 00 8c 00 00 
3.559400 1 3bd Rx d 8 14 0b 13 00 00 00 00 00 
3.569900 1 3be Rx d 8 00 00 00 80 00 00 00 00 
3.630200 1 3b8 Rx d 8 00 00 01 10 01 00 19 12 
3.640100 1 3ba Rx d 8 50 50 5e 54 5e 65 00 00 
3.650100 1 3bc Rx d 8 50 50 34 75 00 8c 00 00 
3.660300 1 3bd Rx d 8 14 0b 13 00 00 00 00 00 
3.670500 1 3be Rx d 8 00 00 00 80 00 00 00 00 
3.730900 1 3b8 Rx d 8 00 00 01 10 01 00 19 12 
3.741000 1 3ba Rx d 8 50 50 5e 54 5e 65 00 00 
3.751100 1 3bc Rx d 8 50 50 34 75 00 8c 00 00 
3.761300 1 3bd Rx d 8 14 0b 13 00 00 00 00 00 
3.771200 1 3be Rx d 8 00 00 00 80 00 00 00 00 
3.831800 1 3b8 Rx d 8 00 00 01 10 01 00 19 12 
3.841900 1 3ba Rx d 8 50 50 5f 55 5f 67 00 00 
3.851800 1 3bc Rx d 8 50 50 34 75 00 8c 00 00 
3.862000 1 3bd Rx d 8 14 0b 13 00 00 00 00 00 
3.872500 1 3be Rx d 8 00 00 00 80 00 00 00 00 
3.932600 1 3b8 Rx d 8 00 00 01 10 01 00 19 12 
3.942600 1 3ba Rx d 8 50 50 5f 55 5f 67 00 00 
3.952800 1 3bc Rx d 8 50 50 34 75 00 8c 00 00 
3.962900 1 3bd Rx d 8 14 0b 13 00 00 00 00 00 
3.972900 1 3be Rx d 8 00 00 00 80 00 00 00 00 
4.033400 1 3b8 Rx d 8 00 00 01 10 01 00 19 12 
4.043300 1 3ba Rx d 8 50 50 61 56 60 68 00 00 
4.053500 1 3bc Rx d 8 50 50 34 75 00 8c 00 00 
4.064000 1 3bd Rx d 8 14 0b 13 00 00 00 00 00 
4.073700 1 3be Rx d 8 00 00 00 80 00 00 00 00 
4.134200 1 3b8 Rx d 8 00 00 01 10 01 00 19 12 
4.144300 1 3ba Rx d 8 50 50 61 56 60 68 00 00 
4.154300 1 3bc Rx d 8 50 50 34 75 00 8c 00 00 
4.164500 1 3bd Rx d 8 14 0b 13 00 00 00 00 00 
4.175100 1 3be Rx d 8 00 00 00 80 00 00 00 00 
4.235100 1 3b8 Rx d 8 00 00 01 10 01 00 19 12 
4.245000 1 3ba Rx d 8 50 50 61 56 60 68 00 00 
4.255500 1 3bc Rx d 8 50 50 34 75 00 8c 00 00 
4.265200 1 3bd Rx d 8 14 0b 13 00 00 00 00 00 
4.275400 1 3be Rx d 8 00 00 00 80 00 00 00 00 
4.336200 1 3b8 Rx d 8 00 00 01 18 01 00 19 12 
4.345900 1 3ba Rx d 8 50 50 62 57 61 69 00 00 
4.356000 1 3bc Rx d 8 50 50 34 75 00 8c 00 00 
4.366100 1 3bd Rx d 8 14 0b 13 00 00 00 00 00 
4.376100 1 3be Rx d 8 00 00 00 80 00 00 00 00 
4.436600 1 3b8 Rx d 8 00 00 01 18 01 00 19 12 
4.446800 1 3ba Rx d 8 50 50 62 57 61 69 00 00 
4.456800 1 3bc Rx d 8 50 50 34 75 00 8c 00 00 
4.466900 1 3bd Rx d 8 14 0b 13 00 00 00 00 00 
4.477000 1 3be Rx d 8 00 00 00 80 00 00 00 00 
4.537400 1 3b8 Rx d 8 00 00 01 18 01 00 19 12 
4.547500 1 3ba Rx d 8 50 50 62 57 61 69 00 00 
4.557600 1 3bc Rx d 8 50 50 34 60 00 8c 00 00 
4.567600 1 3bd Rx d 8 14 0b 13 00 00 00 00 00 
4.578100 1 3be Rx d 8 00 00 00 80 00 00 00 00 
4.638300 1 3b8 Rx d 8 00 00 01 18 01 00 19 12 
4.648300 1 3ba Rx d 8 50 50 62 58 62 6a 00 00 
4.658700 1 3bc Rx d 8 50 50 34 60 00 8c 00 00 
4.668400 1 3bd Rx d 8 14 0b 13 00 00 00 00 00 
4.678600 1 3be Rx d 8 00 00 00 80 00 00 00 00 
4.739700 1 3b8 Rx d 8 00 00 01 18 01 00 19 12 
4.749200 1 3ba Rx d 8 50 50 62 58 62 6a 00 00 
4.759200 1 3bc Rx d 8 50 50 34 60 00 8c 00 00 
4.769300 1 3bd Rx d 8 14 0b 13 00 00 00 00 00 
4.779500 1 3be Rx d 8 00 00 00 80 00 00 00 00 
4.840000 1 3b8 Rx d 8 00 00 01 18 01 00 19 12 
4.850100 1 3ba Rx d 8 50 50 62 58 62 6a 00 00 
4.860100 1 3bc Rx d 8 50 50 34 5e 00 8c 00 00 
4.870200 1 3bd Rx d 8 14 0b 13 00 00 00 00 00 
4.880200 1 3be Rx d 8 00 00 00 80 00 00 00 00 
4.940800 1 3b8 Rx d 8 00 00 01 18 01 00 19 12 
4.950900 1 3ba Rx d 8 50 50 63 59 63 6b 00 00 
4.960900 1 3bc Rx d 8 50 50 34 5e 00 8c 00 00 
4.971000 1 3bd Rx d 8 14 0b 13 00 00 00 00 00 
4.981200 1 3be Rx d 8 00 00 00 80 00 00 00 00 
5.041800 1 3b8 Rx d 8 00 00 01 18 01 00 19 12 
5.051900 1 3ba Rx d 8 50 50 63 59 63 6b 00 00 
5.061900 1 3bc Rx d 8 50 50 34 5e 00 8c 00 00 
5.072000 1 3bd Rx d 8 14 0b 13 00 00 00 00 00 
5.082000 1 3be Rx d 8 00 00 00 80 00 00 00 00 
5.142600 1 3b8 Rx d 8 00 00 01 18 01 00 19 12 
5.152500 1 3ba Rx d 8 50 50 63 59 63 6b 00 00 
5.162800 1 3bc Rx d 8 50 50 34 5e 00 8c 00 00 
5.172800 1 3bd Rx d 8 14 0b 13 00 00 00 00 00 
5.182800 1 3be Rx d 8 00 00 00 80 00 00 00 00 
5.243800 1 3b8 Rx d 8 00 00 01 18 01 00 19 12 
5.253300 1 3ba Rx d 8 50 4f 64 59 63 6b 00 00 
5.263500 1 3bc Rx d 8 50 4f 34 5e 00 8c 00 00 
5.273600 1 3bd Rx d 8 14 0b 13 00 00 00 00 00 
5.283700 1 3be Rx d 8 00 00 00 80 00 00 00 00 
5.344300 1 3b8 Rx d 8 00 00 01 18 01 00 19 12 
5.354300 1 3ba Rx d 8 50 4f 64 59 63 6b 00 00 
5.364200 1 3bc Rx d 8 50 4f 34 5b 00 8c 00 00 
5.374300 1 3bd Rx d 8 14 0b 13 00 00 00 00 00 
5.384500 1 3be Rx d 8 00 00 00 80 00 00 00 00 
5.444900 1 3b8 Rx d 8 00 00 01 18 01 00 19 12 
5.455100 1 3ba Rx d 8 50 4f 64 5a 64 6c 00 00 
5.465300 1 3bc Rx d 8 50 4f 34 5b 00 8c 00 00 
5.475400 1 3bd Rx d 8 14 0b 13 00 00 00 00 00 
5.485600 1 3be Rx d 8 00 00 00 80 00 00 00 00 
5.546100 1 3b8 Rx d 8 00 00 01 18 01 00 19 12 
5.556400 1 3ba Rx d 8 50 4f 64 5a 64 6c 00 00 
5.566100 1 3bc Rx d 8 50 4f 34 5b 00 8c 00 00 
5.576300 1 3bd Rx d 8 14 0b 13 00 00 00 00 00 
5.586300 1 3be Rx d 8 00 00 00 80 00 00 00 00 
5.647100 1 3b8 Rx d 8 00 00 01 18 01 00 19 12 
5.656900 1 3ba Rx d 8 50 4f 64 5a 64 6c 00 00 
5.667100 1 3bc Rx d 8 50 4f 34 48 00 8c 00 00 
5.677200 1 3bd Rx d 8 14 0b 13 00 00 00 00 00 
5.687500 1 3be Rx d 8 00 00 00 80 00 00 00 00 
5.747900 1 3b8 Rx d 8 00 00 01 18 01 00 19 12 
5.757800 1 3ba Rx d 8 50 4f 64 5a 64 6c 00 00 
5.767800 1 3bc Rx d 8 50 4f 34 48 00 8c 00 00 
5.778100 1 3bd Rx d 8 14 0b 13 00 00 00 00 00 
5.788000 1 3be Rx d 8 00 00 00 80 00 00 00 00 
5.848700 1 3b8 Rx d 8 00 00 01 18 01 00 18 12 
5.858800 1 3ba Rx d 8 50 4f 64 5a 64 6c 00 00 
5.868900 1 3bc Rx d 8 50 4f 34 48 00 8c 00 00 
5.879100 1 3bd Rx d 8 14 0b 13 00 00 00 00 00 
5.889200 1 3be Rx d 8 00 00 00 80 00 00 00 00 
5.949800 1 3b8 Rx d 8 00 00 01 18 01 00 18 12 
5.959600 1 3ba Rx d 8 50 4f 64 5a 64 6c 00 00 
5.969700 1 3bc Rx d 8 50 4f 34 46 00 8c 00 00 
5.979800 1 3bd Rx d 8 14 0b 13 00 00 00 00 00 
5.989900 1 3be Rx d 8 00 00 00 80 00 00 00 00 
6.050600 1 3b8 Rx d 8 00 00 01 18 01 00 18 12 
6.060600 1 3ba Rx d 8 50 4f 65 5a 64 6c 00 00 
6.070700 1 3bc Rx d 8 50 4f 34 46 00 8c 00 00 
6.081000 1 3bd Rx d 8 14 0b 13 00 00 00 00 00 
6.091000 1 3be Rx d 8 00 00 00 80 00 00 00 00 
6.151500 1 3b8 Rx d 8 00 00 01 18 01 00 13 12 
6.162000 1 3ba Rx d 8 50 4f 65 5a 64 6c 00 00 
6.171500 1 3bc Rx d 8 50 4f 34 46 00 8c 00 00 
6.181600 1 3bd Rx d 8 14 0b 13 00 00 00 00 00 
6.191800 1 3be Rx d 8 00 00 00 80 00 00 00 00 
6.252400 1 3b8 Rx d 8 00 00 01 18 01 00 13 12 
6.262200 1 3ba Rx d 8 50 4f 65 5a 64 6c 00 00 
6.272400 1 3bc Rx d 8 50 4f 34 46 00 8c 00 00 
6.282500 1 3bd Rx d 8 14 0b 13 00 00 00 00 00 
6.292600 1 3be Rx d 8 00 00 00 80 00 00 00 00 
6.353200 1 3b8 Rx d 8 00 00 01 18 01 00 13 12 
6.363200 1 3ba Rx d 8 50 4f 65 5a 64 6c 00 00 
6.373300 1 3bc Rx d 8 50 4f 34 46 00 8c 00 00 
6.383200 1 3bd Rx d 8 14 0b 13 00 00 00 00 00 
6.393400 1 3be Rx d 8 00 00 00 80 00 00 00 00 
6.454300 1 3b8 Rx d 8 00 00 01 18 01 00 13 12 
6.463900 1 3ba Rx d 8 50 4f 65 5a 64 6c 00 00 
6.474000 1 3bc Rx d 8 50 4f 34 46 00 8c 00 00 
6.484200 1 3bd Rx d 8 14 0b 13 00 00 00 00 00 
6.494300 1 3be Rx d 8 00 00 00 80 00 00 00 00 
6.554800 1 3b8 Rx d 8 00 00 01 18 01 00 13 12 
6.564700 1 3ba Rx d 8 50 4f 65 5b 65 6d 00 00 
6.574900 1 3bc Rx d 8 50 4f 34 46 00 8c 00 00 
6.585400 1 3bd Rx d 8 14 0b 13 00 00 00 00 00 
6.595000 1 3be Rx d 8 00 00 00 80 00 00 00 00 
6.655600 1 3b8 Rx d 8 00 00 01 18 01 00 13 12 
6.665600 1 3ba Rx d 8 50 4f 65 5b 65 6d 00 00 
6.675700 1 3bc Rx d 8 50 4f 34 46 00 8c 00 00 
6.685800 1 3bd Rx d 8 14 0b 13 00 00 00 00 00 
6.695800 1 3be Rx d 8 00 00 00 80 00 00 00 00 
6.756400 1 3b8 Rx d 8 00 00 01 18 01 00 13 12 
6.766800 1 3ba Rx d 8 50 4f 65 5b 65 6d 00 00 
6.776400 1 3bc Rx d 8 50 4f 34 43 00 8c 00 00 
6.786700 1 3bd Rx d 8 14 0b 13 00 00 00 00 00 
6.796800 1 3be Rx d 8 00 00 00 80 00 00 00 00 
6.857200 1 3b8 Rx d 8 00 00 01 18 01 00 13 12 
6.867300 1 3ba Rx d 8 50 4f 65 5b 65 6d 00 00 
6.877300 1 3bc Rx d 8 50 4f 34 43 00 8c 00 00 
6.887400 1 3bd Rx d 8 14 0b 13 00 00 00 00 00 
6.898000 1 3be Rx d 8 00 00 00 80 00 00 00 00 
6.958100 1 3b8 Rx d 8 00 00 01 18 01 00 13 12 
6.968200 1 3ba Rx d 8 50 4f 65 5b 65 6d 00 00 
6.978300 1 3bc Rx d 8 50 4f 34 30 00 8c 00 00 
6.988200 1 3bd Rx d 8 14 0b 13 00 00 00 00 00 
6.998400 1 3be Rx d 8 00 00 00 80 00 00 00 00 
7.058900 1 3b8 Rx d 8 00 00 01 18 01 00 13 12 
7.069100 1 3ba Rx d 8 50 4f 65 5b 65 6d 00 00 
7.079300 1 3bc Rx d 8 50 4f 34 30 00 8c 00 00 
7.089300 1 3bd Rx d 8 14 0b 13 00 00 00 00 00 
7.099400 1 3be Rx d 8 00 00 00 80 00 00 00 00 
7.160300 1 3b8 Rx d 8 00 00 01 18 01 00 13 12 
7.170000 1 3ba Rx d 8 50 4f 65 5b 65 6d 00 00 
7.180100 1 3bc Rx d 8 50 4f 34 30 00 8c 00 00 
7.190200 1 3bd Rx d 8 14 0b 13 00 00 00 00 00 
7.200200 1 3be Rx d 8 00 00 00 80 00 00 00 00 
7.260700 1 3b8 Rx d 8 00 00 01 18 01 00 13 12 
7.270800 1 3ba Rx d 8 50 4f 65 5b 65 6d 00 00 
7.280900 1 3bc Rx d 8 50 4f 34 2f 00 8c 00 00 
7.291400 1 3bd Rx d 8 14 0b 13 00 00 00 00 00 
7.301200 1 3be Rx d 8 00 00 00 80 00 00 00 00 
7.361600 1 3b8 Rx d 8 00 00 01 18 01 00 13 12 
7.371600 1 3ba Rx d 8 50 4f 65 5b 65 6d 00 00 
7.381700 1 3bc Rx d 8 50 4f 34 2f 00 8c 00 00 
7.391700 1 3bd Rx d 8 14 0b 13 00 00 00 00 00 
7.402000 1 3be Rx d 8 00 00 00 80 00 00 00 00 
7.462600 1 3b8 Rx d 8 00 00 01 18 01 00 13 12 
7.472700 1 3ba Rx d 8 50 4f 65 5b 65 6d 00 00 
7.482500 1 3bc Rx d 8 50 4f 34 2f 00 8c 00 00 
7.492800 1 3bd Rx d 8 14 0b 13 00 00 00 00 00 
7.502800 1 3be Rx d 8 00 00 00 80 00 00 00 00 
7.563400 1 3b8 Rx d 8 00 00 01 18 01 00 13 12 
7.573400 1 3ba Rx d 8 50 4f 65 5b 65 6d 00 00 
7.583600 1 3bc Rx d 8 50 4f 34 2f 00 8c 00 00 
7.593500 1 3bd Rx d 8 14 0b 13 00 00 00 00 00 
7.603800 1 3be Rx d 8 00 00 00 80 00 00 00 00 
7.664200 1 3b8 Rx d 8 00 00 01 18 01 00 13 12 
7.674300 1 3ba Rx d 8 50 4f 65 5b 65 6d 00 00 
7.684800 1 3bc Rx d 8 50 4f 34 2f 00 8c 00 00 
7.694400 1 3bd Rx d 8 14 0b 13 00 00 00 00 00 
7.704500 1 3be Rx d 8 00 00 00 80 00 00 00 00 
7.765200 1 3b8 Rx d 8 00 00 01 18 01 00 13 12 
7.775300 1 3ba Rx d 8 50 4f 65 5b 65 6d 00 00 
7.785400 1 3bc Rx d 8 50 4f 34 2f 00 8c 00 00 
7.795300 1 3bd Rx d 8 14 0b 13 00 00 00 00 00 
7.805600 1 3be Rx d 8 00 00 00 80 00 00 00 00 
7.866100 1 3b8 Rx d 8 00 00 01 18 01 00 13 12 
7.876300 1 3ba Rx d 8 50 4f 65 5b 65 6d 00 00 
7.886300 1 3bc Rx d 8 50 4f 34 2f 00 8c 00 00 
7.896800 1 3bd Rx d 8 14 0b 13 00 00 00 00 00 
7.906500 1 3be Rx d 8 00 00 00 80 00 00 00 00 
7.967100 1 3b8 Rx d 8 00 00 01 18 01 00 13 12 
7.977000 1 3ba Rx d 8 50 4f 65 5b 65 6d 00 00 
7.987100 1 3bc Rx d 8 50 4f 34 2f 00 8c 00 00 
7.997300 1 3bd Rx d 8 14 0b 13 00 00 00 00 00 
8.007400 1 3be Rx d 8 00 00 00 80 00 00 00 00 
8.067800 1 3b8 Rx d 8 00 00 01 18 01 00 13 12 
8.078100 1 3ba Rx d 8 50 4f 65 5b 65 6d 00 00 
8.087900 1 3bc Rx d 8 50 4f 34 2f 00 8c 00 00 
8.098000 1 3bd Rx d 8 14 0b 13 00 00 00 00 00 
8.108200 1 3be Rx d 8 00 00 00 80 00 00 00 00 
8.168800 1 3b8 Rx d 8 00 00 01 18 01 00 13 12 
8.178800 1 3ba Rx d 8 50 4f 65 5b 65 6d 00 00 
8.188900 1 3bc Rx d 8 50 4f 34 2e 00 8c 00 00 
8.199000 1 3bd Rx d 8 14 0b 13 00 00 00 00 00 
8.209500 1 3be Rx d 8 00 00 00 80 00 00 00 00 
8.269600 1 3b8 Rx d 8 00 00 01 18 01 00 13 12 
8.279600 1 3ba Rx d 8 50 4f 65 5b 65 6d 00 00 
8.290100 1 3bc Rx d 8 50 4f 34 2e 00 8c 00 00 
8.299700 1 3bd Rx d 8 14 0b 13 00 00 00 00 00 
8.309800 1 3be Rx d 8 00 00 00 80 00 00 00 00 
8.370800 1 3b8 Rx d 8 00 00 01 18 01 00 13 12 
8.380300 1 3ba Rx d 8 50 4f 65 5b 65 6d 00 00 
8.390400 1 3bc Rx d 8 50 4f 34 2e 00 8c 00 00 
8.400600 1 3bd Rx d 8 14 0b 13 00 00 00 00 00 
8.410700 1 3be Rx d 8 00 00 00 80 00 00 00 00 
8.471100 1 3b8 Rx d 8 00 00 01 18 01 00 13 12 
8.481100 1 3ba Rx d 8 50 4f 65 5b 65 6d 00 00 
8.491300 1 3bc Rx d 8 50 4f 34 2e 00 8c 00 00 
8.501600 1 3bd Rx d 8 14 0b 13 00 00 00 00 00 
8.511400 1 3be Rx d 8 00 00 00 80 00 00 00 00 
8.572100 1 3b8 Rx d 8 00 00 01 18 01 00 13 12 
8.582600 1 3ba Rx d 8 50 4f 65 5b 65 6d 00 00 
8.592200 1 3bc Rx d 8 50 4f 34 17 00 8c 00 00 
8.602200 1 3bd Rx d 8 14 0b 13 00 00 00 00 00 
8.612200 1 3be Rx d 8 00 00 00 80 00 00 00 00 
8.672800 1 3b8 Rx d 8 00 00 01 18 01 00 13 12 
8.683100 1 3ba Rx d 8 50 4f 66 5b 65 6d 00 00 
8.693000 1 3bc Rx d 8 50 4f 34 17 00 8c 00 00 
8.703100 1 3bd Rx d 8 14 0b 13 00 00 00 00 00 
8.713000 1 3be Rx d 8 00 00 00 80 00 00 00 00 
8.773800 1 3b8 Rx d 8 00 00 01 18 01 00 13 12 
8.783700 1 3ba Rx d 8 50 4f 66 5b 65 6d 00 00 
8.793700 1 3bc Rx d 8 50 4f 34 17 00 8c 00 00 
8.803900 1 3bd Rx d 8 14 0b 13 00 00 00 00 00 
8.814200 1 3be Rx d 8 00 00 00 80 00 00 00 00 
8.874500 1 3b8 Rx d 8 00 00 01 18 01 00 13 12 
8.884500 1 3ba Rx d 8 50 4f 66 5b 65 6d 00 00 
8.895200 1 3bc Rx d 8 50 4f 34 17 00 8c 00 00 
8.904800 1 3bd Rx d 8 14 0b 13 00 00 00 00 00 
8.914900 1 3be Rx d 8 00 00 00 80 00 00 00 00 
8.975300 1 3b8 Rx d 8 00 00 01 18 01 00 13 12 
8.985500 1 3ba Rx d 8 50 4f 66 5b 65 6d 00 00 
8.995500 1 3bc Rx d 8 50 4f 34 17 00 8c 00 00 
9.005600 1 3bd Rx d 8 14 0b 13 00 00 00 00 00 
9.015700 1 3be Rx d 8 00 00 00 80 00 00 00 00 
9.076400 1 3b8 Rx d 8 00 00 01 18 01 00 13 12 
9.086100 1 3ba Rx d 8 50 4f 66 5b 65 6d 00 00 
9.096200 1 3bc Rx d 8 50 4f 34 17 00 8c 00 00 
9.106400 1 3bd Rx d 8 14 0b 13 00 00 00 00 00 
9.116500 1 3be Rx d 8 00 00 00 80 00 00 00 00 
9.177100 1 3b8 Rx d 8 00 00 01 18 01 00 13 12 
9.187100 1 3ba Rx d 8 50 4f 66 5b 65 6d 00 00 
9.197000 1 3bc Rx d 8 50 4f 34 17 00 8c 00 00 
9.207500 1 3bd Rx d 8 14 0b 13 00 00 00 00 00 
9.217300 1 3be Rx d 8 00 00 00 80 00 00 00 00 
9.277900 1 3b8 Rx d 8 00 00 01 18 01 00 13 12 
9.287800 1 3ba Rx d 8 50 4f 66 5b 65 6d 00 00 
9.298000 1 3bc Rx d 8 50 4f 34 17 00 8c 00 00 
9.308000 1 3bd Rx d 8 14 0b 13 00 00 00 00 00 
9.318200 1 3be Rx d 8 00 00 00 80 00 00 00 00 
9.378700 1 3b8 Rx d 8 00 00 01 18 01 00 13 12 
9.388800 1 3ba Rx d 8 50 4f 66 5b 65 6d 00 00 
9.398800 1 3bc Rx d 8 50 4f 34 17 00 8c 00 00 
9.408900 1 3bd Rx d 8 14 0b 13 00 00 00 00 00 
9.418900 1 3be Rx d 8 00 00 00 80 00 00 00 00 
9.479500 1 3b8 Rx d 8 00 00 01 18 01 00 13 12 
9.489600 1 3ba Rx d 8 50 4f 66 5b 65 6d 00 00 
9.499500 1 3bc Rx d 8 50 4f 34 10 00 8c 00 00 
9.509600 1 3bd Rx d 8 14 0b 13 00 00 00 00 00 
9.519900 1 3be Rx d 8 00 00 00 80 00 00 00 00 
9.580300 1 3b8 Rx d 8 00 00 01 18 01 00 13 12 
9.590200 1 3ba Rx d 8 50 4f 66 5b 65 6d 00 00 
9.600900 1 3bc Rx d 8 50 4f 34 10 00 8c 00 00 
9.610500 1 3bd Rx d 8 14 0b 13 00 00 00 00 00 
9.620500 1 3be Rx d 8 00 00 00 80 00 00 00 00 
9.681100 1 3b8 Rx d 8 00 00 01 18 01 00 13 12 
9.691000 1 3ba Rx d 8 50 4f 66 5b 65 6d 00 00 
9.701300 1 3bc Rx d 8 50 4f 34 10 00 8c 00 00 
9.711300 1 3bd Rx d 8 14 0b 13 00 00 00 00 00 
9.721400 1 3be Rx d 8 00 00 00 80 00 00 00 00 
9.782300 1 3b8 Rx d 8 00 00 01 18 01 00 13 12 
9.792000 1 3ba Rx d 8 50 4f 66 5b 65 6d 00 00 
9.802100 1 3bc Rx d 8 50 4f 34 05 00 8c 00 00 
9.812300 1 3bd Rx d 8 14 0b 13 00 00 00 00 00 
9.822300 1 3be Rx d 8 00 00 00 80 00 00 00 00 
9.882900 1 3b8 Rx d 8 00 00 01 18 01 00 13 12 
9.892800 1 3ba Rx d 8 50 4f 66 5b 65 6d 00 00 
9.902900 1 3bc Rx d 8 50 4f 34 05 00 8c 00 00 
9.913500 1 3bd Rx d 8 14 0b 13 00 00 00 00 00 
9.923100 1 3be Rx d 8 00 00 00 80 00 00 00 00 
9.983700 1 3b8 Rx d 8 00 00 01 18 01 00 13 12 
9.993700 1 3ba Rx d 8 50 4f 66 5b 65 6d 00 00 
10.003800 1 3bc Rx d 8 50 4f 34 00 00 8c 00 00 
10.013800 1 3bd Rx d 8 14 0b 13 00 00 00 00 00 
10.024000 1 3be Rx d 8 00 00 00 80 00 00 00 00 
10.084400 1 3b8 Rx d 8 00 00 01 18 01 00 13 12 
10.094700 1 3ba Rx d 8 50 4f 66 5b 65 6d 00 00 
10.104600 1 3bc Rx d 8 50 4f 34 00 00 8c 00 00 
10.114800 1 3bd Rx d 8 14 0b 13 00 00 00 00 00 
10.124800 1 3be Rx d 8 00 00 00 80 00 00 00 00 
10.185400 1 3b8 Rx d 8 00 00 01 18 01 00 13 12 
10.195400 1 3ba Rx d 8 50 4f 66 5b 65 6d 00 00 
10.205500 1 3bc Rx d 8 50 4f 34 00 00 8c 00 00 
10.215600 1 3bd Rx d 8 14 0b 13 00 00 00 00 00 
10.226100 1 3be Rx d 8 00 00 00 80 00 00 00 00 
10.286300 1 3b8 Rx d 8 00 00 01 18 01 00 13 12 
10.296300 1 3ba Rx d 8 50 4f 66 5b 65 6d 00 00 
10.306900 1 3bc Rx d 8 50 4f 34 00 00 8c 00 00 
10.316400 1 3bd Rx d 8 14 0b 13 00 00 00 00 00 
10.326500 1 3be Rx d 8 00 00 00 80 00 00 00 00 
10.387100 1 3b8 Rx d 8 00 00 01 18 01 00 13 12 
10.397100 1 3ba Rx d 8 50 4f 66 5b 65 6d 00 00 
10.407500 1 3bc Rx d 8 50 4f 34 00 00 8c 00 00 
10.417200 1 3bd Rx d 8 14 0b 13 00 00 00 00 00 
10.427300 1 3be Rx d 8 00 00 00 80 00 00 00 00 
10.488500 1 3b8 Rx d 8 00 00 01 18 01 00 13 12 
10.498000 1 3ba Rx d 8 50 4f 66 5b 65 6d 00 00 
10.508000 1 3bc Rx d 8 50 4f 34 00 00 8c 00 00 
10.518100 1 3bd Rx d 8 14 0b 13 00 00 00 00 00 
10.528200 1 3be Rx d 8 00 00 00 80 00 00 00 00 
10.588800 1 3b8 Rx d 8 00 00 01 18 01 00 13 12 
10.598800 1 3ba Rx d 8 50 4f 66 5b 65 6d 00 00 
10.608900 1 3bc Rx d 8 50 4f 33 f0 00 8c 00 00 
10.618900 1 3bd Rx d 8 14 0b 13 00 00 00 00 00 
10.629000 1 3be Rx d 8 00 00 00 80 00 00 00 00 
10.689500 1 3b8 Rx d 8 00 00 01 18 01 00 13 12 
10.699700 1 3ba Rx d 8 50 4f 66 5b 65 6d 00 00 
10.709600 1 3bc Rx d 8 50 4f 33 f0 00 8c 00 00 
10.719800 1 3bd Rx d 8 14 0b 13 00 00 00 00 00 
10.729800 1 3be Rx d 8 00 00 00 80 00 00 00 00 
10.790500 1 3b8 Rx d 8 00 00 01 18 01 00 13 12 
10.801000 1 3ba Rx d 8 50 4f 66 5b 65 6d 00 00 
10.810600 1 3bc Rx d 8 50 4f 33 f0 00 8c 00 00 
10.820600 1 3bd Rx d 8 14 0b 13 00 00 00 00 00 
10.830800 1 3be Rx d 8 00 00 00 80 00 00 00 00 
10.891300 1 3b8 Rx d 8 00 00 01 18 01 00 13 12 
10.901200 1 3ba Rx d 8 50 4f 66 5b 65 6d 00 00 
10.911400 1 3bc Rx d 8 50 4f 33 e9 00 8c 00 00 
10.921300 1 3bd Rx d 8 14 0b 13 00 00 00 00 00 
10.931900 1 3be Rx d 8 00 00 00 80 00 00 00 00 
10.992000 1 3b8 Rx d 8 00 00 01 18 01 00 13 12 
11.002100 1 3ba Rx d 8 50 4f 66 5b 65 6d 00 00 
11.012100 1 3bc Rx d 8 50 4f 33 e9 00 8c 00 00 
11.022300 1 3bd Rx d 8 14 0b 13 00 00 00 00 00 
11.032300 1 3be Rx d 8 00 00 00 80 00 00 00 00 
11.092800 1 3b8 Rx d 8 00 00 01 18 01 00 13 12 
11.102900 1 3ba Rx d 8 50 4f 66 5b 65 6d 00 00 
11.113100 1 3bc Rx d 8 50 4f 33 e9 00 8c 00 00 
11.123100 1 3bd Rx d 8 14 0b 13 00 00 00 00 00 
11.133100 1 3be Rx d 8 00 00 00 80 00 00 00 00 
11.194200 1 3b8 Rx d 8 00 00 01 18 01 00 13 12 
11.203800 1 3ba Rx d 8 50 4f 66 5b 65 6d 00 00 
11.213800 1 3bc Rx d 8 50 4f 33 e9 00 8c 00 00 
11.223800 1 3bd Rx d 8 14 0b 13 00 00 00 00 00 
11.234000 1 3be Rx d 8 00 00 00 80 00 00 00 00 
11.294400 1 3b8 Rx d 8 00 00 01 18 01 00 13 12 
11.304600 1 3ba Rx d 8 50 4f 66 5b 65 6d 00 00 
11.314500 1 3bc Rx d 8 50 4f 33 e9 00 8c 00 00 
11.324700 1 3bd Rx d 8 14 0b 13 00 00 00 00 00 
11.334800 1 3be Rx d 8 00 00 00 80 00 00 00 00 
11.395400 1 3b8 Rx d 8 00 00 01 18 01 00 13 12 
11.405200 1 3ba Rx d 8 50 4f 66 5b 65 6d 00 00 
11.415400 1 3bc Rx d 8 50 4f 33 e9 00 8c 00 00 
11.425800 1 3bd Rx d 8 14 0b 13 00 00 00 00 00 
11.435700 1 3be Rx d 8 00 00 00 80 00 00 00 00 
11.496300 1 3b8 Rx d 8 00 00 01 18 01 00 13 12 
11.506500 1 3ba Rx d 8 50 4f 66 5b 65 6d 00 00 
11.516400 1 3bc Rx d 8 50 4f 33 e9 00 8c 00 00 
11.526800 1 3bd Rx d 8 14 0b 13 00 00 00 00 00 
11.536600 1 3be Rx d 8 00 00 00 80 00 00 00 00 
11.597100 1 3b8 Rx d 8 00 00 01 18 01 00 13 12 
11.607200 1 3ba Rx d 8 50 4f 66 5b 65 6d 00 00 
11.617100 1 3bc Rx d 8 50 4f 33 e9 00 8c 00 00 
11.627200 1 3bd Rx d 8 14 0b 13 00 00 00 00 00 
11.637900 1 3be Rx d 8 00 00 00 80 00 00 00 00 
11.698100 1 3b8 Rx d 8 00 00 01 18 01 00 13 12 
11.708100 1 3ba Rx d 8 50 4f 66 5b 65 6d 00 00 
11.718000 1 3bc Rx d 8 50 4f 33 e9 00 8c 00 00 
11.728100 1 3bd Rx d 8 14 0b 13 00 00 00 00 00 
11.738200 1 3be Rx d 8 00 00 00 80 00 00 00 00 
11.798900 1 3b8 Rx d 8 00 00 01 18 01 00 13 12 
11.809100 1 3ba Rx d 8 50 4f 66 5b 65 6d 00 00 
11.819200 1 3bc Rx d 8 50 4f 33 e9 00 8c 00 00 
11.829200 1 3bd Rx d 8 14 0b 13 00 00 00 00 00 
11.839300 1 3be Rx d 8 00 00 00 80 00 00 00 00 
11.900100 1 3b8 Rx d 8 00 00 01 18 01 00 13 12 
11.910100 1 3ba Rx d 8 50 4f 66 5b 65 6d 00 00 
11.920000 1 3bc Rx d 8 50 4f 33 e9 00 8c 00 00 
11.930200 1 3bd Rx d 8 14 0b 13 00 00 00 00 00 
11.940300 1 3be Rx d 8 00 00 00 80 00 00 00 00 
12.000900 1 3b8 Rx d 8 00 00 01 18 01 00 13 12 
12.010900 1 3ba Rx d 8 50 4f 66 5b 65 6d 00 00 
12.021000 1 3bc Rx d 8 50 4f 33 db 00 8c 00 00 
12.031200 1 3bd Rx d 8 14 0b 13 00 00 00 00 00 
12.041300 1 3be Rx d 8 00 00 00 80 00 00 00 00 
12.101700 1 3b8 Rx d 8 00 00 01 18 01 00 13 12 
12.111700 1 3ba Rx d 8 50 4f 66 5b 65 6d 00 00 
12.121700 1 3bc Rx d 8 50 4f 33 db 00 8c 00 00 
12.132000 1 3bd Rx d 8 14 0b 13 00 00 00 00 00 
12.142000 1 3be Rx d 8 00 00 00 80 00 00 00 00 
12.202700 1 3b8 Rx d 8 00 00 01 18 01 00 13 12 
12.212800 1 3ba Rx d 8 50 4f 66 5b 65 6d 00 00 
12.222800 1 3bc Rx d 8 50 4f 33 db 00 8c 00 00 
12.232800 1 3bd Rx d 8 14 0b 13 00 00 00 00 00 
12.243400 1 3be Rx d 8 00 00 00 80 00 00 00 00 
12.303600 1 3b8 Rx d 8 00 00 01 18 01 00 13 12 
12.313600 1 3ba Rx d 8 50 4f 66 5b 65 6d 00 00 
12.323600 1 3bc Rx d 8 50 4f 33 d2 00 8c 00 00 
12.333600 1 3bd Rx d 8 14 0b 13 00 00 00 00 00 
12.343800 1 3be Rx d 8 00 00 00 80 00 00 00 00 
12.404400 1 3b8 Rx d 8 00 00 01 18 01 00 13 12 
12.414500 1 3ba Rx d 8 50 4f 66 5b 65 6d 00 00 
12.424500 1 3bc Rx d 8 50 4f 33 d2 00 8c 00 00 
12.434700 1 3bd Rx d 8 14 0b 13 00 00 00 00 00 
12.444800 1 3be Rx d 8 00 00 00 80 00 00 00 00 
12.505600 1 3b8 Rx d 8 00 00 01 18 01 00 13 12 
12.515400 1 3ba Rx d 8 50 4f 66 5b 65 6d 00 00 
12.525600 1 3bc Rx d 8 50 4f 33 d2 00 8c 00 00 
12.535600 1 3bd Rx d 8 14 0b 13 00 00 00 00 00 
12.545800 1 3be Rx d 8 00 00 00 80 00 00 00 00 
12.606300 1 3b8 Rx d 8 64 00 01 18 01 00 13 12 
12.616400 1 3ba Rx d 8 50 4f 66 5b 65 6d 00 00 
12.626400 1 3bc Rx d 8 50 4f 33 d1 00 8c 00 00 
12.636500 1 3bd Rx d 8 14 0b 13 00 00 00 00 00 
12.646800 1 3be Rx d 8 00 00 00 80 00 00 00 00 
12.707800 1 3b8 Rx d 8 64 00 01 18 01 00 13 12 
12.717400 1 3ba Rx d 8 50 4f 66 5b 65 6d 00 00 
12.727400 1 3bc Rx d 8 50 4f 33 d1 00 8c 00 00 
12.737500 1 3bd Rx d 8 14 0b 13 00 00 00 00 00 
12.747800 1 3be Rx d 8 00 00 00 80 00 00 00 00 
12.808300 1 3b8 Rx d 8 64 00 01 18 01 00 13 12 
12.818300 1 3ba Rx d 8 50 4f 66 5b 65 6d 00 00 
12.828900 1 3bc Rx d 8 50 4f 33 d1 00 8c 00 00 
12.838600 1 3bd Rx d 8 14 0b 13 00 00 00 00 00 
12.848600 1 3be Rx d 8 00 00 00 80 00 00 00 00 
12.909100 1 3b8 Rx d 8 64 00 01 18 01 00 13 12 
12.919100 1 3ba Rx d 8 50 4f 66 5b 65 6d 00 00 
12.929200 1 3bc Rx d 8 50 4f 33 d1 00 8c 00 00 
12.939200 1 3bd Rx d 8 14 0b 13 00 00 00 00 00 
12.949300 1 3be Rx d 8 00 00 00 80 00 00 00 00 
13.010000 1 3b8 Rx d 8 64 00 01 18 01 00 13 12 
13.020300 1 3ba Rx d 8 50 4f 66 5b 65 6d 00 00 
13.030000 1 3bc Rx d 8 50 4f 33 d1 00 8c 00 00 
13.040100 1 3bd Rx d 8 14 0b 13 00 00 00 00 00 
13.050200 1 3be Rx d 8 00 00 00 80 00 00 00 00 
13.110800 1 3b8 Rx d 8 64 00 01 18 01 00 13 12 
13.120800 1 3ba Rx d 8 50 4f 66 5b 65 6d 00 00 
13.130800 1 3bc Rx d 8 50 4f 33 cc 00 8c 00 00 
13.140800 1 3bd Rx d 8 14 0b 13 00 00 00 00 00 
13.151100 1 3be Rx d 8 00 00 00 80 00 00 00 00 
13.211700 1 3b8 Rx d 8 64 00 01 18 01 00 13 12 
13.221700 1 3ba Rx d 8 50 4f 66 5b 65 6d 00 00 
13.231700 1 3bc Rx d 8 50 4f 33 cc 00 8c 00 00 
13.241700 1 3bd Rx d 8 14 0b 13 00 00 00 00 00 
13.251800 1 3be Rx d 8 00 00 00 80 00 00 00 00 
13.312500 1 3b8 Rx d 8 64 00 01 18 01 00 13 12 
13.322500 1 3ba Rx d 8 50 4f 66 5b 65 6d 00 00 
13.333000 1 3bc Rx d 8 50 4f 33 cc 00 8c 00 00 
13.342600 1 3bd Rx d 8 14 0b 13 00 00 00 00 00 
13.352600 1 3be Rx d 8 00 00 00 80 00 00 00 00 
13.413200 1 3b8 Rx d 8 64 00 01 18 01 00 13 12 
13.423300 1 3ba Rx d 8 50 4f 66 5b 65 6d 00 00 
13.433400 1 3bc Rx d 8 50 4f 33 ba 00 8c 00 00 
13.443400 1 3bd Rx d 8 14 0b 13 00 00 00 00 00 
13.453500 1 3be Rx d 8 00 00 00 80 00 00 00 00 
13.514000 1 3b8 Rx d 8 64 00 01 18 01 00 13 12 
13.524500 1 3ba Rx d 8 50 4f 66 5b 65 6d 00 00 
13.534100 1 3bc Rx d 8 50 4f 33 ba 00 8c 00 00 
13.544100 1 3bd Rx d 8 14 0b 13 00 00 00 00 00 
13.554200 1 3be Rx d 8 00 00 00 80 00 00 00 00 
13.615100 1 3b8 Rx d 8 64 00 01 18 01 00 13 12 
13.625000 1 3ba Rx d 8 50 4f 66 5b 65 6d 00 00 
13.635200 1 3bc Rx d 8 50 4f 33 ba 00 8c 00 00 
13.645800 1 3bd Rx d 8 14 0b 13 00 00 00 00 00 
13.655300 1 3be Rx d 8 00 00 00 80 00 00 00 00 
13.716100 1 3b8 Rx d 8 64 00 01 18 01 00 13 12 
13.725800 1 3ba Rx d 8 50 4f 66 5b 65 6d 00 00 
13.735800 1 3bc Rx d 8 50 4f 33 ba 00 8c 00 00 
13.745900 1 3bd Rx d 8 14 0b 13 00 00 00 00 00 
13.756200 1 3be Rx d 8 00 00 00 80 00 00 00 00 
13.816900 1 3b8 Rx d 8 64 00 01 18 01 00 13 12 
13.826800 1 3ba Rx d 8 50 4f 66 5b 65 6d 00 00 
13.837200 1 3bc Rx d 8 50 4f 33 ba 00 8c 00 00 
13.846900 1 3bd Rx d 8 14 0b 13 00 00 00 00 00 
13.857000 1 3be Rx d 8 00 00 00 80 00 00 00 00 
13.917600 1 3b8 Rx d 8 64 00 01 18 01 00 13 12 
13.927600 1 3ba Rx d 8 50 4f 66 5b 65 6d 00 00 
13.937700 1 3bc Rx d 8 50 4f 33 ba 00 8c 00 00 
13.947800 1 3bd Rx d 8 14 0b 13 00 00 00 00 00 
13.958300 1 3be Rx d 8 00 00 00 80 00 00 00 00 
14.018500 1 3b8 Rx d 8 64 00 01 18 01 00 13 12 
14.028700 1 3ba Rx d 8 50 4f 66 5b 65 6d 00 00 
14.038600 1 3bc Rx d 8 50 4f 33 ba 00 8c 00 00 
14.048600 1 3bd Rx d 8 14 0b 13 00 00 00 00 00 
14.058700 1 3be Rx d 8 00 00 00 80 00 00 00 00 
14.119600 1 3b8 Rx d 8 64 00 01 18 01 00 13 12 
14.129500 1 3ba Rx d 8 50 4f 66 5b 65 6d 00 00 
14.139500 1 3bc Rx d 8 50 4f 33 ba 00 8c 00 00 
14.149700 1 3bd Rx d 8 14 0b 13 00 00 00 00 00 
14.159800 1 3be Rx d 8 00 00 00 80 00 00 00 00 
14.220400 1 3b8 Rx d 8 64 00 01 18 01 00 13 12 
14.230300 1 3ba Rx d 8 50 4f 66 5b 65 6d 00 00 
14.240500 1 3bc Rx d 8 50 4f 33 ba 00 8c 00 00 
14.250600 1 3bd Rx d 8 14 0b 13 00 00 00 00 00 
14.260600 1 3be Rx d 8 00 00 00 80 00 00 00 00 
14.321600 1 3b8 Rx d 8 64 00 01 18 01 00 13 12 
14.331200 1 3ba Rx d 8 50 4f 66 5b 65 6d 00 00 
14.341300 1 3bc Rx d 8 50 4f 33 ba 00 8c 00 00 
14.351400 1 3bd Rx d 8 14 0b 13 00 00 00 00 00 
14.361500 1 3be Rx d 8 00 00 00 80 00 00 00 00 
14.421900 1 3b8 Rx d 8 64 00 01 18 01 00 13 12 
14.431900 1 3ba Rx d 8 50 4f 66 5b 65 6d 00 00 
14.442000 1 3bc Rx d 8 50 4f 33 ba 00 8c 00 00 
14.452100 1 3bd Rx d 8 14 0b 13 00 00 00 00 00 
14.462500 1 3be Rx d 8 00 00 00 80 00 00 00 00 
14.522800 1 3b8 Rx d 8 64 00 01 18 01 00 13 12 
14.532800 1 3ba Rx d 8 50 4f 66 5b 65 6d 00 00 
14.542900 1 3bc Rx d 8 50 4f 33 ba 00 8c 00 00 
14.553100 1 3bd Rx d 8 14 0b 13 00 00 00 00 00 
14.563100 1 3be Rx d 8 00 00 00 80 00 00 00 00 
14.623500 1 3b8 Rx d 8 64 00 01 18 01 00 13 12 
14.634100 1 3ba Rx d 8 50 4f 66 5b 65 6d 00 00 
14.643700 1 3bc Rx d 8 50 4f 33 b9 00 8c 00 00 
14.653900 1 3bd Rx d 8 14 0b 13 00 00 00 00 00 
14.664000 1 3be Rx d 8 00 00 00 80 00 00 00 00 
14.724500 1 3b8 Rx d 8 64 00 01 18 01 00 13 12 
14.734400 1 3ba Rx d 8 50 4f 66 5b 65 6d 00 00 
14.744600 1 3bc Rx d 8 50 4f 33 b9 00 8c 00 00 
14.754600 1 3bd Rx d 8 14 0b 13 00 00 00 00 00 
14.764700 1 3be Rx d 8 00 00 00 80 00 00 00 00 
14.825700 1 3b8 Rx d 8 64 00 01 18 01 00 13 12 
14.835300 1 3ba Rx d 8 50 4f 66 5b 65 6d 00 00 
14.845400 1 3bc Rx d 8 50 4f 33 a5 00 8c 00 00 
14.855400 1 3bd Rx d 8 14 0b 13 00 00 00 00 00 
14.865600 1 3be Rx d 8 00 00 00 80 00 00 00 00 
14.926200 1 3b8 Rx d 8 64 00 01 18 01 00 13 12 
14.936100 1 3ba Rx d 8 50 4f 66 5b 65 6d 00 00 
14.946200 1 3bc Rx d 8 50 4f 33 a5 00 8c 00 00 
14.956400 1 3bd Rx d 8 14 0b 13 00 00 00 00 00 
14.966700 1 3be Rx d 8 00 00 00 80 00 00 00 00 
15.027200 1 3b8 Rx d 8 64 00 01 18 01 00 13 12 
15.036900 1 3ba Rx d 8 50 4f 66 5b 65 6d 00 00 
15.047100 1 3bc Rx d 8 50 4f 33 a5 00 8c 00 00 
15.057100 1 3bd Rx d 8 14 0b 13 00 00 00 00 00 
15.067200 1 3be Rx d 8 00 00 00 80 00 00 00 00 
15.127800 1 3b8 Rx d 8 64 00 01 18 01 00 13 12 
15.137800 1 3ba Rx d 8 50 4f 66 5b 65 6d 00 00 
15.147900 1 3bc Rx d 8 50 4f 33 a2 00 8c 00 00 
15.158100 1 3bd Rx d 8 14 0b 13 00 00 00 00 00 
15.168000 1 3be Rx d 8 00 00 00 80 00 00 00 00 
15.228800 1 3b8 Rx d 8 64 00 01 18 01 00 13 12 
15.238700 1 3ba Rx d 8 50 4f 66 5b 65 6d 00 00 
15.248800 1 3bc Rx d 8 50 4f 33 a2 00 8c 00 00 
15.258900 1 3bd Rx d 8 14 0b 13 00 00 00 00 00 
15.269100 1 3be Rx d 8 00 00 00 80 00 00 00 00 
15.330100 1 3b8 Rx d 8 64 00 01 18 01 00 13 12 
15.339800 1 3ba Rx d 8 50 4f 66 5b 65 6d 00 00 
15.349800 1 3bc Rx d 8 50 4f 33 a2 00 8c 00 00 
15.359900 1 3bd Rx d 8 14 0b 13 00 00 00 00 00 
15.369900 1 3be Rx d 8 00 00 00 80 00 00 00 00 
15.430700 1 3b8 Rx d 8 64 00 01 18 01 00 13 12 
15.440600 1 3ba Rx d 8 50 4f 66 5b 65 6d 00 00 
15.451100 1 3bc Rx d 8 50 4f 33 a2 00 8c 00 00 
15.460800 1 3bd Rx d 8 14 0b 13 00 00 00 00 00 
15.470900 1 3be Rx d 8 00 00 00 80 00 00 00 00 
15.531500 1 3b8 Rx d 8 64 00 01 18 01 00 13 12 
15.541500 1 3ba Rx d 8 50 4f 66 5b 65 6d 00 00 
15.551600 1 3bc Rx d 8 50 4f 33 a2 00 8c 00 00 
15.561800 1 3bd Rx d 8 14 0b 13 00 00 00 00 00 
15.572200 1 3be Rx d 8 00 00 00 80 00 00 00 00 
15.632500 1 3b8 Rx d 8 51 00 01 18 01 00 13 12 
15.642600 1 3ba Rx d 8 50 4f 66 5b 65 6d 00 00 
15.652700 1 3bc Rx d 8 50 4f 33 a2 00 8c 00 00 
15.662800 1 3bd Rx d 8 14 0b 13 00 00 00 00 00 
15.672800 1 3be Rx d 8 00 00 00 80 00 00 00 00 
15.733500 1 3b8 Rx d 8 40 00 01 18 01 00 13 12 
15.743500 1 3ba Rx d 8 50 4f 66 5b 65 6d 00 00 
15.753500 1 3bc Rx d 8 50 4f 33 a2 00 8c 00 00 
15.763700 1 3bd Rx d 8 14 0b 13 00 00 00 00 00 
15.773900 1 3be Rx d 8 00 00 00 80 00 00 00 00 
15.834300 1 3b8 Rx d 8 39 00 01 18 01 00 13 12 
15.844200 1 3ba Rx d 8 50 4f 66 5b 65 6d 00 00 
15.854300 1 3bc Rx d 8 50 4f 33 a2 00 8c 00 00 
15.864400 1 3bd Rx d 8 14 0b 13 00 00 00 00 00 
15.874600 1 3be Rx d 8 00 00 00 80 00 00 00 00 
15.935200 1 3b8 Rx d 8 37 00 01 18 01 00 13 12 
15.945200 1 3ba Rx d 8 50 4f 66 5b 65 6d 00 00 
15.955300 1 3bc Rx d 8 50 4f 33 a2 00 8c 00 00 
15.965400 1 3bd Rx d 8 14 0b 13 00 00 00 00 00 
15.975600 1 3be Rx d 8 00 00 00 80 00 00 00 00 
16.036100 1 3b8 Rx d 8 37 00 01 18 01 00 13 12 
16.046100 1 3ba Rx d 8 50 4f 66 5b 65 6d 00 00 
16.056400 1 3bc Rx d 8 50 4f 33 a2 00 8c 00 00 
16.066200 1 3bd Rx d 8 14 0b 13 00 00 00 00 00 
16.076400 1 3be Rx d 8 00 00 00 80 00 00 00 00 
16.137100 1 3b8 Rx d 8 36 00 01 18 01 00 13 12 
16.147000 1 3ba Rx d 8 50 4f 66 5b 65 6d 00 00 
16.157200 1 3bc Rx d 8 50 4f 33 a2 00 8c 00 00 
16.167300 1 3bd Rx d 8 14 0b 13 00 00 00 00 00 
16.177500 1 3be Rx d 8 00 00 00 80 00 00 00 00 
16.237900 1 3b8 Rx d 8 36 00 01 18 01 00 10 12 
16.248100 1 3ba Rx d 8 50 4f 66 5b 65 6d 00 00 
16.258200 1 3bc Rx d 8 50 4f 33 a2 00 8c 00 00 
16.268500 1 3bd Rx d 8 14 0b 13 00 00 00 00 00 
16.278600 1 3be Rx d 8 00 00 00 80 00 00 00 00 
16.339100 1 3b8 Rx d 8 36 00 01 18 01 00 10 12 
16.348900 1 3ba Rx d 8 50 4f 66 5b 65 6d 00 00 
16.359000 1 3bc Rx d 8 50 4f 33 98 00 8c 00 00 
16.369200 1 3bd Rx d 8 14 0b 13 00 00 00 00 00 
16.379400 1 3be Rx d 8 00 00 00 80 00 00 00 00 
16.439900 1 3b8 Rx d 8 36 00 01 18 01 00 10 12 
16.450000 1 3ba Rx d 8 50 4f 66 5b 65 6d 00 00 
16.460100 1 3bc Rx d 8 50 4f 33 98 00 8c 00 00 
16.470300 1 3bd Rx d 8 14 0b 13 00 00 00 00 00 
16.480300 1 3be Rx d 8 00 00 00 80 00 00 00 00 
16.540900 1 3b8 Rx d 8 36 00 01 18 01 00 0e 12 
16.551200 1 3ba Rx d 8 50 4f 66 5b 65 6d 00 00 
16.561800 1 3bc Rx d 8 50 4f 33 8b 00 8c 00 00 
16.571900 1 3bd Rx d 8 14 0b 13 00 00 00 00 00 
16.581400 1 3be Rx d 8 00 00 00 80 00 00 00 00 
16.641900 1 3b8 Rx d 8 36 00 01 18 01 00 0e 12 
16.652100 1 3ba Rx d 8 50 4f 66 5b 65 6d 00 00 
16.662200 1 3bc Rx d 8 50 4f 33 8b 00 8c 00 00 
16.672200 1 3bd Rx d 8 14 0b 13 00 00 00 00 00 
16.682400 1 3be Rx d 8 00 00 00 00 00 00 00 00 
16.742800 1 3b8 Rx d 8 36 00 01 18 01 00 0e 12 
16.752900 1 3ba Rx d 8 50 4f 66 5b 65 6d 00 00 
16.762900 1 3bc Rx d 8 50 4f 33 8b 00 8c 00 00 
16.773000 1 3bd Rx d 8 14 0b 13 00 00 00 00 00 
16.783100 1 3be Rx d 8 00 00 00 00 00 00 00 00 
16.843700 1 3b8 Rx d 8 36 00 01 18 01 00 0e 12 
16.853700 1 3ba Rx d 8 50 4f 66 5b 65 6d 00 00 
16.863800 1 3bc Rx d 8 50 4f 33 8b 00 8c 00 00 
16.874100 1 3bd Rx d 8 14 0b 13 00 00 00 00 00 
16.884500 1 3be Rx d 8 00 00 00 00 00 00 00 00 
16.944700 1 3b8 Rx d 8 36 00 01 18 01 00 0e 12 
16.954800 1 3ba Rx d 8 50 4f 66 5b 65 6d 00 00 
16.965000 1 3bc Rx d 8 50 4f 33 8b 00 8c 00 00 
16.975000 1 3bd Rx d 8 14 0b 13 00 00 00 00 00 
16.985200 1 3be Rx d 8 00 00 00 00 00 00 00 00 
17.045800 1 3b8 Rx d 8 36 00 01 18 01 00 0e 12 
17.055700 1 3ba Rx d 8 50 4f 66 5b 65 6d 00 00 
17.065800 1 3bc Rx d 8 50 4f 33 8b 00 8c 00 00 
17.075800 1 3bd Rx d 8 14 0b 13 00 00 00 00 00 
17.086000 1 3be Rx d 8 00 00 00 00 00 00 00 00 
17.348600 1 3b8 Rx d 8 36 00 01 18 01 80 0e 12 
17.358600 1 3ba Rx d 8 50 4f 66 5b 65 6d 00 00 
17.368700 1 3bc Rx d 8 50 4f 33 81 00 8c 00 00 
17.376800 1 29c Rx d 8 fe 00 00 00 00 00 00 00 
17.378700 1 3bd Rx d 8 14 0b 13 00 00 00 00 00 
17.388800 1 3be Rx d 8 00 00 00 00 00 00 00 00 
17.442700 1 29c Rx d 8 fe 00 00 00 00 00 00 00 
17.449500 1 3b8 Rx d 8 36 00 01 18 01 80 0e 12 
17.459600 1 3ba Rx d 8 50 4f 66 5b 65 6d 00 00 
17.469600 1 3bc Rx d 8 50 4f 33 73 00 8c 00 00 
17.479700 1 3bd Rx d 8 14 0b 13 00 00 00 00 00 
17.489800 1 3be Rx d 8 00 00 00 00 00 00 00 00 
17.543800 1 29c Rx d 8 fe 00 00 00 00 00 00 00 
17.550400 1 3b8 Rx d 8 36 00 01 18 01 80 0e 12 
17.560500 1 3ba Rx d 8 50 4f 66 5b 65 6d 00 00 
17.570500 1 3bc Rx d 8 50 4f 33 73 00 8c 00 00 
17.580800 1 3bd Rx d 8 14 0b 13 00 00 00 00 00 
17.590900 1 3be Rx d 8 00 00 00 00 00 00 00 00 
17.644500 1 29c Rx d 8 00 00 00 00 00 00 00 00 
17.651400 1 3b8 Rx d 8 36 00 01 18 01 80 0e 14 
17.661600 1 3ba Rx d 8 50 4f 66 5b 65 6d 00 00 
17.671500 1 3bc Rx d 8 50 4f 33 73 00 8c 00 00 
17.681700 1 3bd Rx d 8 14 0b 13 00 00 00 00 00 
17.691900 1 3be Rx d 8 00 00 00 00 00 00 00 00 
17.745500 1 29c Rx d 8 00 00 00 00 00 00 00 00 
17.752500 1 3b8 Rx d 8 36 00 01 18 01 80 0e 14 
17.762300 1 3ba Rx d 8 50 4f 66 5b 65 6d 00 00 
17.772600 1 3bc Rx d 8 50 4f 33 73 00 8c 00 00 
17.782600 1 3bd Rx d 8 14 0b 13 00 00 00 00 00 
17.792900 1 3be Rx d 8 00 00 00 00 00 00 00 00 
17.846600 1 29c Rx d 8 00 00 00 00 00 00 00 00 
17.853400 1 3b8 Rx d 8 36 00 01 18 01 80 0e 14 
17.863400 1 3ba Rx d 8 50 4f 66 5b 65 6d 00 00 
17.873500 1 3bc Rx d 8 50 4f 33 73 00 8c 00 00 
17.883700 1 3bd Rx d 8 14 0b 13 00 00 00 00 00 
17.894400 1 3be Rx d 8 00 00 00 00 00 00 00 00 
17.947400 1 29c Rx d 8 00 00 00 00 00 00 00 00 
17.954300 1 3b8 Rx d 8 36 00 01 18 01 80 0e 14 
17.964400 1 3ba Rx d 8 50 4f 66 5b 65 6d 00 00 
17.974400 1 3bc Rx d 8 50 4f 33 73 00 8c 00 00 
17.985000 1 3bd Rx d 8 14 0b 13 00 00 00 00 00 
17.994500 1 3be Rx d 8 00 00 00 00 00 00 00 00 
18.048500 1 29c Rx d 8 00 00 00 00 00 00 00 00 
18.055400 1 3b8 Rx d 8 36 00 01 18 01 80 0e 14 
18.065300 1 3ba Rx d 8 50 4f 66 5b 65 6d 00 00 
18.075700 1 3bc Rx d 8 50 4f 33 73 00 8c 00 00 
18.085500 1 3bd Rx d 8 14 0b 13 00 00 00 00 00 
18.095600 1 3be Rx d 8 00 00 00 00 00 00 00 00 
18.149500 1 29c Rx d 8 00 00 00 00 00 00 00 00 
18.156300 1 3b8 Rx d 8 36 00 01 18 01 80 0e 14 
18.166300 1 3ba Rx d 8 50 4f 66 5b 65 6d 00 00 
18.176800 1 3bc Rx d 8 50 4f 33 73 00 8c 00 00 
18.186300 1 3bd Rx d 8 14 0b 13 00 00 00 00 00 
18.196600 1 3be Rx d 8 00 00 00 00 00 00 00 00 
18.250400 1 29c Rx d 8 00 00 00 00 00 00 00 00 
18.257100 1 3b8 Rx d 8 36 00 01 18 01 80 0e 14 
18.267400 1 3ba Rx d 8 50 4f 66 5b 65 6d 00 00 
18.278000 1 3bc Rx d 8 50 4f 33 73 00 8c 00 00 
18.287500 1 3bd Rx d 8 14 0b 13 00 00 00 00 00 
18.297500 1 3be Rx d 8 00 00 00 00 00 00 00 00 
18.351500 1 29c Rx d 8 00 00 00 00 00 00 00 00 
18.358100 1 3b8 Rx d 8 36 00 01 18 01 80 0e 14 
18.368300 1 3ba Rx d 8 50 4f 66 5b 65 6d 00 00 
18.378100 1 3bc Rx d 8 50 4f 33 73 00 6e 00 00 
18.388300 1 3bd Rx d 8 14 0b 13 00 00 00 00 00 
18.398300 1 3be Rx d 8 00 00 00 00 00 00 00 00 
18.452400 1 29c Rx d 8 00 00 00 00 00 00 00 00 
18.459100 1 3b8 Rx d 8 36 00 01 18 01 80 0e 14 
18.469300 1 3ba Rx d 8 50 4f 66 5b 65 6d 00 00 
18.479100 1 3bc Rx d 8 50 4f 33 73 00 6e 00 00 
18.489200 1 3bd Rx d 8 14 0b 13 00 00 00 00 00 
18.499400 1 3be Rx d 8 00 00 00 00 00 00 00 00 
18.553300 1 29c Rx d 8 00 00 00 00 00 00 00 00 
18.560100 1 3b8 Rx d 8 36 00 01 18 01 80 0e 14 
18.570300 1 3ba Rx d 8 50 4f 66 5b 65 6d 00 00 
18.580400 1 3bc Rx d 8 50 4f 33 72 00 8c 00 00 
18.590300 1 3bd Rx d 8 14 0b 13 00 00 00 00 00 
18.600500 1 3be Rx d 8 00 00 00 00 00 00 00 00 
18.654500 1 29c Rx d 8 00 00 00 00 00 00 00 00 
18.661000 1 3b8 Rx d 8 36 00 01 18 01 80 0e 14 
18.671400 1 3ba Rx d 8 50 4f 66 5b 65 6d 00 00 
18.681200 1 3bc Rx d 8 50 4f 33 72 00 8c 00 00 
18.691200 1 3bd Rx d 8 14 0b 13 00 00 00 00 00 
18.701300 1 3be Rx d 8 00 00 00 00 00 00 00 00 
18.755700 1 29c Rx d 8 00 00 00 00 00 00 00 00 
18.762100 1 3b8 Rx d 8 36 00 01 18 01 80 0e 14 
18.772000 1 3ba Rx d 8 50 4f 66 5b 65 6d 00 00 
18.782100 1 3bc Rx d 8 50 4f 33 72 00 8c 00 00 
18.792300 1 3bd Rx d 8 14 0b 13 00 00 00 00 00 
18.802400 1 3be Rx d 8 00 00 00 00 00 00 00 00 
18.856500 1 29c Rx d 8 00 00 00 00 00 00 00 00 
18.862900 1 3b8 Rx d 8 36 00 01 18 01 80 1a 14 
18.872900 1 3ba Rx d 8 50 4f 66 5b 65 6d 00 00 
18.883000 1 3bc Rx d 8 50 4f 33 61 00 8c 00 00 
18.893000 1 3bd Rx d 8 14 0b 13 00 00 00 00 00 
18.903100 1 3be Rx d 8 00 00 00 00 00 00 00 00 
18.957700 1 29c Rx d 8 00 00 00 00 00 00 00 00 
18.963900 1 3b8 Rx d 8 36 00 01 18 01 80 1a 14 
18.973900 1 3ba Rx d 8 50 4f 66 5b 65 6d 00 00 
18.983900 1 3bc Rx d 8 50 4f 33 61 00 8c 00 00 
18.994200 1 3bd Rx d 8 14 0b 13 00 00 00 00 00 
19.004200 1 3be Rx d 8 00 00 00 00 00 00 00 00 
19.058600 1 29c Rx d 8 00 08 00 00 00 00 00 00 
19.064800 1 3b8 Rx d 8 36 00 01 18 01 80 1a 14 
19.074800 1 3ba Rx d 8 50 4f 66 5b 65 6d 00 00 
19.084900 1 3bc Rx d 8 50 4f 33 61 00 8c 00 00 
19.095000 1 3bd Rx d 8 14 0b 13 00 00 00 00 00 
19.105200 1 3be Rx d 8 00 00 00 00 00 00 00 00 
19.159500 1 29c Rx d 8 00 08 00 00 00 00 00 00 
19.166000 1 3b8 Rx d 8 36 00 01 18 01 80 20 14 
19.175800 1 3ba Rx d 8 50 4f 66 5b 65 6d 00 00 
19.186000 1 3bc Rx d 8 50 4f 33 5c 00 8c 00 00 
19.196400 1 3bd Rx d 8 14 0b 13 00 00 00 00 00 
19.206200 1 3be Rx d 8 00 00 00 00 00 00 00 00 
19.260600 1 29c Rx d 8 00 08 00 00 00 00 00 00 
19.266700 1 3b8 Rx d 8 36 00 01 18 01 80 20 14 
19.276700 1 3ba Rx d 8 50 4f 66 5b 65 6d 00 00 
19.287500 1 3bc Rx d 8 50 4f 33 5c 00 8c 00 00 
19.297100 1 3bd Rx d 8 14 0b 13 00 00 00 00 00 
19.307000 1 3be Rx d 8 00 00 00 00 00 00 00 00 
19.361400 1 29c Rx d 8 00 08 00 00 00 00 00 00 
19.367700 1 3b8 Rx d 8 36 00 01 18 01 80 25 14 
19.377700 1 3ba Rx d 8 50 4f 66 5b 65 6d 00 00 
19.387800 1 3bc Rx d 8 50 4f 33 5c 00 8c 00 00 
19.397900 1 3bd Rx d 8 14 0b 13 00 00 00 00 00 
19.407900 1 3be Rx d 8 00 00 00 00 00 00 00 00 
19.462200 1 29c Rx d 8 00 08 00 00 00 00 00 00 
19.469300 1 3b8 Rx d 8 36 00 3b 18 01 80 25 14 
19.478800 1 3ba Rx d 8 50 4f 66 5b 65 6d 00 00 
19.488900 1 3bc Rx d 8 50 4f 37 13 16 e1 00 00 
19.498900 1 3bd Rx d 8 14 0b 13 00 00 00 00 00 
19.509000 1 3be Rx d 8 00 00 00 00 00 00 00 00 
19.563500 1 29c Rx d 8 00 08 00 00 00 00 00 00 
19.569700 1 3b8 Rx d 8 36 00 3b 18 01 80 25 14 
19.579600 1 3ba Rx d 8 50 4f 66 5b 65 6d 00 00 
19.589700 1 3bc Rx d 8 50 4f 37 13 16 e1 00 00 
19.599900 1 3bd Rx d 8 14 0b 13 00 00 00 00 00 
19.610000 1 3be Rx d 8 00 00 00 00 00 00 00 00 
19.664200 1 29c Rx d 8 00 08 00 00 00 00 00 00 
19.670600 1 3b8 Rx d 8 36 00 3b 18 01 80 25 14 
19.680700 1 3ba Rx d 8 50 4f 66 5b 65 6d 00 00 
19.690700 1 3bc Rx d 8 50 4f 37 13 16 e1 00 00 
19.700800 1 3bd Rx d 8 14 0b 13 00 00 00 00 00 
19.710900 1 3be Rx d 8 00 00 00 00 00 00 00 00 
19.765100 1 29c Rx d 8 00 08 00 00 00 00 00 00 
19.771600 1 3b8 Rx d 8 36 00 6e 18 01 80 25 14 
19.781500 1 3ba Rx d 8 50 4f 66 5b 65 6d 00 00 
19.791700 1 3bc Rx d 8 50 4f 3d 90 2a fd 00 00 
19.801600 1 3bd Rx d 8 14 0b 13 00 00 00 00 00 
19.811700 1 3be Rx d 8 00 00 00 00 00 00 00 00 
19.866300 1 29c Rx d 8 00 08 00 00 00 00 00 00 
19.872400 1 3b8 Rx d 8 36 00 6e 18 01 80 25 34 
19.882400 1 3ba Rx d 8 50 4f 66 5b 65 6d 00 00 
19.892600 1 3bc Rx d 8 50 4f 3d 90 2a fd 00 00 
19.902700 1 3bd Rx d 8 14 0b 13 00 00 00 00 00 
19.912800 1 3be Rx d 8 00 00 00 00 00 00 00 00 
19.967100 1 29c Rx d 8 00 08 00 00 00 00 00 00 
19.973300 1 3b8 Rx d 8 36 00 6e 18 01 80 25 34 
19.983500 1 3ba Rx d 8 50 4f 66 5b 65 6d 00 00 
19.993500 1 3bc Rx d 8 50 4f 3d 90 2a fd 00 00 
20.003700 1 3bd Rx d 8 14 0b 13 00 00 00 00 00 
20.013700 1 3be Rx d 8 00 00 00 00 00 00 00 00 
20.067900 1 29c Rx d 8 00 08 00 00 00 00 00 00 
20.074500 1 3b8 Rx d 8 36 00 77 18 01 80 25 34 
20.084400 1 3ba Rx d 8 50 4f 66 5b 65 6d 00 00 
20.094400 1 3bc Rx d 8 50 4f 3f 8f 2e 9d 00 00 
20.104700 1 3bd Rx d 8 14 0b 13 00 00 00 00 00 
20.114700 1 3be Rx d 8 00 00 00 00 00 00 00 00 
20.169000 1 29c Rx d 8 00 08 00 00 00 00 00 00 
20.175200 1 3b8 Rx d 8 36 00 77 18 01 80 25 34 
20.185200 1 3ba Rx d 8 50 4f 66 5b 65 6d 00 00 
20.195400 1 3bc Rx d 8 50 4f 3f 8f 2e 9d 00 00 
20.205600 1 3bd Rx d 8 14 0b 13 00 00 00 00 00 
20.215600 1 3be Rx d 8 00 00 00 00 00 00 00 00 
20.270000 1 29c Rx d 8 00 08 00 00 00 00 00 00 
20.276400 1 3b8 Rx d 8 36 00 77 18 01 80 2a 34 
20.286300 1 3ba Rx d 8 50 4f 66 5b 65 6d 00 00 
20.296300 1 3bc Rx d 8 50 4f 3f 8f 2e 9d 00 00 
20.306500 1 3bd Rx d 8 14 0b 13 00 00 00 00 00 
20.316800 1 3be Rx d 8 00 00 00 00 00 00 00 00 
20.371000 1 29c Rx d 8 00 08 00 00 00 00 00 00 
20.377300 1 3b8 Rx d 8 36 00 79 18 01 80 2a 34 
20.387300 1 3ba Rx d 8 50 4f 66 5b 65 6d 00 00 
20.397400 1 3bc Rx d 8 50 4f 40 df 2f 15 00 00 
20.407400 1 3bd Rx d 8 14 0b 13 00 00 00 00 00 
20.417600 1 3be Rx d 8 00 00 00 00 00 00 00 00 
20.471800 1 29c Rx d 8 00 08 00 00 00 00 00 00 
20.478200 1 3b8 Rx d 8 36 00 79 18 01 80 2a 34 
20.488300 1 3ba Rx d 8 50 4f 66 5b 65 6d 00 00 
20.498400 1 3bc Rx d 8 50 4f 40 df 2f 15 00 00 
20.508400 1 3bd Rx d 8 14 0b 13 00 00 00 00 00 
20.518400 1 3be Rx d 8 00 00 00 00 00 00 00 00 
20.572900 1 29c Rx d 8 00 08 00 00 00 00 00 00 
20.579200 1 3b8 Rx d 8 36 00 79 18 01 80 2a 34 
20.589200 1 3ba Rx d 8 50 4f 66 5b 65 6d 00 00 
20.599400 1 3bc Rx d 8 50 4f 40 df 2f 15 00 00 
20.609500 1 3bd Rx d 8 14 0b 13 00 00 00 00 00 
20.619700 1 3be Rx d 8 00 00 00 00 00 00 00 00 
20.673600 1 29c Rx d 8 00 08 00 00 00 00 00 00 
20.680100 1 3b8 Rx d 8 36 00 79 18 01 80 2a 34 
20.690300 1 3ba Rx d 8 50 4f 66 5b 65 6d 00 00 
20.700300 1 3bc Rx d 8 50 4f 40 f2 2f 33 00 00 
20.710300 1 3bd Rx d 8 14 0b 13 00 00 00 00 00 
20.720500 1 3be Rx d 8 00 00 00 00 00 00 00 00 
20.774900 1 29c Rx d 8 00 08 00 00 00 00 00 00 
20.781500 1 3b8 Rx d 8 36 00 79 18 01 80 2a 34 
20.791100 1 3ba Rx d 8 50 4f 66 5b 65 6c 00 00 
20.801100 1 3bc Rx d 8 50 4f 40 f2 2f 33 00 00 
20.811200 1 3bd Rx d 8 14 0b 13 00 00 00 00 00 
20.821300 1 3be Rx d 8 00 00 00 00 00 00 00 00 
20.875600 1 29c Rx d 8 00 08 00 00 00 00 00 00 
20.881900 1 3b8 Rx d 8 36 00 79 18 01 80 39 34 
20.892600 1 3ba Rx d 8 50 4f 66 5b 65 6c 00 00 
20.902200 1 3bc Rx d 8 50 4f 50 09 2f 15 00 00 
20.912100 1 3bd Rx d 8 14 0b 13 00 00 00 00 00 
20.922300 1 3be Rx d 8 00 00 00 00 00 00 00 00 
20.976500 1 29c Rx d 8 00 08 00 00 00 00 00 00 
20.983000 1 3b8 Rx d 8 36 02 79 18 01 80 39 34 
20.993200 1 3ba Rx d 8 50 4f 66 5b 65 6c 00 00 
21.003000 1 3bc Rx d 8 50 4f 50 09 2f 15 00 00 
21.013200 1 3bd Rx d 8 14 0b 13 00 00 00 00 00 
21.023400 1 3be Rx d 8 00 00 00 00 00 00 00 00 
21.077400 1 29c Rx d 8 00 08 00 00 00 00 00 00 
21.083800 1 3b8 Rx d 8 36 02 79 18 01 80 39 34 
21.093800 1 3ba Rx d 8 50 4f 66 5b 65 6c 00 00 
21.104500 1 3bc Rx d 8 50 4f 50 09 2f 15 00 00 
21.114200 1 3bd Rx d 8 14 0b 13 00 00 00 00 00 
21.124300 1 3be Rx d 8 00 00 00 00 00 00 00 00 
21.178700 1 29c Rx d 8 00 08 00 00 00 00 00 00 
21.185000 1 3b8 Rx d 8 36 02 79 18 01 be b8 34 
21.194900 1 3ba Rx d 8 50 4f 66 5b 65 6c 00 00 
21.205100 1 3bc Rx d 8 50 4f 54 a7 2f 50 00 00 
21.215200 1 3bd Rx d 8 14 0b 13 00 00 00 00 00 
21.225800 1 3be Rx d 8 00 00 00 00 00 00 00 00 
21.279400 1 29c Rx d 8 00 08 00 00 00 00 00 00 
21.285900 1 3b8 Rx d 8 36 01 79 18 01 be b8 38 
21.295900 1 3ba Rx d 8 50 4f 66 5b 65 6c 00 00 
21.306000 1 3bc Rx d 8 50 4f 54 a7 2f 50 00 00 
21.316100 1 3bd Rx d 8 14 0b 13 00 00 00 00 00 
21.326300 1 3be Rx d 8 00 00 00 00 00 00 00 00 
21.380300 1 29c Rx d 8 00 08 00 00 00 00 00 00 
21.386700 1 3b8 Rx d 8 36 01 79 18 01 be b8 38 
21.396700 1 3ba Rx d 8 50 4f 66 5b 65 6c 00 00 
21.406900 1 3bc Rx d 8 50 4f 54 a7 2f 50 00 00 
21.417000 1 3bd Rx d 8 14 0b 13 00 00 00 00 00 
21.427100 1 3be Rx d 8 00 00 00 00 00 00 00 00 
21.481500 1 29c Rx d 8 00 08 00 00 00 00 00 00 
21.487800 1 3b8 Rx d 8 36 01 79 18 01 d0 a9 38 
21.497900 1 3ba Rx d 8 50 4f 66 5b 65 6c 00 00 
21.507800 1 3bc Rx d 8 50 4f 54 89 2f 50 00 00 
21.517900 1 3bd Rx d 8 14 0b 13 00 00 00 00 00 
21.528200 1 3be Rx d 8 00 00 00 00 00 00 00 00 
21.582400 1 29c Rx d 8 00 08 24 00 00 8c 5a 3c 
21.588600 1 3b8 Rx d 8 36 00 79 18 01 d0 a9 38 
21.598800 1 3ba Rx d 8 50 4f 66 5b 65 6c 00 00 
21.608900 1 3bc Rx d 8 50 4f 54 89 2f 50 00 00 
21.619000 1 3bd Rx d 8 14 0b 13 00 00 00 00 00 
21.629200 1 3be Rx d 8 00 00 00 00 00 00 00 00 
21.682900 1 29c Rx d 8 00 08 24 00 00 8c 5a 3c 
21.690000 1 3b8 Rx d 8 36 00 79 18 01 d2 a4 58 
21.700400 1 3ba Rx d 8 50 4f 66 5b 65 6c 00 00 
21.710000 1 3bc Rx d 8 50 4f 54 89 2f 50 00 00 
21.719900 1 3bd Rx d 8 14 0b 13 00 00 00 00 00 
21.730100 1 3be Rx d 8 00 00 00 00 00 00 00 00 
21.784400 1 29c Rx d 8 00 08 24 00 00 8c 5a 3c 
21.790800 1 3b8 Rx d 8 36 00 79 18 01 d2 a4 58 
21.800900 1 3ba Rx d 8 50 4f 66 5b 65 6c 00 00 
21.811600 1 3bc Rx d 8 50 4f 54 60 2f 50 00 00 
21.821100 1 3bd Rx d 8 14 0b 13 00 00 00 00 00 
21.831200 1 3be Rx d 8 00 00 00 00 00 00 00 00 
21.885000 1 29c Rx d 8 00 08 24 00 00 8c 5a 3c 
21.892000 1 3b8 Rx d 8 36 00 79 18 01 d2 a4 58 
21.901700 1 3ba Rx d 8 50 4f 66 5b 65 6c 00 00 
21.911800 1 3bc Rx d 8 50 4f 54 60 2f 50 00 00 
21.921800 1 3bd Rx d 8 14 0b 13 00 00 00 00 00 
21.932000 1 3be Rx d 8 00 00 00 00 00 00 00 00 
21.986100 1 29c Rx d 8 40 08 24 08 00 8c 5a 3c 
21.992500 1 3b8 Rx d 8 36 00 79 18 01 d2 dc 58 
22.002600 1 3ba Rx d 8 50 4f 66 5b 65 6c 00 00 
22.012700 1 3bc Rx d 8 50 4f 54 60 2f 50 00 00 
22.022800 1 3bd Rx d 8 14 0b 13 00 00 00 00 00 
22.032900 1 3be Rx d 8 00 00 00 00 00 00 00 00 
22.087200 1 29c Rx d 8 40 08 24 08 00 8c 5a 3c 
22.093500 1 3b8 Rx d 8 36 00 79 18 01 d2 dc 58 
22.103600 1 3ba Rx d 8 50 4f 66 5b 65 6c 00 00 
22.113600 1 3bc Rx d 8 50 4f 54 42 2f 50 00 00 
22.123800 1 3bd Rx d 8 14 0b 13 00 00 00 00 00 
22.133900 1 3be Rx d 8 00 00 00 00 00 00 00 00 
22.188000 1 29c Rx d 8 40 08 24 08 00 8c 5a 3c 
22.194600 1 3b8 Rx d 8 36 00 79 18 01 d2 dc 58 
22.204400 1 3ba Rx d 8 50 4f 66 5b 65 6c 00 00 
22.214600 1 3bc Rx d 8 50 4f 54 42 2f 50 00 00 
22.224600 1 3bd Rx d 8 14 0b 13 00 00 00 00 00 
22.235000 1 3be Rx d 8 00 00 00 00 00 00 00 00 
22.289300 1 29c Rx d 8 40 08 24 08 00 8c 5a 3c 
22.295400 1 3b8 Rx d 8 36 00 79 18 01 d2 dc 58 
22.305500 1 3ba Rx d 8 50 4f 66 5b 65 6c 00 00 
22.315600 1 3bc Rx d 8 50 4f 54 42 2f 50 00 00 
22.326300 1 3bd Rx d 8 14 0b 13 00 00 00 00 00 
22.335700 1 3be Rx d 8 00 00 00 00 00 00 00 00 
22.390700 1 29c Rx d 8 40 08 24 08 00 8c 5a 3c 
22.396500 1 3b8 Rx d 8 36 00 79 18 01 d2 dc 58 
22.406500 1 3ba Rx d 8 50 4f 66 5b 65 6c 00 00 
22.417200 1 3bc Rx d 8 50 4f 54 23 2f 50 00 00 
22.426600 1 3bd Rx d 8 14 0b 13 00 00 00 00 00 
22.436800 1 3be Rx d 8 00 00 00 00 00 00 00 00 
22.491700 1 29c Rx d 8 40 08 24 1c 00 8c 5a 3c 
22.497600 1 3b8 Rx d 8 36 00 79 18 01 d2 dc 58 
22.507400 1 3ba Rx d 8 50 4f 66 5b 65 6c 00 00 
22.517500 1 3bc Rx d 8 50 4f 54 23 2f 50 00 00 
22.527600 1 3bd Rx d 8 14 0b 13 00 00 00 00 00 
22.537700 1 3be Rx d 8 00 00 00 00 00 00 00 00 
22.592600 1 29c Rx d 8 40 08 24 1c 00 8c 5a 3c 
22.598300 1 3b8 Rx d 8 36 00 79 18 01 d2 dc 58 
22.608300 1 3ba Rx d 8 50 4f 66 5b 65 6c 00 00 
22.618400 1 3bc Rx d 8 50 4f 54 23 2f 50 00 00 
22.628400 1 3bd Rx d 8 14 0b 13 00 00 00 00 00 
22.638500 1 3be Rx d 8 00 00 00 00 00 00 00 00 
22.693100 1 29c Rx d 8 40 08 24 22 00 8c 5a 3c 
22.699300 1 3b8 Rx d 8 36 00 79 18 01 d2 dc 58 
22.709300 1 3ba Rx d 8 50 4f 66 5b 65 6c 00 00 
22.719400 1 3bc Rx d 8 50 4f 54 09 2f 50 00 00 
22.729500 1 3bd Rx d 8 14 0b 13 00 00 00 00 00 
22.739600 1 3be Rx d 8 00 00 00 00 00 00 00 00 
22.794100 1 29c Rx d 8 40 08 24 22 00 8c 5a 3c 
22.800100 1 3b8 Rx d 8 36 00 79 18 01 d2 dc 58 
22.810200 1 3ba Rx d 8 50 4f 66 5b 65 6c 00 00 
22.820300 1 3bc Rx d 8 50 4f 54 09 2f 50 00 00 
22.830400 1 3bd Rx d 8 14 0b 13 00 00 00 00 00 
22.840500 1 3be Rx d 8 00 00 00 00 00 00 00 00 
22.894500 1 29c Rx d 8 40 08 24 28 00 8c 5a 3c 
22.901400 1 3b8 Rx d 8 36 00 79 18 01 d2 dc 58 
22.911400 1 3ba Rx d 8 50 4f 66 5b 65 6c 00 00 
22.921500 1 3bc Rx d 8 50 4f 54 09 2f 50 00 00 
22.931500 1 3bd Rx d 8 14 0b 13 00 00 00 00 00 
22.941900 1 3be Rx d 8 00 00 00 00 00 00 00 00 
22.995300 1 29c Rx d 8 40 08 24 28 00 8c 5a 3c 
23.002100 1 3b8 Rx d 8 36 00 79 18 01 d2 dc 58 
23.012200 1 3ba Rx d 8 50 4f 66 5b 65 6c 00 00 
23.022300 1 3bc Rx d 8 50 4f 53 f5 2f 50 00 00 
23.032900 1 3bd Rx d 8 14 0b 13 00 00 00 00 00 
23.042400 1 3be Rx d 8 00 00 00 00 00 00 00 00 
23.096400 1 29c Rx d 8 40 08 24 3c 00 8c 5a 3c 
23.103100 1 3b8 Rx d 8 36 00 79 18 01 d2 dc 58 
23.113300 1 3ba Rx d 8 50 4f 66 5b 65 6c 00 00 
23.123200 1 3bc Rx d 8 50 4f 53 f5 2f 50 00 00 
23.133200 1 3bd Rx d 8 14 0b 13 00 00 00 00 00 
23.143500 1 3be Rx d 8 00 00 00 00 00 00 00 00 
23.197500 1 29c Rx d 8 40 08 24 3c 00 8c 5a 3c 
23.204300 1 3b8 Rx d 8 36 00 79 18 01 d2 dc 58 
23.214100 1 3ba Rx d 8 50 4f 66 5b 65 6c 00 00 
23.224200 1 3bc Rx d 8 50 4f 53 f5 2f 50 00 00 
23.234200 1 3bd Rx d 8 14 0b 13 00 00 00 00 00 
23.244200 1 3be Rx d 8 00 00 00 00 00 00 00 00 
23.298200 1 29c Rx d 8 40 08 24 42 00 8c 5a 3c 
23.305100 1 3b8 Rx d 8 36 00 79 18 01 d2 dc 58 
23.315000 1 3ba Rx d 8 50 4f 66 5b 65 6c 00 00 
23.325100 1 3bc Rx d 8 50 4f 53 e1 2f 50 00 00 
23.335100 1 3bd Rx d 8 14 0b 13 00 00 00 00 00 
23.345200 1 3be Rx d 8 00 00 00 00 00 00 00 00 
23.399100 1 29c Rx d 8 40 08 24 42 00 8c 5a 3c 
23.406000 1 3b8 Rx d 8 36 00 79 18 01 d2 dc 58 
23.416000 1 3ba Rx d 8 50 4f 66 5b 65 6c 00 00 
23.426100 1 3bc Rx d 8 50 4f 53 e1 2f 50 00 00 
23.436200 1 3bd Rx d 8 14 0b 13 00 00 00 00 00 
23.446300 1 3be Rx d 8 00 00 00 00 00 00 00 00 
23.500000 1 29c Rx d 8 40 08 24 48 00 8c 5a 3c 
23.506900 1 3b8 Rx d 8 36 00 79 18 01 d2 dc 58 
23.517000 1 3ba Rx d 8 50 4f 66 5b 65 6c 00 00 
23.527000 1 3bc Rx d 8 50 4f 53 e1 2f 50 00 00 
23.537100 1 3bd Rx d 8 14 0b 13 00 00 00 00 00 
23.547200 1 3be Rx d 8 00 00 00 00 00 00 00 00 
23.601200 1 29c Rx d 8 40 08 24 48 00 8c 5a 3c 
23.607900 1 3b8 Rx d 8 36 00 79 18 01 d2 dc 58 
23.617900 1 3ba Rx d 8 50 4f 66 5b 65 6c 00 00 
23.628000 1 3bc Rx d 8 50 4f 53 da 2f 50 00 00 
23.638000 1 3bd Rx d 8 14 0b 13 00 00 00 00 00 
23.648400 1 3be Rx d 8 00 00 00 00 00 00 00 00 
23.701900 1 29c Rx d 8 40 08 24 4e 00 8c 5a 3c 
23.708900 1 3b8 Rx d 8 36 00 79 18 01 d2 dc 58 
23.718800 1 3ba Rx d 8 50 4f 66 5b 65 6c 00 00 
23.729000 1 3bc Rx d 8 50 4f 53 da 2f 50 00 00 
23.739400 1 3bd Rx d 8 14 0b 13 00 00 00 00 00 
23.749200 1 3be Rx d 8 00 00 00 00 00 00 00 00 
23.802900 1 29c Rx d 8 40 08 24 4e 00 8c 5a 3c 
23.809900 1 3b8 Rx d 8 36 00 79 18 01 d2 dc 58 
23.819800 1 3ba Rx d 8 50 4f 66 5b 65 6c 00 00 
23.830500 1 3bc Rx d 8 50 4f 53 da 2f 50 00 00 
23.840000 1 3bd Rx d 8 14 0b 13 00 00 00 00 00 
23.850200 1 3be Rx d 8 00 00 00 00 00 00 00 00 
23.904000 1 29c Rx d 8 40 08 24 54 00 8c 5a 3c 
23.911000 1 3b8 Rx d 8 36 00 79 18 01 d2 dc 58 
23.920800 1 3ba Rx d 8 50 4f 66 5b 65 6c 00 00 
23.930800 1 3bc Rx d 8 50 4f 53 c4 2f 50 00 00 
23.940900 1 3bd Rx d 8 14 0b 13 00 00 00 00 00 
23.951000 1 3be Rx d 8 00 00 00 00 00 00 00 00 
24.005000 1 29c Rx d 8 40 08 24 54 00 8c 5a 3c 
24.011800 1 3b8 Rx d 8 36 00 79 18 01 d2 dc 58 
24.021600 1 3ba Rx d 8 50 4f 66 5b 65 6c 00 00 
24.031900 1 3bc Rx d 8 50 4f 53 c4 2f 50 00 00 
24.041800 1 3bd Rx d 8 14 0b 13 00 00 00 00 00 
24.051900 1 3be Rx d 8 00 00 00 00 00 00 00 00 
24.105800 1 29c Rx d 8 40 08 24 5a 00 8c 5a 3c 
24.112600 1 3b8 Rx d 8 36 00 79 18 01 d2 dc 58 
24.122600 1 3ba Rx d 8 50 4f 66 5b 65 6c 00 00 
24.132700 1 3bc Rx d 8 50 4f 53 c4 2f 50 00 00 
24.142800 1 3bd Rx d 8 14 0b 13 00 00 00 00 00 
24.153000 1 3be Rx d 8 00 00 00 00 00 00 00 00 
24.206900 1 29c Rx d 8 40 08 24 5a 00 8c 5a 3c 
24.213600 1 3b8 Rx d 8 36 00 79 18 01 d2 dc 58 
24.223600 1 3ba Rx d 8 50 4f 66 5b 65 6c 00 00 
24.233600 1 3bc Rx d 8 50 4f 53 ae 2f 50 00 00 
24.243800 1 3bd Rx d 8 14 0b 13 00 00 00 00 00 
24.253900 1 3be Rx d 8 00 00 00 00 00 00 00 00 
24.307900 1 29c Rx d 8 40 08 24 60 00 8c 5a 3c 
24.314500 1 3b8 Rx d 8 36 00 79 18 01 d2 dc 58 
24.324500 1 3ba Rx d 8 50 4f 66 5b 65 6c 00 00 
24.334800 1 3bc Rx d 8 50 4f 53 ae 2f 50 00 00 
24.344800 1 3bd Rx d 8 14 0b 13 00 00 00 00 00 
24.355000 1 3be Rx d 8 00 00 00 00 00 00 00 00 
24.408900 1 29c Rx d 8 40 08 24 60 00 8c 5a 3c 
24.415500 1 3b8 Rx d 8 36 00 79 18 01 d2 dc 58 
24.425500 1 3ba Rx d 8 50 4f 66 5b 65 6c 00 00 
24.435500 1 3bc Rx d 8 50 4f 53 ae 2f 50 00 00 
24.445900 1 3bd Rx d 8 14 0b 13 00 00 00 00 00 
24.455900 1 3be Rx d 8 00 00 00 00 00 00 00 00 
24.509700 1 29c Rx d 8 40 08 24 60 00 8c 5a 3c 
24.516400 1 3b8 Rx d 8 36 00 79 18 01 d2 dc 58 
24.526400 1 3ba Rx d 8 50 4f 66 5b 65 6c 00 00 
24.537000 1 3bc Rx d 8 50 4f 53 a1 2f 6e 00 00 
24.546500 1 3bd Rx d 8 14 0b 13 00 00 00 00 00 
24.556800 1 3be Rx d 8 00 00 00 00 00 00 00 00 
24.610600 1 29c Rx d 8 40 08 24 60 00 8c 5a 3c 
24.617400 1 3b8 Rx d 8 36 00 79 18 01 d2 dc 58 
24.628000 1 3ba Rx d 8 50 4f 66 5b 65 6c 00 00 
24.637600 1 3bc Rx d 8 50 4f 53 a1 2f 6e 00 00 
24.647700 1 3bd Rx d 8 14 0b 13 00 00 00 00 00 
24.657700 1 3be Rx d 8 00 00 00 00 00 00 00 00 
24.711600 1 29c Rx d 8 40 08 24 60 00 8c 5a 3c 
24.718400 1 3b8 Rx d 8 36 00 79 18 04 d2 de 58 
24.728400 1 3ba Rx d 8 50 4f 66 5b 65 6c 00 00 
24.738500 1 3bc Rx d 8 50 4f 53 a1 2f 6e 00 00 
24.748600 1 3bd Rx d 8 14 0b 13 00 00 00 00 00 
24.758700 1 3be Rx d 8 00 00 00 00 00 00 00 00 
24.812600 1 29c Rx d 8 40 08 24 60 00 8c 5a 3c 
24.819400 1 3b8 Rx d 8 36 02 79 18 04 d2 de 58 
24.829400 1 3ba Rx d 8 50 4f 66 5b 65 6c 00 00 
24.839400 1 3bc Rx d 8 50 4f 53 95 2f 15 00 00 
24.849600 1 3bd Rx d 8 14 0b 13 00 00 00 00 00 
24.859700 1 3be Rx d 8 00 00 00 00 00 00 00 00 
24.913400 1 29c Rx d 8 40 08 24 60 00 8c 5a 3c 
24.920400 1 3b8 Rx d 8 36 02 79 18 04 d2 de 58 
24.930200 1 3ba Rx d 8 50 4f 66 5b 65 6c 00 00 
24.940300 1 3bc Rx d 8 50 4f 53 95 2f 15 00 00 
24.950500 1 3bd Rx d 8 14 0b 13 00 00 00 00 00 
24.960500 1 3be Rx d 8 00 00 00 00 00 00 00 00 
25.014700 1 29c Rx d 8 40 08 24 60 00 8c 5a 3c 
25.021100 1 3b8 Rx d 8 36 02 79 18 2c d2 eb 58 
25.031200 1 3ba Rx d 8 50 4f 66 5b 65 6c 00 00 
25.041300 1 3bc Rx d 8 50 4f 53 95 2f 15 00 00 
25.051500 1 3bd Rx d 8 14 0b 13 00 00 00 00 00 
25.061600 1 3be Rx d 8 00 00 00 00 00 00 00 00 
25.115400 1 29c Rx d 8 40 08 24 60 00 8c 5a 3c 
25.122100 1 3b8 Rx d 8 36 16 78 18 2c d2 eb 58 
25.132200 1 3ba Rx d 8 50 4f 66 5b 65 6c 00 00 
25.142500 1 3bc Rx d 8 50 4f 53 80 2e bb 00 00 
25.152400 1 3bd Rx d 8 14 0b 13 00 00 00 00 00 
25.162500 1 3be Rx d 8 00 00 00 00 00 00 00 00 
25.216500 1 29c Rx d 8 40 08 24 60 00 8c 5a 3c 
25.223300 1 3b8 Rx d 8 36 16 78 18 2c d2 eb 58 
25.233600 1 3ba Rx d 8 50 4f 66 5b 65 6c 00 00 
25.243200 1 3bc Rx d 8 50 4f 53 80 2e bb 00 00 
25.253400 1 3bd Rx d 8 14 0b 13 00 00 00 00 00 
25.263600 1 3be Rx d 8 00 00 00 00 00 00 00 00 
25.317400 1 29c Rx d 8 40 08 24 60 00 8c 5a 3c 
25.324000 1 3b8 Rx d 8 36 16 78 18 4b d2 f0 58 
25.334000 1 3ba Rx d 8 50 4f 66 5b 65 6c 00 00 
25.344100 1 3bc Rx d 8 50 4f 53 7c 2e 9d 00 00 
25.354300 1 3bd Rx d 8 14 0b 13 00 00 00 00 00 
25.364300 1 3be Rx d 8 00 00 00 00 00 00 00 00 
25.418400 1 29c Rx d 8 40 08 24 60 00 8c 5a 3c 
25.425100 1 3b8 Rx d 8 36 21 77 18 4b d2 f0 58 
25.435200 1 3ba Rx d 8 50 4f 66 5b 65 6c 00 00 
25.445100 1 3bc Rx d 8 50 4f 53 7c 2e 9d 00 00 
25.455200 1 3bd Rx d 8 14 0b 13 00 00 00 00 00 
25.465300 1 3be Rx d 8 00 00 00 00 00 00 00 00 
25.519400 1 29c Rx d 8 40 08 24 66 00 8c 5a 3c 
25.526000 1 3b8 Rx d 8 36 21 77 18 4b d2 f0 58 
25.536000 1 3ba Rx d 8 50 4f 66 5b 65 6c 00 00 
25.546100 1 3bc Rx d 8 50 4f 53 7c 2e 9d 00 00 
25.556200 1 3bd Rx d 8 14 0b 13 00 00 00 00 00 
25.566400 1 3be Rx d 8 00 00 00 00 00 00 00 00 
25.620200 1 29c Rx d 8 40 08 24 66 00 8c 5a 3c 
25.626900 1 3b8 Rx d 8 36 27 77 18 59 d2 f0 58 
25.636900 1 3ba Rx d 8 50 4f 66 5b 65 6c 00 00 
25.647100 1 3bc Rx d 8 50 4f 53 66 2e 9d 00 00 
25.657200 1 3bd Rx d 8 14 0b 13 00 00 00 00 00 
25.667800 1 3be Rx d 8 00 00 00 00 00 00 00 00 
25.721300 1 29c Rx d 8 40 08 24 6c 00 8c 5a 3c 
25.727900 1 3b8 Rx d 8 36 27 77 18 59 d2 f0 58 
25.737900 1 3ba Rx d 8 50 4f 66 5b 65 6c 00 00 
25.748200 1 3bc Rx d 8 50 4f 53 66 2e 9d 00 00 
25.758100 1 3bd Rx d 8 14 0b 13 00 00 00 00 00 
25.768200 1 3be Rx d 8 00 00 00 00 00 00 00 00 
25.822100 1 29c Rx d 8 40 08 24 6c 00 8c 5a 3c 
25.828900 1 3b8 Rx d 8 36 27 77 18 5d d2 f0 58 
25.839500 1 3ba Rx d 8 50 4f 66 5b 65 6c 00 00 
25.848900 1 3bc Rx d 8 50 4f 53 66 2e 9d 00 00 
25.859100 1 3bd Rx d 8 14 0b 13 00 00 00 00 00 
25.869100 1 3be Rx d 8 00 00 00 00 00 00 00 00 
25.923200 1 29c Rx d 8 40 08 24 72 00 8c 5a 3c 
25.930300 1 3b8 Rx d 8 36 29 77 18 5d d2 f0 58 
25.939800 1 3ba Rx d 8 50 4f 66 5b 65 6c 00 00 
25.950000 1 3bc Rx d 8 50 4f 53 4f 2e 9d 00 00 
25.960000 1 3bd Rx d 8 14 0b 13 00 00 00 00 00 
25.970200 1 3be Rx d 8 00 00 00 00 00 00 00 00 
26.024300 1 29c Rx d 8 40 08 24 72 00 8c 5a 3c 
26.030900 1 3b8 Rx d 8 36 29 77 18 5d d2 f0 58 
26.040700 1 3ba Rx d 8 50 4f 66 5b 65 6c 00 00 
26.050900 1 3bc Rx d 8 50 4f 53 4f 2e 9d 00 00 
26.061100 1 3bd Rx d 8 14 0b 13 00 00 00 00 00 
26.071000 1 3be Rx d 8 00 00 00 00 00 00 00 00 
26.125000 1 29c Rx d 8 40 08 24 86 00 8c 5a 3c 
26.132000 1 3b8 Rx d 8 36 29 77 18 5c d2 f0 58 
26.141900 1 3ba Rx d 8 50 4f 66 5b 65 6c 00 00 
26.151900 1 3bc Rx d 8 50 4f 53 4f 2e 9d 00 00 
26.162100 1 3bd Rx d 8 14 0b 13 00 00 00 00 00 
26.172100 1 3be Rx d 8 00 00 00 00 00 00 00 00 
26.225900 1 29c Rx d 8 40 08 24 86 00 8c 5a 3c 
26.232700 1 3b8 Rx d 8 36 27 78 18 5c d2 f0 58 
26.242800 1 3ba Rx d 8 50 4f 66 5b 65 6c 00 00 
26.252900 1 3bc Rx d 8 50 4f 52 be 2e bb 00 00 
26.262900 1 3bd Rx d 8 14 0b 13 00 00 00 00 00 
26.273100 1 3be Rx d 8 00 00 00 00 00 00 00 00 
26.327100 1 29c Rx d 8 40 08 24 8c 00 8c 5a 3c 
26.333500 1 3b8 Rx d 8 36 27 78 18 5c d2 f0 58 
26.343700 1 3ba Rx d 8 50 4f 66 5b 65 6c 00 00 
26.353700 1 3bc Rx d 8 50 4f 52 be 2e bb 00 00 
26.364100 1 3bd Rx d 8 14 0b 13 00 00 00 00 00 
26.373900 1 3be Rx d 8 00 00 00 00 00 00 00 00 
26.428100 1 29c Rx d 8 40 08 24 8c 00 8c 5a 3c 
26.434800 1 3b8 Rx d 8 36 27 78 18 52 d2 f0 58 
26.444800 1 3ba Rx d 8 50 4f 66 5b 65 6c 00 00 
26.455200 1 3bc Rx d 8 50 4f 52 be 2e bb 00 00 
26.465000 1 3bd Rx d 8 14 0b 13 00 00 00 00 00 
26.475100 1 3be Rx d 8 00 00 00 00 00 00 00 00 
26.528900 1 29c Rx d 8 40 08 24 92 00 8c 5a 3c 
26.535500 1 3b8 Rx d 8 36 22 77 18 52 d2 f0 58 
26.546200 1 3ba Rx d 8 50 4f 66 5b 65 6c 00 00 
26.555700 1 3bc Rx d 8 50 4f 4f da 2e 9d 00 00 
26.565800 1 3bd Rx d 8 14 0b 13 00 00 00 00 00 
26.576100 1 3be Rx d 8 00 00 00 00 00 00 00 00 
26.630000 1 29c Rx d 8 40 08 24 92 00 8c 5a 3c 
26.636500 1 3b8 Rx d 8 36 22 77 18 52 d2 f0 58 
26.646600 1 3ba Rx d 8 50 4f 67 5b 65 6c 00 00 
26.656600 1 3bc Rx d 8 50 4f 4f da 2e 9d 00 00 
26.666800 1 3bd Rx d 8 14 0b 13 00 00 00 00 00 
26.676900 1 3be Rx d 8 00 00 00 00 00 00 00 00 
26.730900 1 29c Rx d 8 40 08 24 98 00 8c 5a 3c 
26.737500 1 3b8 Rx d 8 36 22 77 18 7d d2 ff 58 
26.747500 1 3ba Rx d 8 50 4f 67 5b 65 6c 00 00 
26.757700 1 3bc Rx d 8 50 4f 4f da 2e 9d 00 00 
26.767600 1 3bd Rx d 8 14 0b 13 00 00 00 00 00 
26.777800 1 3be Rx d 8 00 00 00 00 00 00 00 00 
26.831800 1 29c Rx d 8 40 08 24 98 00 8c 5a 3c 
26.838500 1 3b8 Rx d 8 36 29 77 18 7d d2 ff 58 
26.848600 1 3ba Rx d 8 50 4f 67 5b 65 6c 00 00 
26.858600 1 3bc Rx d 8 50 4f 50 7c 2e 61 00 00 
26.868700 1 3bd Rx d 8 14 0b 13 00 00 00 00 00 
26.878700 1 3be Rx d 8 00 00 00 00 00 00 00 00 
26.932800 1 29c Rx d 8 40 08 24 9e 00 8c 5a 3c 
26.939500 1 3b8 Rx d 8 36 29 77 18 7d d2 ff 58 
26.949500 1 3ba Rx d 8 50 4f 67 5b 65 6c 00 00 
26.959600 1 3bc Rx d 8 50 4f 50 7c 2e 61 00 00 
26.969600 1 3bd Rx d 8 14 0b 13 00 00 00 00 00 
26.979800 1 3be Rx d 8 00 00 00 00 00 00 00 00 
27.033800 1 29c Rx d 8 40 08 24 9e 00 8c 5a 3c 
27.040300 1 3b8 Rx d 8 36 29 77 18 8c d2 ff 58 
27.050400 1 3ba Rx d 8 50 4f 67 5b 65 6c 00 00 
27.060400 1 3bc Rx d 8 50 4f 50 7c 2e 61 00 00 
27.071000 1 3bd Rx d 8 14 0b 13 00 00 00 00 00 
27.080800 1 3be Rx d 8 00 00 00 00 00 00 00 00 
27.134600 1 29c Rx d 8 40 08 24 a4 00 8c 5a 3c 
27.141300 1 3b8 Rx d 8 36 31 77 18 8c d2 ff 58 
27.151400 1 3ba Rx d 8 50 4f 67 5b 65 6c 00 00 
27.162100 1 3bc Rx d 8 50 4f 50 70 2e 61 00 00 
27.171600 1 3bd Rx d 8 14 0b 13 00 00 00 00 00 
27.181800 1 3be Rx d 8 00 00 00 00 00 00 00 00 
27.235800 1 29c Rx d 8 40 08 24 a4 00 8c 5a 3c 
27.242800 1 3b8 Rx d 8 36 31 77 18 8c d2 ff 58 
27.252200 1 3ba Rx d 8 50 4f 67 5b 65 6c 00 00 
27.262400 1 3bc Rx d 8 50 4f 50 70 2e 61 00 00 
27.272500 1 3bd Rx d 8 14 0b 13 00 00 00 00 00 
27.282500 1 3be Rx d 8 00 00 00 00 00 00 00 00 
27.336600 1 29c Rx d 8 40 08 24 b8 00 8c 5a 3c 
27.343300 1 3b8 Rx d 8 36 31 77 18 94 d3 01 58 
27.353300 1 3ba Rx d 8 50 4f 67 5b 65 6c 00 00 
27.363300 1 3bc Rx d 8 50 4f 50 70 2e 61 00 00 
27.373500 1 3bd Rx d 8 14 0b 13 00 00 00 00 00 
27.383600 1 3be Rx d 8 00 00 00 00 00 00 00 00 
27.437400 1 29c Rx d 8 40 08 24 b8 00 8c 5a 3c 
27.444200 1 3b8 Rx d 8 36 38 77 18 94 d3 01 58 
27.454200 1 3ba Rx d 8 50 4f 67 5b 65 6c 00 00 
27.464300 1 3bc Rx d 8 50 4f 50 77 2e 61 00 00 
27.474400 1 3bd Rx d 8 14 0b 13 00 00 00 00 00 
27.484600 1 3be Rx d 8 00 00 00 00 00 00 00 00 
27.538600 1 29c Rx d 8 40 08 24 be 00 8c 5a 3c 
27.545000 1 3b8 Rx d 8 36 38 77 18 94 d3 01 58 
27.555100 1 3ba Rx d 8 50 4f 66 5b 65 6c 00 00 
27.565200 1 3bc Rx d 8 50 4f 50 77 2e 61 00 00 
27.575400 1 3bd Rx d 8 14 0b 13 00 00 00 00 00 
27.585700 1 3be Rx d 8 00 00 00 00 00 00 00 00 
27.639400 1 29c Rx d 8 40 08 24 be 00 8c 5a 3c 
27.646000 1 3b8 Rx d 8 36 38 77 18 9c d3 04 58 
27.656200 1 3ba Rx d 8 50 4f 66 5b 65 6c 00 00 
27.666100 1 3bc Rx d 8 50 4f 50 77 2e 61 00 00 
27.676600 1 3bd Rx d 8 14 0b 13 00 00 00 00 00 
27.686500 1 3be Rx d 8 00 00 00 00 00 00 00 00 
27.740300 1 29c Rx d 8 40 08 24 c4 00 8c 5a 3c 
27.747000 1 3b8 Rx d 8 36 3d 77 18 9c d3 04 58 
27.757200 1 3ba Rx d 8 50 4f 66 5b 65 6c 00 00 
27.767800 1 3bc Rx d 8 50 4f 50 8e 2e 61 00 00 
27.777300 1 3bd Rx d 8 14 0b 13 00 00 00 00 00 
27.787500 1 3be Rx d 8 00 00 00 00 00 00 00 00 
27.841100 1 29c Rx d 8 40 08 24 c4 00 8c 5a 3c 
27.848200 1 3b8 Rx d 8 36 3d 77 18 9c d3 04 58 
27.858100 1 3ba Rx d 8 50 4f 66 5b 65 6c 00 00 
27.868000 1 3bc Rx d 8 50 4f 50 8e 2e 61 00 00 
27.878300 1 3bd Rx d 8 14 0b 13 00 00 00 00 00 
27.888300 1 3be Rx d 8 00 00 00 00 00 00 00 00 
27.942300 1 29c Rx d 8 40 08 24 d8 00 8c 5a 3c 
27.948900 1 3b8 Rx d 8 36 3d 77 18 b0 d3 07 58 
27.958900 1 3ba Rx d 8 50 4f 66 5b 65 6c 00 00 
27.969100 1 3bc Rx d 8 50 4f 50 8e 2e 61 00 00 
27.979300 1 3bd Rx d 8 14 0b 13 00 00 00 00 00 
27.989300 1 3be Rx d 8 00 00 00 00 00 00 00 00 
28.043100 1 29c Rx d 8 40 08 24 d8 00 8c 5a 3c 
28.050000 1 3b8 Rx d 8 36 47 76 18 b0 d3 07 58 
28.059900 1 3ba Rx d 8 50 4f 66 5b 65 6c 00 00 
28.070000 1 3bc Rx d 8 50 4f 50 f9 2e 43 00 00 
28.080100 1 3bd Rx d 8 14 0b 13 00 00 00 00 00 
28.090500 1 3be Rx d 8 00 00 00 00 00 00 00 00 
28.144000 1 29c Rx d 8 40 08 24 de 00 8c 5a 3c 
28.150900 1 3b8 Rx d 8 36 47 76 18 b0 d3 07 58 
28.161000 1 3ba Rx d 8 50 4f 66 5a 64 6c 00 00 
28.170900 1 3bc Rx d 8 50 4f 50 f9 2e 43 00 00 
28.181000 1 3bd Rx d 8 14 0b 13 00 00 00 00 00 
28.191400 1 3be Rx d 8 00 00 00 00 00 00 00 00 
28.245200 1 29c Rx d 8 40 08 24 de 00 8c 5a 3c 
28.251900 1 3b8 Rx d 8 36 47 76 18 ba d3 09 58 
28.261700 1 3ba Rx d 8 50 4f 66 5a 64 6c 00 00 
28.272000 1 3bc Rx d 8 50 4f 50 f9 2e 43 00 00 
28.282400 1 3bd Rx d 8 14 0b 13 00 00 00 00 00 
28.292200 1 3be Rx d 8 00 00 00 00 00 00 00 00 
28.345900 1 29c Rx d 8 40 08 24 e4 00 8c 5a 3c 
28.352900 1 3b8 Rx d 8 36 4e 76 18 ba d3 09 58 
28.362900 1 3ba Rx d 8 50 4f 66 5a 64 6c 00 00 
28.373600 1 3bc Rx d 8 50 4f 51 14 2e 25 00 00 
28.383200 1 3bd Rx d 8 14 0b 13 00 00 00 00 00 
28.393200 1 3be Rx d 8 00 00 00 00 00 00 00 00 
28.446900 1 29c Rx d 8 40 08 24 e4 00 8c 5a 3c 
28.453800 1 3b8 Rx d 8 36 4e 76 18 ba d3 09 58 
28.463700 1 3ba Rx d 8 50 4f 67 5a 64 6c 00 00 
28.474000 1 3bc Rx d 8 50 4f 51 14 2e 25 00 00 
28.484100 1 3bd Rx d 8 14 0b 13 00 00 00 00 00 
28.494200 1 3be Rx d 8 00 00 00 00 00 00 00 00 
28.548000 1 29c Rx d 8 40 08 24 f8 00 8c 5a 3c 
28.554800 1 3b8 Rx d 8 36 4e 76 18 cf d3 0e 58 
28.564800 1 3ba Rx d 8 50 4f 67 5a 64 6c 00 00 
28.575000 1 3bc Rx d 8 50 4f 51 79 2e 07 00 00 
28.585100 1 3bd Rx d 8 14 0b 13 00 00 00 00 00 
28.595300 1 3be Rx d 8 00 00 00 00 00 00 00 00 
28.648800 1 29c Rx d 8 40 08 24 f8 00 8c 5a 3c 
28.655700 1 3b8 Rx d 8 36 55 76 18 cf d3 0e 58 
28.665800 1 3ba Rx d 8 50 4f 67 5a 64 6c 00 00 
28.675800 1 3bc Rx d 8 50 4f 51 79 2e 07 00 00 
28.685900 1 3bd Rx d 8 14 0b 13 00 00 00 00 00 
28.696100 1 3be Rx d 8 00 00 00 00 00 00 00 00 
28.749700 1 29c Rx d 8 40 08 24 fe 00 8c 5a 3c 
28.756700 1 3b8 Rx d 8 36 55 76 18 cf d3 0e 58 
28.766600 1 3ba Rx d 8 50 4f 67 5a 64 6c 00 00 
28.776800 1 3bc Rx d 8 50 4f 51 79 2e 07 00 00 
28.786900 1 3bd Rx d 8 14 0b 13 00 00 00 00 00 
28.797200 1 3be Rx d 8 00 00 00 00 00 00 00 00 
28.851000 1 29c Rx d 8 40 08 24 fe 00 8c 5a 3c 
28.857500 1 3b8 Rx d 8 36 55 76 18 da d3 0e 58 
28.867600 1 3ba Rx d 8 50 4f 67 5a 64 6c 00 00 
28.877700 1 3bc Rx d 8 50 4f 51 c5 2e 07 00 00 
28.888400 1 3bd Rx d 8 14 0b 13 00 00 00 00 00 
28.898000 1 3be Rx d 8 00 00 00 00 00 00 00 00 
28.951900 1 29c Rx d 8 40 08 25 04 00 8c 5a 3c 
28.958500 1 3b8 Rx d 8 36 5d 76 18 da d3 0e 58 
28.968800 1 3ba Rx d 8 50 4f 67 5a 64 6c 00 00 
28.978500 1 3bc Rx d 8 50 4f 51 c5 2e 07 00 00 
28.988700 1 3bd Rx d 8 14 0b 13 00 00 00 00 00 
28.998700 1 3be Rx d 8 00 00 00 00 00 00 00 00 
29.053600 1 29c Rx d 8 40 08 25 04 00 8c 5a 3c 
29.059900 1 3b8 Rx d 8 36 5d 76 18 da d3 0e 58 
29.069700 1 3ba Rx d 8 50 4f 67 5a 64 6c 00 00 
29.079700 1 3bc Rx d 8 50 4f 51 c5 2e 07 00 00 
29.089800 1 3bd Rx d 8 14 0b 13 00 00 00 00 00 
29.099900 1 3be Rx d 8 00 00 00 00 00 00 00 00 
29.154500 1 29c Rx d 8 40 08 25 18 00 8c 5a 3c 
29.160500 1 3b8 Rx d 8 36 66 76 18 ec d3 13 58 
29.170300 1 3ba Rx d 8 50 4f 67 5a 64 6c 00 00 
29.180500 1 3bc Rx d 8 50 4f 51 e5 2d e9 00 00 
29.190600 1 3bd Rx d 8 14 0b 13 00 00 00 00 00 
29.200600 1 3be Rx d 8 00 00 00 00 00 00 00 00 
29.255400 1 29c Rx d 8 40 08 25 18 00 8c 5a 3c 
29.261300 1 3b8 Rx d 8 36 66 76 18 ec d3 13 58 
29.271400 1 3ba Rx d 8 50 4f 67 5a 64 6c 00 00 
29.281500 1 3bc Rx d 8 50 4f 51 e5 2d e9 00 00 
29.291600 1 3bd Rx d 8 14 0b 13 00 00 00 00 00 
29.301800 1 3be Rx d 8 00 00 00 00 00 00 00 00 
29.356300 1 29c Rx d 8 40 08 25 1e 00 8c 5a 3c 
29.362200 1 3b8 Rx d 8 36 66 76 18 fa d3 17 58 
29.372400 1 3ba Rx d 8 50 4f 67 5a 64 6c 00 00 
29.382400 1 3bc Rx d 8 50 4f 51 e5 2d e9 00 00 
29.392600 1 3bd Rx d 8 14 0b 13 00 00 00 00 00 
29.402800 1 3be Rx d 8 00 00 00 00 00 00 00 00 
29.456700 1 29c Rx d 8 40 08 25 1e 00 8c 5a 3c 
29.463300 1 3b8 Rx d 8 36 6c 76 18 fa d3 17 58 
29.473200 1 3ba Rx d 8 50 4f 67 5a 64 6c 00 00 
29.483500 1 3bc Rx d 8 50 4f 51 e8 2d e9 00 00 
29.493700 1 3bd Rx d 8 14 0b 13 00 00 00 00 00 
29.504300 1 3be Rx d 8 00 00 00 00 00 00 00 00 
29.557900 1 29c Rx d 8 40 08 25 24 00 8c 5a 3c 
29.564400 1 3b8 Rx d 8 36 6c 76 18 fa d3 17 58 
29.574400 1 3ba Rx d 8 50 4f 67 5a 64 6c 00 00 
29.584800 1 3bc Rx d 8 50 4f 51 e8 2d e9 00 00 
29.594500 1 3bd Rx d 8 14 0b 13 00 00 00 00 00 
29.604700 1 3be Rx d 8 00 00 00 00 00 00 00 00 
29.658400 1 29c Rx d 8 40 08 25 24 00 8c 5a 3c 
29.665300 1 3b8 Rx d 8 36 6c 76 19 0a d3 1b 58 
29.675900 1 3ba Rx d 8 50 4f 67 5a 64 6c 00 00 
29.685400 1 3bc Rx d 8 50 4f 51 e8 2d e9 00 00 
29.695400 1 3bd Rx d 8 14 0b 13 00 00 00 00 00 
29.705500 1 3be Rx d 8 00 00 00 00 00 00 00 00 
29.759100 1 29c Rx d 8 40 08 25 2a 00 8c 5a 3c 
29.766900 1 3b8 Rx d 8 36 74 75 19 0a d3 1b 58 
29.776100 1 3ba Rx d 8 50 4f 67 5a 64 6c 00 00 
29.786200 1 3bc Rx d 8 50 4f 52 00 2d cb 00 00 
29.796500 1 3bd Rx d 8 14 0b 13 00 00 00 00 00 
29.806600 1 3be Rx d 8 00 00 00 00 00 00 00 00 
29.860200 1 29c Rx d 8 40 08 25 2a 00 8c 5a 3c 
29.867100 1 3b8 Rx d 8 36 74 75 19 0a d3 1b 58 
29.877100 1 3ba Rx d 8 50 4f 67 5a 64 6c 00 00 
29.887300 1 3bc Rx d 8 50 4f 52 00 2d cb 00 00 
29.897400 1 3bd Rx d 8 14 0b 13 00 00 00 00 00 
29.907400 1 3be Rx d 8 00 00 00 00 00 00 00 00 
29.961100 1 29c Rx d 8 40 08 25 30 00 8c 5a 3c 
29.968000 1 3b8 Rx d 8 36 74 75 19 19 d3 1d 58 
29.978100 1 3ba Rx d 8 50 4f 67 5a 64 6c 00 00 
29.988100 1 3bc Rx d 8 50 4f 52 00 2d cb 00 00 
29.998200 1 3bd Rx d 8 14 0b 13 00 00 00 00 00 
30.008500 1 3be Rx d 8 00 00 00 00 00 00 00 00 
30.062000 1 29c Rx d 8 40 08 25 30 00 8c 5a 3c 
30.069100 1 3b8 Rx d 8 36 7d 75 19 19 d3 1d 58 
30.079200 1 3ba Rx d 8 50 4f 67 5a 64 6c 00 00 
30.089100 1 3bc Rx d 8 50 4f 52 12 2d ae 00 00 
30.099300 1 3bd Rx d 8 14 0b 13 00 00 00 00 00 
30.109700 1 3be Rx d 8 00 00 00 00 00 00 00 00 
30.162900 1 29c Rx d 8 40 08 25 36 00 8c 5a 3c 
30.170100 1 3b8 Rx d 8 36 7d 75 19 19 d3 1d 58 
30.179900 1 3ba Rx d 8 50 4f 67 5a 64 6c 00 00 
30.190200 1 3bc Rx d 8 50 4f 52 12 2d ae 00 00 
30.200900 1 3bd Rx d 8 14 0b 13 00 00 00 00 00 
30.210300 1 3be Rx d 8 00 00 00 00 00 00 00 00 
30.263900 1 29c Rx d 8 40 08 25 36 00 8c 5a 3c 
30.271100 1 3b8 Rx d 8 36 7d 75 19 20 d3 1d 58 
30.281300 1 3ba Rx d 8 50 4f 67 5a 64 6c 00 00 
30.291000 1 3bc Rx d 8 50 4f 52 12 2d ae 00 00 
30.301200 1 3bd Rx d 8 14 0b 13 00 00 00 00 00 
30.311400 1 3be Rx d 8 00 00 00 00 00 00 00 00 
30.364800 1 29c Rx d 8 40 08 25 4a 00 8c 5a 3c 
30.372700 1 3b8 Rx d 8 36 81 75 19 20 d3 1d 58 
30.381900 1 3ba Rx d 8 50 4f 67 5a 64 6c 00 00 
30.391900 1 3bc Rx d 8 50 4f 51 e4 2d ae 00 00 
30.402000 1 3bd Rx d 8 14 0b 13 00 00 00 00 00 
30.412300 1 3be Rx d 8 00 00 00 00 00 00 00 00 
30.465800 1 29c Rx d 8 40 08 25 4a 00 8c 5a 3c 
30.472900 1 3b8 Rx d 8 36 81 75 19 20 d3 1d 58 
30.482800 1 3ba Rx d 8 50 4f 67 5a 64 6c 00 00 
30.493000 1 3bc Rx d 8 50 4f 51 e4 2d ae 00 00 
30.503200 1 3bd Rx d 8 14 0b 13 00 00 00 00 00 
30.513300 1 3be Rx d 8 00 00 00 00 00 00 00 00 
30.566700 1 29c Rx d 8 40 08 25 50 00 8c 5a 3c 
30.573800 1 3b8 Rx d 8 36 81 75 19 28 d3 21 58 
30.583900 1 3ba Rx d 8 50 4f 67 5a 64 6c 00 00 
30.594000 1 3bc Rx d 8 50 4f 51 e4 2d ae 00 00 
30.604000 1 3bd Rx d 8 14 0b 13 00 00 00 00 00 
30.614100 1 3be Rx d 8 00 00 00 00 00 00 00 00 
30.667800 1 29c Rx d 8 40 08 25 50 00 8c 5a 3c 
30.674900 1 3b8 Rx d 8 36 85 75 19 28 d3 21 58 
30.684700 1 3ba Rx d 8 50 4f 67 5a 64 6c 00 00 
30.694800 1 3bc Rx d 8 50 4f 51 f5 2d 90 00 00 
30.705100 1 3bd Rx d 8 14 0b 13 00 00 00 00 00 
30.715200 1 3be Rx d 8 00 00 00 00 00 00 00 00 
30.768600 1 29c Rx d 8 40 08 25 56 00 8c 5a 3c 
30.775700 1 3b8 Rx d 8 36 85 75 19 28 d3 21 58 
30.785700 1 3ba Rx d 8 50 4f 67 5a 64 6c 00 00 
30.795800 1 3bc Rx d 8 50 4f 51 f5 2d 90 00 00 
30.806300 1 3bd Rx d 8 14 0b 13 00 00 00 00 00 
30.816200 1 3be Rx d 8 00 00 00 00 00 00 00 00 
30.869800 1 29c Rx d 8 40 08 25 56 00 8c 5a 3c 
30.876800 1 3b8 Rx d 8 36 85 75 19 30 d3 22 58 
30.886800 1 3ba Rx d 8 50 4f 67 5a 64 6c 00 00 
30.897400 1 3bc Rx d 8 50 4f 51 f5 2d 90 00 00 
30.906900 1 3bd Rx d 8 14 0b 13 00 00 00 00 00 
30.917200 1 3be Rx d 8 00 00 00 00 00 00 00 00 
30.970600 1 29c Rx d 8 40 08 25 6a 00 8c 5a 3c 
30.978000 1 3b8 Rx d 8 36 8a 75 19 30 d3 22 58 
30.987500 1 3ba Rx d 8 50 4f 67 5a 64 6c 00 00 
30.997700 1 3bc Rx d 8 50 4f 52 01 2d 90 00 00 
31.007900 1 3bd Rx d 8 14 0b 13 00 00 00 00 00 
31.018100 1 3be Rx d 8 00 00 00 00 00 00 00 00 
31.071700 1 29c Rx d 8 40 08 25 6a 00 8c 5a 3c 
31.078600 1 3b8 Rx d 8 36 8a 75 19 30 d3 22 58 
31.088600 1 3ba Rx d 8 50 4f 67 5a 64 6c 00 00 
31.098800 1 3bc Rx d 8 50 4f 52 01 2d 90 00 00 
31.108700 1 3bd Rx d 8 14 0b 13 00 00 00 00 00 
31.118800 1 3be Rx d 8 00 00 00 00 00 00 00 00 
31.172500 1 29c Rx d 8 40 08 25 70 00 8c 5a 3c 
31.179600 1 3b8 Rx d 8 36 8a 75 19 34 d3 22 58 
31.189700 1 3ba Rx d 8 50 4f 67 5a 64 6c 00 00 
31.199700 1 3bc Rx d 8 50 4f 52 01 2d 90 00 00 
31.209800 1 3bd Rx d 8 14 0b 13 00 00 00 00 00 
31.220000 1 3be Rx d 8 00 00 00 00 00 00 00 00 
31.273500 1 29c Rx d 8 40 08 25 70 00 8c 5a 3c 
31.280400 1 3b8 Rx d 8 36 8c 75 19 34 d3 22 58 
31.290600 1 3ba Rx d 8 50 4f 67 5a 64 6c 00 00 
31.300700 1 3bc Rx d 8 50 4f 52 01 2d 90 00 00 
31.310700 1 3bd Rx d 8 14 0b 13 00 00 00 00 00 
31.320900 1 3be Rx d 8 00 00 00 00 00 00 00 00 
31.374400 1 29c Rx d 8 40 08 25 76 00 8c 5a 3c 
31.381400 1 3b8 Rx d 8 36 8c 75 19 34 d3 22 58 
31.391500 1 3ba Rx d 8 50 4f 67 5a 64 6c 00 00 
31.401500 1 3bc Rx d 8 50 4f 52 01 2d 90 00 00 
31.411600 1 3bd Rx d 8 14 0b 13 00 00 00 00 00 
31.422200 1 3be Rx d 8 00 00 00 00 00 00 00 00 
31.475600 1 29c Rx d 8 40 08 25 76 00 8c 5a 3c 
31.482600 1 3b8 Rx d 8 36 8c 75 19 35 d3 22 58 
31.492600 1 3ba Rx d 8 50 4f 67 5a 64 6c 00 00 
31.502700 1 3bc Rx d 8 50 4f 52 01 2d 90 00 00 
31.513300 1 3bd Rx d 8 14 0b 13 00 00 00 00 00 
31.522800 1 3be Rx d 8 00 00 00 00 00 00 00 00 
31.576200 1 29c Rx d 8 40 08 25 7c 00 8c 5a 3c 
31.583300 1 3b8 Rx d 8 36 8d 75 19 35 d3 22 58 
31.593900 1 3ba Rx d 8 50 4f 67 5a 64 6c 00 00 
31.603400 1 3bc Rx d 8 50 4f 52 14 2d ae 00 00 
31.613500 1 3bd Rx d 8 14 0b 13 00 00 00 00 00 
31.623800 1 3be Rx d 8 00 00 00 00 00 00 00 00 
31.677200 1 29c Rx d 8 40 08 25 7c 00 8c 5a 3c 
31.684800 1 3b8 Rx d 8 36 8d 75 19 35 d3 22 58 
31.694400 1 3ba Rx d 8 50 4f 67 5a 64 6c 00 00 
31.704500 1 3bc Rx d 8 50 4f 52 14 2d ae 00 00 
31.714500 1 3bd Rx d 8 14 0b 13 00 00 00 00 00 
31.724600 1 3be Rx d 8 00 00 00 00 00 00 00 00 
31.778500 1 29c Rx d 8 40 08 25 82 00 8c 5a 3c 
31.785400 1 3b8 Rx d 8 36 8d 75 19 35 d3 22 58 
31.795300 1 3ba Rx d 8 50 4f 67 5a 64 6c 00 00 
31.805500 1 3bc Rx d 8 50 4f 52 14 2d ae 00 00 
31.815600 1 3bd Rx d 8 14 0b 13 00 00 00 00 00 
31.825700 1 3be Rx d 8 00 00 00 00 00 00 00 00 
31.879100 1 29c Rx d 8 40 08 25 82 00 8c 5a 3c 
31.886300 1 3b8 Rx d 8 36 8d 75 19 35 d3 22 58 
31.896200 1 3ba Rx d 8 50 4f 67 5a 64 6c 00 00 
31.906500 1 3bc Rx d 8 50 4f 52 0e 2d ae 00 00 
31.916600 1 3bd Rx d 8 14 0b 13 00 00 00 00 00 
31.926600 1 3be Rx d 8 00 00 00 00 00 00 00 00 
31.980200 1 29c Rx d 8 40 08 25 88 00 8c 5a 3c 
31.987100 1 3b8 Rx d 8 36 8d 75 19 35 d3 22 58 
31.997200 1 3ba Rx d 8 50 4f 67 5a 64 6c 00 00 
32.007300 1 3bc Rx d 8 50 4f 52 0e 2d ae 00 00 
32.017300 1 3bd Rx d 8 14 0b 13 00 00 00 00 00 
32.027800 1 3be Rx d 8 00 00 00 00 00 00 00 00 
32.081200 1 29c Rx d 8 40 08 25 88 00 8c 5a 3c 
32.088100 1 3b8 Rx d 8 36 8d 75 19 35 d3 22 58 
32.098300 1 3ba Rx d 8 50 4f 67 5a 64 6c 00 00 
32.108300 1 3bc Rx d 8 50 4f 52 00 2d 90 00 00 
32.119200 1 3bd Rx d 8 14 0b 13 00 00 00 00 00 
32.128600 1 3be Rx d 8 00 00 00 00 00 00 00 00 
32.182000 1 29c Rx d 8 40 08 25 8e 00 8c 5a 3c 
32.189100 1 3b8 Rx d 8 36 8e 75 19 35 d3 22 58 
32.199300 1 3ba Rx d 8 50 4f 67 5a 64 6c 00 00 
32.209200 1 3bc Rx d 8 50 4f 52 00 2d 90 00 00 
32.219500 1 3bd Rx d 8 14 0b 13 00 00 00 00 00 
32.229700 1 3be Rx d 8 00 00 00 00 00 00 00 00 
32.282900 1 29c Rx d 8 40 08 25 8e 00 8c 5a 3c 
32.290800 1 3b8 Rx d 8 36 8e 75 19 35 d3 22 58 
32.300300 1 3ba Rx d 8 50 4f 67 5a 64 6c 00 00 
32.310200 1 3bc Rx d 8 50 4f 52 00 2d 90 00 00 
32.320300 1 3bd Rx d 8 14 0b 13 00 00 00 00 00 
32.330400 1 3be Rx d 8 00 00 00 00 00 00 00 00 
32.384000 1 29c Rx d 8 40 08 25 8e 00 8c 5a 3c 
32.390900 1 3b8 Rx d 8 36 8e 75 19 35 d3 23 58 
32.401000 1 3ba Rx d 8 50 4f 67 5a 64 6c 00 00 
32.411100 1 3bc Rx d 8 50 4f 52 06 2d 90 00 00 
32.421200 1 3bd Rx d 8 14 0b 13 00 00 00 00 00 
32.431300 1 3be Rx d 8 00 00 00 00 00 00 00 00 
32.485000 1 29c Rx d 8 40 08 25 8e 00 8c 5a 3c 
32.492000 1 3b8 Rx d 8 36 8e 75 19 35 d3 23 58 
32.502000 1 3ba Rx d 8 50 4f 67 5a 64 6c 00 00 
32.512000 1 3bc Rx d 8 50 4f 52 06 2d 90 00 00 
32.522100 1 3bd Rx d 8 14 0b 13 00 00 00 00 00 
32.532300 1 3be Rx d 8 00 00 00 00 00 00 00 00 
32.586100 1 29c Rx d 8 40 08 25 8e 00 8c 5a 3c 
32.593100 1 3b8 Rx d 8 36 8e 75 19 35 d3 23 58 
32.603000 1 3ba Rx d 8 50 4f 67 5a 64 6c 00 00 
32.613000 1 3bc Rx d 8 50 4f 52 06 2d 90 00 00 
32.623400 1 3bd Rx d 8 14 0b 13 00 00 00 00 00 
32.633200 1 3be Rx d 8 00 00 00 00 00 00 00 00 
32.686800 1 29c Rx d 8 40 08 25 8e 00 8c 5a 3c 
32.693800 1 3b8 Rx d 8 36 8e 75 19 35 d3 27 58 
32.703900 1 3ba Rx d 8 50 4f 67 5a 64 6c 00 00 
32.714300 1 3bc Rx d 8 50 4f 52 17 2d 90 00 00 
32.724000 1 3bd Rx d 8 14 0b 13 00 00 00 00 00 
32.734200 1 3be Rx d 8 00 00 00 00 00 00 00 00 
32.787900 1 29c Rx d 8 40 08 25 94 00 8c 5a 3c 
32.794800 1 3b8 Rx d 8 36 8e 75 19 35 d3 27 58 
32.805200 1 3ba Rx d 8 50 4f 66 5a 64 6c 00 00 
32.815000 1 3bc Rx d 8 50 4f 52 17 2d 90 00 00 
32.825100 1 3bd Rx d 8 14 0b 13 00 00 00 00 00 
32.835100 1 3be Rx d 8 00 00 00 00 00 00 00 00 
32.889000 1 29c Rx d 8 40 08 25 94 00 8c 5a 3c 
32.896200 1 3b8 Rx d 8 36 8e 75 19 35 d3 27 58 
32.905900 1 3ba Rx d 8 50 4f 66 5a 64 6c 00 00 
32.916000 1 3bc Rx d 8 50 4f 52 17 2d 90 00 00 
32.926000 1 3bd Rx d 8 14 0b 13 00 00 00 00 00 
32.936100 1 3be Rx d 8 00 00 00 00 00 00 00 00 
32.989800 1 29c Rx d 8 40 08 25 94 00 8c 5a 3c 
32.996700 1 3b8 Rx d 8 36 8f 75 19 35 d3 27 58 
33.006900 1 3ba Rx d 8 50 4f 66 5a 64 6c 00 00 
33.017000 1 3bc Rx d 8 50 4f 52 0d 2d ae 00 00 
33.027100 1 3bd Rx d 8 14 0b 13 00 00 00 00 00 
33.037200 1 3be Rx d 8 00 00 00 00 00 00 00 00 
33.090800 1 29c Rx d 8 40 08 25 94 00 8c 5a 3c 
33.097600 1 3b8 Rx d 8 36 8f 75 19 35 d3 27 58 
33.107700 1 3ba Rx d 8 50 4f 66 5a 64 6c 00 00 
33.117800 1 3bc Rx d 8 50 4f 52 0d 2d ae 00 00 
33.127800 1 3bd Rx d 8 14 0b 13 00 00 00 00 00 
33.138000 1 3be Rx d 8 00 00 00 00 00 00 00 00 
33.191600 1 29c Rx d 8 40 08 25 94 00 8c 5a 3c 
33.198700 1 3b8 Rx d 8 36 8f 75 19 35 d3 27 58 
33.208600 1 3ba Rx d 8 50 4f 66 5a 64 6c 00 00 
33.218800 1 3bc Rx d 8 50 4f 52 0d 2d ae 00 00 
33.228900 1 3bd Rx d 8 14 0b 13 00 00 00 00 00 
33.239300 1 3be Rx d 8 00 00 00 00 00 00 00 00 
33.292800 1 29c Rx d 8 40 08 25 94 00 8c 5a 3c 
33.299600 1 3b8 Rx d 8 36 8e 75 19 35 d3 27 58 
33.309700 1 3ba Rx d 8 50 4f 66 5a 64 6c 00 00 
33.320000 1 3bc Rx d 8 50 4f 52 03 2d 90 00 00 
33.329800 1 3bd Rx d 8 14 0b 13 00 00 00 00 00 
33.339900 1 3be Rx d 8 00 00 00 00 00 00 00 00 
33.393800 1 29c Rx d 8 40 08 25 94 00 8c 5a 3c 
33.400600 1 3b8 Rx d 8 36 8e 75 19 35 d3 27 58 
33.410900 1 3ba Rx d 8 50 4f 67 5a 64 6c 00 00 
33.420800 1 3bc Rx d 8 50 4f 52 03 2d 90 00 00 
33.430800 1 3bd Rx d 8 14 0b 13 00 00 00 00 00 
33.440900 1 3be Rx d 8 00 00 00 00 00 00 00 00 
33.494600 1 29c Rx d 8 40 08 25 94 00 8c 5a 3c 
33.502000 1 3b8 Rx d 8 36 8e 75 19 35 d3 27 58 
33.511800 1 3ba Rx d 8 50 4f 67 5a 64 6c 00 00 
33.521800 1 3bc Rx d 8 50 4f 52 03 2d 90 00 00 
33.531900 1 3bd Rx d 8 14 0b 13 00 00 00 00 00 
33.542000 1 3be Rx d 8 00 00 00 00 00 00 00 00 
33.595400 1 29c Rx d 8 40 08 25 94 00 8c 5a 3c 
33.602600 1 3b8 Rx d 8 36 8e 75 19 35 d3 27 58 
33.612400 1 3ba Rx d 8 50 4f 67 5a 64 6c 00 00 
33.622600 1 3bc Rx d 8 50 4f 51 ff 2d 90 00 00 
33.632600 1 3bd Rx d 8 14 0b 13 00 00 00 00 00 
33.642800 1 3be Rx d 8 00 00 00 00 00 00 00 00 
33.696700 1 29c Rx d 8 40 08 25 94 00 8c 5a 3c 
33.703500 1 3b8 Rx d 8 36 8e 75 19 35 d3 27 58 
33.713500 1 3ba Rx d 8 50 4f 66 5a 64 6c 00 00 
33.723700 1 3bc Rx d 8 50 4f 51 ff 2d 90 00 00 
33.733800 1 3bd Rx d 8 14 0b 13 00 00 00 00 00 
33.743800 1 3be Rx d 8 00 00 00 00 00 00 00 00 
33.797600 1 29c Rx d 8 40 08 25 94 00 8c 5a 3c 
33.804400 1 3b8 Rx d 8 36 8e 75 19 35 d3 27 58 
33.814300 1 3ba Rx d 8 50 4f 66 5a 64 6c 00 00 
33.824600 1 3bc Rx d 8 50 4f 51 ff 2d 90 00 00 
33.834500 1 3bd Rx d 8 14 0b 13 00 00 00 00 00 
33.845200 1 3be Rx d 8 00 00 00 00 00 00 00 00 
33.898300 1 29c Rx d 8 40 08 25 94 00 8c 5a 3c 
33.905500 1 3b8 Rx d 8 36 8e 75 19 35 d3 27 58 
33.915500 1 3ba Rx d 8 50 4f 66 5a 64 6c 00 00 
33.925700 1 3bc Rx d 8 50 4f 51 fc 2d ae 00 00 
33.935500 1 3bd Rx d 8 14 0b 13 00 00 00 00 00 
33.945600 1 3be Rx d 8 00 00 00 00 00 00 00 00 
33.999500 1 29c Rx d 8 40 08 25 94 00 8c 5a 3c 
34.006400 1 3b8 Rx d 8 36 8e 75 19 35 d3 27 58 
34.016700 1 3ba Rx d 8 50 4f 67 5b 65 6c 00 00 
34.026400 1 3bc Rx d 8 50 4f 51 fc 2d ae 00 00 
34.036500 1 3bd Rx d 8 14 0b 13 00 00 00 00 00 
34.046800 1 3be Rx d 8 00 00 00 00 00 00 00 00 
34.100500 1 29c Rx d 8 40 08 25 94 00 8c 5a 3c 
34.107900 1 3b8 Rx d 8 36 8e 75 19 35 d3 27 58 
34.117300 1 3ba Rx d 8 50 4f 67 5b 65 6c 00 00 
34.127500 1 3bc Rx d 8 50 4f 51 fc 2d ae 00 00 
34.137500 1 3bd Rx d 8 14 0b 13 00 00 00 00 00 
34.147600 1 3be Rx d 8 00 00 00 00 00 00 00 00 
34.201200 1 29c Rx d 8 40 08 25 94 00 8c 5a 3c 
34.208300 1 3b8 Rx d 8 36 8e 75 19 35 d3 27 58 
34.218300 1 3ba Rx d 8 50 4f 67 5b 65 6c 00 00 
34.228300 1 3bc Rx d 8 50 4f 51 fa 2d ae 00 00 
34.238400 1 3bd Rx d 8 14 0b 13 00 00 00 00 00 
34.248500 1 3be Rx d 8 00 00 00 00 00 00 00 00 
34.302400 1 29c Rx d 8 40 08 25 94 00 8c 5a 3c 
34.309300 1 3b8 Rx d 8 36 8e 75 19 35 d3 27 58 
34.319400 1 3ba Rx d 8 50 4f 67 5b 65 6c 00 00 
34.329400 1 3bc Rx d 8 50 4f 51 fa 2d ae 00 00 
34.339400 1 3bd Rx d 8 14 0b 13 00 00 00 00 00 
34.349600 1 3be Rx d 8 00 00 00 00 00 00 00 00 
34.403200 1 29c Rx d 8 40 08 25 94 00 8c 5a 3c 
34.410200 1 3b8 Rx d 8 36 8e 75 19 35 d3 27 58 
34.420200 1 3ba Rx d 8 50 4f 67 5b 65 6c 00 00 
34.430300 1 3bc Rx d 8 50 4f 51 fa 2d ae 00 00 
34.440400 1 3bd Rx d 8 14 0b 13 00 00 00 00 00 
34.450500 1 3be Rx d 8 00 00 00 00 00 00 00 00 
34.504000 1 29c Rx d 8 40 08 25 94 00 8c 5a 3c 
34.511100 1 3b8 Rx d 8 36 8e 75 19 35 d3 27 58 
34.521200 1 3ba Rx d 8 50 4f 67 5b 65 6c 00 00 
34.531200 1 3bc Rx d 8 50 4f 52 0b 2d ae 00 00 
34.541300 1 3bd Rx d 8 14 0b 13 00 00 00 00 00 
34.551800 1 3be Rx d 8 00 00 00 00 00 00 00 00 
34.605100 1 29c Rx d 8 40 08 25 94 00 8c 5a 3c 
34.612100 1 3b8 Rx d 8 36 8e 75 19 35 d3 27 58 
34.622200 1 3ba Rx d 8 50 4f 67 5b 65 6c 00 00 
34.632300 1 3bc Rx d 8 50 4f 52 0b 2d ae 00 00 
34.642800 1 3bd Rx d 8 14 0b 13 00 00 00 00 00 
34.652500 1 3be Rx d 8 00 00 00 00 00 00 00 00 
34.706000 1 29c Rx d 8 40 08 25 94 00 8c 5a 3c 
34.713100 1 3b8 Rx d 8 36 8e 75 19 35 d3 27 58 
34.723400 1 3ba Rx d 8 50 4f 67 5b 65 6c 00 00 
34.733200 1 3bc Rx d 8 50 4f 52 0b 2d ae 00 00 
34.743300 1 3bd Rx d 8 14 0b 13 00 00 00 00 00 
34.753600 1 3be Rx d 8 00 00 00 00 00 00 00 00 
34.806900 1 29c Rx d 8 40 08 25 94 00 8c 5a 3c 
34.814300 1 3b8 Rx d 8 36 8e 75 19 35 d3 27 58 
34.824200 1 3ba Rx d 8 50 4f 67 5b 65 6c 00 00 
34.834100 1 3bc Rx d 8 50 4f 52 0e 2d ae 00 00 
34.844200 1 3bd Rx d 8 14 0b 13 00 00 00 00 00 
34.854200 1 3be Rx d 8 00 00 00 00 00 00 00 00 
34.908300 1 29c Rx d 8 40 08 25 94 00 8c 5a 3c 
34.915000 1 3b8 Rx d 8 36 8e 75 19 35 d3 27 58 
34.925000 1 3ba Rx d 8 50 4f 67 5b 65 6c 00 00 
34.935100 1 3bc Rx d 8 50 4f 52 0e 2d ae 00 00 
34.945200 1 3bd Rx d 8 14 0b 13 00 00 00 00 00 
34.955300 1 3be Rx d 8 00 00 00 00 00 00 00 00 
35.008900 1 29c Rx d 8 40 08 25 94 00 8c 5a 3c 
35.015900 1 3b8 Rx d 8 36 8e 75 19 35 d3 27 58 
35.025900 1 3ba Rx d 8 50 4f 67 5b 65 6c 00 00 
35.036000 1 3bc Rx d 8 50 4f 52 0e 2d ae 00 00 
35.046200 1 3bd Rx d 8 14 0b 13 00 00 00 00 00 
35.056600 1 3be Rx d 8 00 00 00 00 00 00 00 00 
35.109900 1 29c Rx d 8 40 08 25 94 00 8c 5a 3c 
35.116800 1 3b8 Rx d 8 36 8e 75 19 35 d3 27 58 
35.126900 1 3ba Rx d 8 50 4f 67 5b 65 6c 00 00 
35.137100 1 3bc Rx d 8 50 4f 51 fe 2d ae 00 00 
35.147400 1 3bd Rx d 8 14 0b 13 00 00 00 00 00 
35.157200 1 3be Rx d 8 00 00 00 00 00 00 00 00 
35.210500 1 29c Rx d 8 40 08 25 94 00 8c 5a 3c 
35.217800 1 3b8 Rx d 8 36 8e 75 19 35 d3 27 58 
35.228300 1 3ba Rx d 8 50 4f 67 5b 65 6c 00 00 
35.238200 1 3bc Rx d 8 50 4f 51 fe 2d ae 00 00 
35.248100 1 3bd Rx d 8 14 0b 13 00 00 00 00 00 
35.258200 1 3be Rx d 8 00 00 00 00 00 00 00 00 
35.311900 1 29c Rx d 8 40 08 25 94 00 8c 5a 3c 
35.318700 1 3b8 Rx d 8 36 8e 75 19 36 d3 27 58 
35.328800 1 3ba Rx d 8 50 4f 67 5b 65 6c 00 00 
35.338900 1 3bc Rx d 8 50 4f 51 fe 2d ae 00 00 
35.349100 1 3bd Rx d 8 14 0b 13 00 00 00 00 00 
35.359100 1 3be Rx d 8 00 00 00 00 00 00 00 00 
35.412500 1 29c Rx d 8 40 08 25 94 00 8c 5a 3c 
35.419700 1 3b8 Rx d 8 36 8e 75 19 36 d3 27 58 
35.429700 1 3ba Rx d 8 50 4f 67 5b 65 6c 00 00 
35.440000 1 3bc Rx d 8 50 4f 52 19 2d ae 00 00 
35.450000 1 3bd Rx d 8 14 0b 13 00 00 00 00 00 
35.460100 1 3be Rx d 8 00 00 00 00 00 00 00 00 
35.513400 1 29c Rx d 8 40 08 25 94 00 8c 5a 3c 
35.520700 1 3b8 Rx d 8 36 8e 75 19 36 d3 27 58 
35.530800 1 3ba Rx d 8 50 4f 67 5b 65 6c 00 00 
35.540700 1 3bc Rx d 8 50 4f 52 19 2d ae 00 00 
35.551100 1 3bd Rx d 8 14 0b 13 00 00 00 00 00 
35.561500 1 3be Rx d 8 00 00 00 00 00 00 00 00 
35.614700 1 29c Rx d 8 40 08 25 94 00 8c 5a 3c 
35.621700 1 3b8 Rx d 8 36 8e 75 19 36 d3 27 58 
35.631700 1 3ba Rx d 8 50 4f 67 5b 65 6c 00 00 
35.641700 1 3bc Rx d 8 50 4f 52 11 2d 90 00 00 
35.651800 1 3bd Rx d 8 14 0b 13 00 00 00 00 00 
35.661900 1 3be Rx d 8 00 00 00 00 00 00 00 00 
35.715600 1 29c Rx d 8 40 08 25 94 00 8c 5a 3c 
35.722500 1 3b8 Rx d 8 36 8e 75 19 36 d3 27 58 
35.732800 1 3ba Rx d 8 50 4f 67 5b 65 6c 00 00 
35.742600 1 3bc Rx d 8 50 4f 52 11 2d 90 00 00 
35.752800 1 3bd Rx d 8 14 0b 13 00 00 00 00 00 
35.762900 1 3be Rx d 8 00 00 00 00 00 00 00 00 
35.816500 1 29c Rx d 8 40 08 25 94 00 8c 5a 3c 
35.823900 1 3b8 Rx d 8 36 8e 75 19 36 d3 27 58 
35.833700 1 3ba Rx d 8 50 4f 67 5b 65 6c 00 00 
35.843700 1 3bc Rx d 8 50 4f 52 11 2d 90 00 00 
35.853800 1 3bd Rx d 8 14 0b 13 00 00 00 00 00 
35.864000 1 3be Rx d 8 00 00 00 00 00 00 00 00 
35.917600 1 29c Rx d 8 40 08 25 94 00 8c 5a 3c 
35.924600 1 3b8 Rx d 8 36 8e 75 19 35 d3 29 58 
35.934600 1 3ba Rx d 8 50 4f 67 5b 65 6c 00 00 
35.944600 1 3bc Rx d 8 50 4f 52 18 2d 90 00 00 
35.954800 1 3bd Rx d 8 14 0b 13 00 00 00 00 00 
35.964800 1 3be Rx d 8 00 00 00 00 00 00 00 00 
36.018500 1 29c Rx d 8 40 08 25 94 00 8c 5a 3c 
36.025800 1 3b8 Rx d 8 36 8f 75 19 35 d3 29 58 
36.035500 1 3ba Rx d 8 50 4f 67 5b 65 6c 00 00 
36.045600 1 3bc Rx d 8 50 4f 52 18 2d 90 00 00 
36.055700 1 3bd Rx d 8 14 0b 13 00 00 00 00 00 
36.065800 1 3be Rx d 8 00 00 00 00 00 00 00 00 
36.120300 1 29c Rx d 8 40 08 25 94 00 8c 5a 3c 
36.126500 1 3b8 Rx d 8 36 8f 75 19 35 d3 29 58 
36.136500 1 3ba Rx d 8 50 4f 67 5b 65 6c 00 00 
36.146400 1 3bc Rx d 8 50 4f 52 18 2d 90 00 00 
36.156500 1 3bd Rx d 8 14 0b 13 00 00 00 00 00 
36.166800 1 3be Rx d 8 00 00 00 00 00 00 00 00 
36.221100 1 29c Rx d 8 40 08 25 94 00 8c 5a 3c 
36.227400 1 3b8 Rx d 8 36 8e 75 19 36 d3 2a 58 
36.237500 1 3ba Rx d 8 50 4f 67 5b 65 6c 00 00 
36.247400 1 3bc Rx d 8 50 4f 52 0f 2d ae 00 00 
36.257900 1 3bd Rx d 8 14 0b 13 00 00 00 00 00 
36.267700 1 3be Rx d 8 00 00 00 00 00 00 00 00 
36.322100 1 29c Rx d 8 40 08 25 94 00 8c 5a 3c 
36.328400 1 3b8 Rx d 8 36 8e 75 19 36 d3 2a 58 
36.338500 1 3ba Rx d 8 50 4f 67 5b 65 6b 00 00 
36.348900 1 3bc Rx d 8 50 4f 52 0f 2d ae 00 00 
36.358500 1 3bd Rx d 8 14 0b 13 00 00 00 00 00 
36.368600 1 3be Rx d 8 00 00 00 00 00 00 00 00 
36.423000 1 29c Rx d 8 40 08 25 94 00 8c 5a 3c 
36.429400 1 3b8 Rx d 8 36 8e 75 19 36 d3 2a 58 
36.439300 1 3ba Rx d 8 50 4f 67 5b 65 6b 00 00 
36.449300 1 3bc Rx d 8 50 4f 52 0f 2d ae 00 00 
36.459400 1 3bd Rx d 8 14 0b 13 00 00 00 00 00 
36.469600 1 3be Rx d 8 00 00 00 00 00 00 00 00 
36.523900 1 29c Rx d 8 40 08 25 94 00 8c 5a 3c 
36.530100 1 3b8 Rx d 8 36 8f 75 19 36 d3 2a 58 
36.540200 1 3ba Rx d 8 50 4f 67 5b 65 6b 00 00 
36.550400 1 3bc Rx d 8 50 4f 52 17 2d 90 00 00 
36.560400 1 3bd Rx d 8 14 0b 13 00 00 00 00 00 
36.570600 1 3be Rx d 8 00 00 00 00 00 00 00 00 
36.624800 1 29c Rx d 8 40 08 25 94 00 8c 5a 3c 
36.631100 1 3b8 Rx d 8 36 8f 75 19 36 d3 2a 58 
36.641200 1 3ba Rx d 8 50 4f 67 5b 65 6b 00 00 
36.651300 1 3bc Rx d 8 50 4f 52 17 2d 90 00 00 
36.661400 1 3bd Rx d 8 14 0b 13 00 00 00 00 00 
36.671500 1 3be Rx d 8 00 00 00 00 00 00 00 00 
36.724900 1 29c Rx d 8 40 08 25 94 00 8c 5a 3c 
36.732200 1 3b8 Rx d 8 36 8f 75 19 35 d3 2c 58 
36.742200 1 3ba Rx d 8 50 4f 67 5b 65 6b 00 00 
36.752400 1 3bc Rx d 8 50 4f 52 17 2d 90 00 00 
36.762500 1 3bd Rx d 8 14 0b 13 00 00 00 00 00 
36.772600 1 3be Rx d 8 00 00 00 00 00 00 00 00 
36.825800 1 29c Rx d 8 40 08 25 94 00 8c 5a 3c 
36.833200 1 3b8 Rx d 8 36 8f 75 19 35 d3 2c 58 
36.843300 1 3ba Rx d 8 50 4f 67 5b 65 6b 00 00 
36.853300 1 3bc Rx d 8 50 4f 52 12 2d 90 00 00 
36.863500 1 3bd Rx d 8 14 0b 13 00 00 00 00 00 
36.874100 1 3be Rx d 8 00 00 00 00 00 00 00 00 
36.926800 1 29c Rx d 8 40 08 25 94 00 8c 5a 3c 
36.934000 1 3b8 Rx d 8 36 8f 75 19 35 d3 2c 58 
36.944100 1 3ba Rx d 8 50 4f 67 5b 65 6b 00 00 
36.954500 1 3bc Rx d 8 50 4f 52 12 2d 90 00 00 
36.964300 1 3bd Rx d 8 14 0b 13 00 00 00 00 00 
36.974400 1 3be Rx d 8 00 00 00 00 00 00 00 00 
37.027700 1 29c Rx d 8 40 08 25 94 00 8c 5a 3c 
37.035000 1 3b8 Rx d 8 36 8f 75 19 35 d3 2c 58 
37.045500 1 3ba Rx d 8 50 4f 67 5b 65 6b 00 00 
37.055100 1 3bc Rx d 8 50 4f 52 12 2d 90 00 00 
37.065100 1 3bd Rx d 8 14 0b 13 00 00 00 00 00 
37.075300 1 3be Rx d 8 00 00 00 00 00 00 00 00 
37.128800 1 29c Rx d 8 40 08 25 94 00 8c 5a 3c 
37.136600 1 3b8 Rx d 8 36 8e 75 19 35 d3 2c 58 
37.146000 1 3ba Rx d 8 50 4f 67 5b 65 6b 00 00 
37.156000 1 3bc Rx d 8 50 4f 52 02 2d 90 00 00 
37.166100 1 3bd Rx d 8 14 0b 13 00 00 00 00 00 
37.176400 1 3be Rx d 8 00 00 00 00 00 00 00 00 
37.229600 1 29c Rx d 8 40 08 25 94 00 8c 5a 3c 
37.237100 1 3b8 Rx d 8 36 8e 75 19 35 d3 2c 58 
37.247100 1 3ba Rx d 8 50 4f 67 5b 65 6b 00 00 
37.257000 1 3bc Rx d 8 50 4f 52 02 2d 90 00 00 
37.267300 1 3bd Rx d 8 14 0b 13 00 00 00 00 00 
37.277400 1 3be Rx d 8 00 00 00 00 00 00 00 00 
37.330600 1 29c Rx d 8 40 08 25 94 00 8c 5a 3c 
37.337800 1 3b8 Rx d 8 36 8e 75 19 35 d3 2c 58 
37.347900 1 3ba Rx d 8 50 4f 67 5b 65 6b 00 00 
37.357900 1 3bc Rx d 8 50 4f 52 02 2d 90 00 00 
37.368200 1 3bd Rx d 8 14 0b 13 00 00 00 00 00 
37.378200 1 3be Rx d 8 00 00 00 00 00 00 00 00 
37.431500 1 29c Rx d 8 40 08 25 94 00 8c 5a 3c 
37.438800 1 3b8 Rx d 8 36 8e 75 19 35 d3 2c 58 
37.448800 1 3ba Rx d 8 50 4f 67 5b 65 6b 00 00 
37.458900 1 3bc Rx d 8 50 4f 52 08 2d 90 00 00 
37.469200 1 3bd Rx d 8 14 0b 13 00 00 00 00 00 
37.479300 1 3be Rx d 8 00 00 00 00 00 00 00 00 
37.532400 1 29c Rx d 8 40 08 25 94 00 8c 5a 3c 
37.539800 1 3b8 Rx d 8 36 8e 75 19 35 d3 2c 58 
37.549900 1 3ba Rx d 8 50 4f 67 5b 65 6b 00 00 
37.560100 1 3bc Rx d 8 50 4f 52 08 2d 90 00 00 
37.569900 1 3bd Rx d 8 14 0b 13 00 00 00 00 00 
37.580200 1 3be Rx d 8 00 00 00 00 00 00 00 00 
37.633400 1 29c Rx d 8 40 08 25 94 00 8c 5a 3c 
37.640700 1 3b8 Rx d 8 36 8e 75 19 35 d3 2c 58 
37.651400 1 3ba Rx d 8 50 4f 67 5b 65 6b 00 00 
37.660800 1 3bc Rx d 8 50 4f 52 08 2d 90 00 00 
37.670800 1 3bd Rx d 8 14 0b 13 00 00 00 00 00 
37.681000 1 3be Rx d 8 00 00 00 00 00 00 00 00 
37.734600 1 29c Rx d 8 40 08 25 94 00 8c 5a 3c 
37.742400 1 3b8 Rx d 8 36 8f 75 19 35 d3 2c 58 
37.751600 1 3ba Rx d 8 50 4f 67 5b 65 6b 00 00 
37.761800 1 3bc Rx d 8 50 4f 52 05 2d 90 00 00 
37.772000 1 3bd Rx d 8 14 0b 13 00 00 00 00 00 
37.782000 1 3be Rx d 8 00 00 00 00 00 00 00 00 
37.835300 1 29c Rx d 8 40 08 25 94 00 8c 5a 3c 
37.842600 1 3b8 Rx d 8 36 8f 75 19 35 d3 2c 58 
37.852800 1 3ba Rx d 8 50 4f 67 5b 65 6b 00 00 
37.862800 1 3bc Rx d 8 50 4f 52 05 2d 90 00 00 
37.872900 1 3bd Rx d 8 14 0b 13 00 00 00 00 00 
37.883000 1 3be Rx d 8 00 00 00 00 00 00 00 00 
37.936200 1 29c Rx d 8 40 08 25 94 00 8c 5a 3c 
37.943600 1 3b8 Rx d 8 36 8f 75 19 35 d3 2c 58 
37.953700 1 3ba Rx d 8 50 4f 67 5b 65 6b 00 00 
37.963800 1 3bc Rx d 8 50 4f 52 05 2d 90 00 00 
37.973900 1 3bd Rx d 8 14 0b 13 00 00 00 00 00 
37.984100 1 3be Rx d 8 00 00 00 00 00 00 00 00 
38.037400 1 29c Rx d 8 40 08 25 94 00 8c 5a 3c 
38.044500 1 3b8 Rx d 8 36 8f 75 19 35 d3 2c 58 
38.054600 1 3ba Rx d 8 50 4f 67 5b 65 6b 00 00 
38.064600 1 3bc Rx d 8 50 4f 52 09 2d 90 00 00 
38.075000 1 3bd Rx d 8 14 0b 13 00 00 00 00 00 
38.085600 1 3be Rx d 8 00 00 00 00 00 00 00 00 
38.138400 1 29c Rx d 8 40 08 25 94 00 8c 5a 3c 
38.145500 1 3b8 Rx d 8 36 8f 75 19 35 d3 2c 58 
38.155500 1 3ba Rx d 8 50 4f 67 5b 65 6b 00 00 
38.165900 1 3bc Rx d 8 50 4f 52 09 2d 90 00 00 
38.176500 1 3bd Rx d 8 14 0b 13 00 00 00 00 00 
