Time Stamp,ID,Extended,Dir,Bus,LEN,D1,D2,D3,D4,D5,D6,D7,D8
-1693295655462795,000003B8,false,Rx,0,8,64,00,00,00,00,00,00,12,
-1693295655452641,000003BA,false,Rx,0,8,2E,2E,41,41,41,41,00,00,
-1693295655442913,000003BC,false,Rx,0,8,2E,2E,00,00,00,00,00,00,
-1693295655432802,000003BD,false,Rx,0,8,14,04,0D,00,00,00,00,00,
-1693295655422819,000003BE,false,Rx,0,8,00,00,00,81,00,00,00,00,
-1693295655362918,000003B8,false,Rx,0,8,64,00,00,00,00,00,00,12,
-1693295655352935,000003BA,false,Rx,0,8,2E,2E,41,41,41,41,00,00,
-1693295655342952,000003BC,false,Rx,0,8,2E,2E,00,00,00,00,00,00,
-1693295655333054,000003BD,false,Rx,0,8,14,04,0D,00,00,00,00,00,
-1693295655322900,000003BE,false,Rx,0,8,00,00,00,81,00,00,00,00,
-1693295655262829,000003B8,false,Rx,0,8,64,00,00,00,00,00,00,12,
-1693295655252973,000003BA,false,Rx,0,8,2E,2E,41,41,41,41,00,00,
-1693295655243246,000003BC,false,Rx,0,8,2E,2E,00,00,00,00,00,00,
-1693295655233092,000003BD,false,Rx,0,8,14,04,0D,00,00,00,00,00,
-1693295655222853,000003BE,false,Rx,0,8,00,00,00,81,00,00,00,00,
-1693295655163123,000003B8,false,Rx,0,8,64,00,00,00,00,00,00,12,
-1693295655153396,000003BA,false,Rx,0,8,2E,2E,41,41,41,41,00,00,
-1693295655143199,000003BC,false,Rx,0,8,2E,2E,00,00,00,00,00,00,
-1693295655133343,000003BD,false,Rx,0,8,14,04,0D,00,00,00,00,00,
-1693295655123147,000003BE,false,Rx,0,8,00,00,00,81,00,00,00,00,
-1693295655063204,000003B8,false,Rx,0,8,64,00,00,00,00,00,00,12,
-1693295655053178,000003BA,false,Rx,0,8,2E,2E,41,41,41,41,00,00,
-1693295655043450,000003BC,false,Rx,0,8,2E,2E,00,00,00,00,00,00,
-1693295655033339,000003BD,false,Rx,0,8,14,04,0D,00,00,00,00,00,
-1693295655023484,000003BE,false,Rx,0,8,00,00,00,81,00,00,00,00,
-1693295654962943,000003B8,false,Rx,0,8,64,00,00,00,00,00,00,12,
-1693295654953472,000003BA,false,Rx,0,8,2E,2E,41,41,41,41,00,00,
-1693295654943361,000003BC,false,Rx,0,8,2E,2E,00,00,00,00,00,00,
-1693295654933463,000003BD,false,Rx,0,8,14,04,0D,00,00,00,00,00,
-1693295654922980,000003BE,false,Rx,0,8,00,00,00,81,00,00,00,00,
-1693295654863506,000003B8,false,Rx,0,8,64,00,00,00,00,00,00,12,
-1693295654853523,000003BA,false,Rx,0,8,2E,2E,41,41,41,41,00,00,
-1693295654843369,000003BC,false,Rx,0,8,2E,2E,00,00,00,00,00,00,
-1693295654833514,000003BD,false,Rx,0,8,14,04,0D,00,00,00,00,00,
-1693295654823743,000003BE,false,Rx,0,8,00,00,00,81,00,00,00,00,
-1693295654763417,000003B8,false,Rx,0,8,64,00,00,00,00,00,00,12,
-1693295654753647,000003BA,false,Rx,0,8,2E,2E,41,41,41,41,00,00,
-1693295654743663,000003BC,false,Rx,0,8,2E,2E,00,00,00,00,00,00,
-1693295654733808,000003BD,false,Rx,0,8,14,04,0D,00,00,00,00,00,
-1693295654723398,000003BE,false,Rx,0,8,00,00,00,81,00,00,00,00,
-1693295654663839,000003B8,false,Rx,0,8,64,00,00,00,00,00,00,12,
-1693295654653898,000003BA,false,Rx,0,8,2E,2E,41,41,41,41,00,00,
-1693295654643744,000003BC,false,Rx,0,8,2E,2E,00,00,00,00,00,00,
-1693295654633889,000003BD,false,Rx,0,8,14,04,0D,00,00,00,00,00,
-1693295654623948,000003BE,false,Rx,0,8,00,00,00,81,00,00,00,00,
-1693295654563493,000003B8,false,Rx,0,8,64,00,00,00,00,00,37,12,
-1693295654553936,000003BA,false,Rx,0,8,2E,2E,41,41,41,41,00,00,
-1693295654543825,000003BC,false,Rx,0,8,2E,2E,00,00,00,00,00,00,
-1693295654533756,000003BD,false,Rx,0,8,14,04,0D,00,00,00,00,00,
-1693295654523730,000003BE,false,Rx,0,8,00,00,00,81,00,00,00,00,
-1693295654464086,000003B8,false,Rx,0,8,64,00,00,00,00,00,37,12,
-1693295654454103,000003BA,false,Rx,0,8,2E,2E,41,41,41,41,00,00,
-1693295654444119,000003BC,false,Rx,0,8,2E,2E,00,00,00,00,00,00,
-1693295654434008,000003BD,false,Rx,0,8,14,04,0D,00,00,00,00,00,
-1693295654423854,000003BE,false,Rx,0,8,00,00,00,81,00,00,00,00,
-1693295654363954,000003B8,false,Rx,0,8,64,00,00,00,00,00,37,12,
-1693295654354269,000003BA,false,Rx,0,8,2E,2E,41,41,41,41,00,00,
-1693295654344115,000003BC,false,Rx,0,8,2E,2E,00,00,00,00,00,00,
-1693295654334259,000003BD,false,Rx,0,8,14,04,0D,00,00,00,00,00,
-1693295654324020,000003BE,false,Rx,0,8,00,00,00,81,00,00,00,00,
-1693295654264205,000003B8,false,Rx,0,8,64,00,01,00,00,00,37,12,
-1693295654254222,000003BA,false,Rx,0,8,2E,2E,41,41,41,41,00,00,
-1693295654244068,000003BC,false,Rx,0,8,2E,2E,1A,A5,00,3C,00,00,
-1693295654234212,000003BD,false,Rx,0,8,14,04,0D,00,00,00,00,00,
-1693295654224229,000003BE,false,Rx,0,8,00,00,00,81,00,00,00,00,
-1693295654164201,000003B8,false,Rx,0,8,64,00,01,00,00,00,37,12,
-1693295654154559,000003BA,false,Rx,0,8,2E,2E,41,41,41,41,00,00,
-1693295654144319,000003BC,false,Rx,0,8,2E,2E,1A,A5,00,3C,00,00,
-1693295654134336,000003BD,false,Rx,0,8,14,04,0D,00,00,00,00,00,
-1693295654124054,000003BE,false,Rx,0,8,00,00,00,81,00,00,00,00,
-1693295654064410,000003B8,false,Rx,0,8,64,00,01,00,00,00,37,12,
-1693295654054469,000003BA,false,Rx,0,8,2E,2E,2E,26,30,32,00,00,
-1693295654044315,000003BC,false,Rx,0,8,2E,2E,1A,A5,00,3C,00,00,
-1693295654034459,000003BD,false,Rx,0,8,14,04,0D,00,00,00,00,00,
-1693295654024433,000003BE,false,Rx,0,8,00,00,00,81,00,00,00,00,
-1693295653964149,000003B8,false,Rx,0,8,64,00,01,00,00,00,37,12,
-1693295653954678,000003BA,false,Rx,0,8,2E,2E,2E,26,30,32,00,00,
-1693295653944524,000003BC,false,Rx,0,8,2E,2E,1A,A5,00,3C,00,00,
-1693295653934412,000003BD,false,Rx,0,8,14,04,0D,00,00,00,00,00,
-1693295653924639,000003BE,false,Rx,0,8,00,00,00,81,00,00,00,00,
-1693295653864568,000003B8,false,Rx,0,8,64,00,01,00,04,00,89,12,
-1693295653854713,000003BA,false,Rx,0,8,2E,2E,2E,26,30,32,00,00,
-1693295653844730,000003BC,false,Rx,0,8,2E,2E,1A,A5,00,3C,00,00,
-1693295653834746,000003BD,false,Rx,0,8,14,04,0D,00,00,00,00,00,
-1693295653824720,000003BE,false,Rx,0,8,00,00,00,81,00,00,00,00,
-1693295653764820,000003B8,false,Rx,0,8,64,00,01,00,04,00,89,12,
-1693295653754837,000003BA,false,Rx,0,8,2E,2E,2E,26,30,32,00,00,
-1693295653744725,000003BC,false,Rx,0,8,2E,2E,1A,A4,00,3C,00,00,
-1693295653734358,000003BD,false,Rx,0,8,14,04,0D,00,00,00,00,00,
-1693295653724886,000003BE,false,Rx,0,8,00,00,00,81,00,00,00,00,
-1693295653664816,000003B8,false,Rx,0,8,64,00,01,00,04,00,89,12,
-1693295653654832,000003BA,false,Rx,0,8,2E,2E,2E,26,30,32,00,00,
-1693295653644977,000003BC,false,Rx,0,8,2E,2E,1A,A4,00,3C,00,00,
-1693295653635079,000003BD,false,Rx,0,8,14,04,0D,00,00,00,00,00,
-1693295653624839,000003BE,false,Rx,0,8,00,00,00,81,00,00,00,00,
-1693295653564896,000003B8,false,Rx,0,8,64,00,01,00,04,00,89,12,
-1693295653555041,000003BA,false,Rx,0,8,2E,2E,33,2B,35,36,00,00,
-1693295653544802,000003BC,false,Rx,0,8,2E,2E,1A,A4,00,3C,00,00,
-1693295653535032,000003BD,false,Rx,0,8,14,04,0D,00,00,00,00,00,
-1693295653525048,000003BE,false,Rx,0,8,00,00,00,81,00,00,00,00,
-1693295653464721,000003B8,false,Rx,0,8,64,00,01,00,04,00,89,12,
-1693295653454994,000003BA,false,Rx,0,8,2E,2E,33,2B,35,36,00,00,
-1693295653445139,000003BC,false,Rx,0,8,2E,2E,1A,A4,00,3C,00,00,
-1693295653435027,000003BD,false,Rx,0,8,14,04,0D,00,00,00,00,00,
-1693295653425300,000003BE,false,Rx,0,8,00,00,00,81,00,00,00,00,
-1693295653365016,000003B8,false,Rx,0,8,64,00,01,00,04,00,89,12,
-1693295653355075,000003BA,false,Rx,0,8,2E,2E,33,2B,35,36,00,00,
-1693295653345433,000003BC,false,Rx,0,8,2E,2E,1A,A4,00,3C,00,00,
-1693295653335322,000003BD,false,Rx,0,8,14,04,0D,00,00,00,00,00,
-1693295653325125,000003BE,false,Rx,0,8,00,00,00,81,00,00,00,00,
-1693295653265054,000003B8,false,Rx,0,8,64,00,01,00,04,00,89,12,
-1693295653255455,000003BA,false,Rx,0,8,2E,2E,33,2B,35,36,00,00,
-1693295653245215,000003BC,false,Rx,0,8,2E,2E,1A,A4,00,3C,00,00,
-1693295653235232,000003BD,false,Rx,0,8,14,04,0D,00,00,00,00,00,
-1693295653225206,000003BE,false,Rx,0,8,00,00,00,81,00,00,00,00,
-1693295653165305,000003B8,false,Rx,0,8,64,01,01,00,04,00,89,12,
-1693295653155578,000003BA,false,Rx,0,8,2E,2E,33,2B,35,36,00,00,
-1693295653145723,000003BC,false,Rx,0,8,2E,2E,1A,A4,00,3C,00,00,
-1693295653135611,000003BD,false,Rx,0,8,14,04,0D,00,00,00,00,00,
-1693295653125372,000003BE,false,Rx,0,8,00,00,00,81,00,00,00,00,
-1693295653065600,000003B8,false,Rx,0,8,64,01,01,00,04,00,89,1E,
-1693295653054592,000003BA,false,Rx,0,8,2E,2E,36,2E,38,39,00,00,
-1693295653045718,000003BC,false,Rx,0,8,2E,2E,1A,A4,00,3C,00,00,
-1693295653035820,000003BD,false,Rx,0,8,14,04,0D,00,00,00,00,00,
-1693295653025581,000003BE,false,Rx,0,8,00,00,00,80,00,00,00,00,
-1693295652965809,000003B8,false,Rx,0,8,64,01,01,00,04,00,89,1E,
-1693295652955953,000003BA,false,Rx,0,8,2E,2E,36,2E,38,39,00,00,
-1693295652945671,000003BC,false,Rx,0,8,2E,2E,1A,A4,00,3C,00,00,
-1693295652935944,000003BD,false,Rx,0,8,14,04,0D,00,00,00,00,00,
-1693295652925888,000003BE,false,Rx,0,8,00,00,00,80,00,00,00,00,
-1693295652865945,000003B8,false,Rx,0,8,64,01,01,00,04,00,89,1E,
-1693295652855961,000003BA,false,Rx,0,8,2E,2E,36,2E,38,39,00,00,
-1693295652845893,000003BC,false,Rx,0,8,2E,2E,1A,A4,00,3C,00,00,
-1693295652835867,000003BD,false,Rx,0,8,14,04,0D,00,00,00,00,00,
-1693295652825969,000003BE,false,Rx,0,8,00,00,00,80,00,00,00,00,
-1693295652766154,000003B8,false,Rx,0,8,64,01,01,00,03,00,1D,1E,
-1693295652755957,000003BA,false,Rx,0,8,2E,2E,36,2E,38,39,00,00,
-1693295652746059,000003BC,false,Rx,0,8,2E,2E,1A,A4,00,3C,00,00,
-1693295652735649,000003BD,false,Rx,0,8,14,04,0D,00,00,00,00,00,
-1693295652726178,000003BE,false,Rx,0,8,00,00,00,80,00,00,00,00,
-1693295652666235,000003B8,false,Rx,0,8,64,02,01,00,03,00,1D,1E,
-1693295652656337,000003BA,false,Rx,0,8,2E,2E,36,2E,38,39,00,00,
-1693295652646225,000003BC,false,Rx,0,8,2E,2E,1A,A4,00,5F,00,00,
-1693295652636242,000003BD,false,Rx,0,8,14,04,0D,00,00,00,00,00,
-1693295652626088,000003BE,false,Rx,0,8,00,00,00,80,00,00,00,00,
-1693295652566188,000003B8,false,Rx,0,8,64,02,01,00,03,00,1D,1E,
-1693295652556290,000003BA,false,Rx,0,8,2E,2E,38,2F,39,3A,00,00,
-1693295652545709,000003BC,false,Rx,0,8,2E,2E,1A,A4,00,5F,00,00,
-1693295652536195,000003BD,false,Rx,0,8,14,04,0D,00,00,00,00,00,
-1693295652526297,000003BE,false,Rx,0,8,00,00,00,80,00,00,00,00,
-1693295652466268,000003B8,false,Rx,0,8,64,02,01,00,02,00,1D,1E,
-1693295652456541,000003BA,false,Rx,0,8,2E,2E,38,2F,39,3A,00,00,
-1693295652446174,000003BC,false,Rx,0,8,2E,2E,1A,A4,00,5F,00,00,
-1693295652436276,000003BD,false,Rx,0,8,14,04,0D,00,00,00,00,00,
-1693295652426292,000003BE,false,Rx,0,8,00,00,00,80,00,00,00,00,
-1693295652366179,000003B8,false,Rx,0,8,64,02,01,00,02,00,1D,1E,
-1693295652355811,000003BA,false,Rx,0,8,2E,2E,38,2F,39,3A,00,00,
-1693295652346425,000003BC,false,Rx,0,8,2E,2E,1A,97,00,5F,00,00,
-1693295652336186,000003BD,false,Rx,0,8,14,04,0D,00,00,00,00,00,
-1693295652326288,000003BE,false,Rx,0,8,00,00,00,80,00,00,00,00,
-1693295652266345,000003B8,false,Rx,0,8,64,02,01,00,02,00,1D,1E,
-1693295652256490,000003BA,false,Rx,0,8,2E,2E,38,30,3A,3B,00,00,
-1693295652246378,000003BC,false,Rx,0,8,2E,2E,1A,97,00,5F,00,00,
-1693295652236395,000003BD,false,Rx,0,8,14,04,0D,00,00,00,00,00,
-1693295652226497,000003BE,false,Rx,0,8,00,00,00,80,00,00,00,00,
-1693295652166469,000003B8,false,Rx,0,8,64,02,01,00,02,00,1D,1E,
-1693295652156443,000003BA,false,Rx,0,8,2E,2E,38,30,3A,3B,00,00,
-1693295652146758,000003BC,false,Rx,0,8,2E,2E,1A,8D,00,5F,00,00,
-1693295652136433,000003BD,false,Rx,0,8,14,04,0D,00,00,00,00,00,
-1693295652126706,000003BE,false,Rx,0,8,00,00,00,80,00,00,00,00,
-1693295652066635,000003B8,false,Rx,0,8,64,02,01,00,02,00,1D,1E,
-1693295652056267,000003BA,false,Rx,0,8,2E,2E,39,31,3B,3B,00,00,
-1693295652046881,000003BC,false,Rx,0,8,2E,2E,1A,8D,00,5F,00,00,
-1693295652036898,000003BD,false,Rx,0,8,14,04,0D,00,00,00,00,00,
-1693295652026787,000003BE,false,Rx,0,8,00,00,00,80,00,00,00,00,
-1693295651966630,000003B8,false,Rx,0,8,64,02,01,00,02,00,1D,1E,
-1693295651956775,000003BA,false,Rx,0,8,2E,2E,39,31,3B,3B,00,00,
-1693295651946706,000003BC,false,Rx,0,8,2E,2E,1A,8D,00,5F,00,00,
-1693295651936979,000003BD,false,Rx,0,8,14,04,0D,00,00,00,00,00,
-1693295651926540,000003BE,false,Rx,0,8,00,00,00,80,00,00,00,00,
-1693295651866554,000003B8,false,Rx,0,8,64,02,01,00,02,00,1D,1E,
-1693295651857040,000003BA,false,Rx,0,8,2E,2E,39,31,3B,3B,00,00,
-1693295651846844,000003BC,false,Rx,0,8,2E,2E,1A,8C,00,5F,00,00,
-1693295651836818,000003BD,false,Rx,0,8,14,04,0D,00,00,00,00,00,
-1693295651826322,000003BE,false,Rx,0,8,00,00,00,80,00,00,00,00,
-1693295651766934,000003B8,false,Rx,0,8,64,02,01,00,02,00,1D,1E,
-1693295651756823,000003BA,false,Rx,0,8,2E,2E,3A,31,3B,3C,00,00,
-1693295651746967,000003BC,false,Rx,0,8,2E,2E,1A,8C,00,5F,00,00,
-1693295651736941,000003BD,false,Rx,0,8,14,04,0D,00,00,00,00,00,
-1693295651727043,000003BE,false,Rx,0,8,00,00,00,80,00,00,00,00,
-1693295651667143,000003B8,false,Rx,0,8,64,02,01,00,02,00,1D,1E,
-1693295651657245,000003BA,false,Rx,0,8,2E,2E,3A,31,3B,3C,00,00,
-1693295651647176,000003BC,false,Rx,0,8,2E,2E,1A,8C,00,5F,00,00,
-1693295651637150,000003BD,false,Rx,0,8,14,04,0D,00,00,00,00,00,
-1693295651627295,000003BE,false,Rx,0,8,00,00,00,80,00,00,00,00,
-1693295651566925,000003B8,false,Rx,0,8,64,02,01,00,02,00,1D,1E,
-1693295651557411,000003BA,false,Rx,0,8,2E,2E,3A,31,3B,3C,00,00,
-1693295651547428,000003BC,false,Rx,0,8,2E,2E,1A,8C,00,5F,00,00,
-1693295651537402,000003BD,false,Rx,0,8,14,04,0D,00,00,00,00,00,
-1693295651526906,000003BE,false,Rx,0,8,00,00,00,80,00,00,00,00,
-1693295651467475,000003B8,false,Rx,0,8,64,02,01,00,02,00,1D,1E,
-1693295651457364,000003BA,false,Rx,0,8,2E,2E,3A,32,3C,3C,00,00,
-1693295651447466,000003BC,false,Rx,0,8,2E,2E,1A,8C,00,5F,00,00,
-1693295651437482,000003BD,false,Rx,0,8,14,04,0D,00,00,00,00,00,
-1693295651427584,000003BE,false,Rx,0,8,00,00,00,80,00,00,00,00,
-1693295651367386,000003B8,false,Rx,0,8,64,02,01,00,02,00,1D,1E,
-1693295651357487,000003BA,false,Rx,0,8,2E,2E,3A,32,3C,3C,00,00,
-1693295651347376,000003BC,false,Rx,0,8,2E,2E,1A,8C,00,5F,00,00,
-1693295651337179,000003BD,false,Rx,0,8,14,04,0D,00,00,00,00,00,
-1693295651327281,000003BE,false,Rx,0,8,00,00,00,80,00,00,00,00,
-1693295651267466,000003B8,false,Rx,0,8,64,02,01,00,02,00,1D,1E,
-1693295651257440,000003BA,false,Rx,0,8,2E,2E,3A,32,3C,3C,00,00,
-1693295651247457,000003BC,false,Rx,0,8,2E,2E,1A,8C,00,5F,00,00,
-1693295651237474,000003BD,false,Rx,0,8,14,04,0D,00,00,00,00,00,
-1693295651227448,000003BE,false,Rx,0,8,00,00,00,80,00,00,00,00,
-1693295651167590,000003B8,false,Rx,0,8,64,02,01,00,02,00,1D,1E,
-1693295651157521,000003BA,false,Rx,0,8,2E,2E,3A,32,3C,3C,00,00,
-1693295651147154,000003BC,false,Rx,0,8,2E,2E,1A,8C,00,5F,00,00,
-1693295651137640,000003BD,false,Rx,0,8,14,04,0D,00,00,00,00,00,
-1693295651127486,000003BE,false,Rx,0,8,00,00,00,80,00,00,00,00,
-1693295651067671,000003B8,false,Rx,0,8,64,02,01,00,02,00,1D,1E,
-1693295651057517,000003BA,false,Rx,0,8,2E,2E,3A,32,3C,3C,00,00,
-1693295651047661,000003BC,false,Rx,0,8,2E,2E,1A,8C,00,5F,00,00,
-1693295651037422,000003BD,false,Rx,0,8,14,04,0D,00,00,00,00,00,
-1693295651027695,000003BE,false,Rx,0,8,00,00,00,80,00,00,00,00,
-1693295650967752,000003B8,false,Rx,0,8,64,02,01,00,02,00,1D,1E,
-1693295650957768,000003BA,false,Rx,0,8,2E,2E,3B,32,3C,3C,00,00,
-1693295650947785,000003BC,false,Rx,0,8,2E,2E,1A,8C,00,5F,00,00,
-1693295650937802,000003BD,false,Rx,0,8,14,04,0D,00,00,00,00,00,
-1693295650927804,000003BE,false,Rx,0,8,00,00,00,80,00,00,00,00,
-1693295650867946,000003B8,false,Rx,0,8,64,02,01,00,02,00,1D,1E,
-1693295650858091,000003BA,false,Rx,0,8,2E,2E,3B,32,3C,3C,00,00,
-1693295650847724,000003BC,false,Rx,0,8,2E,2E,1A,8C,00,5F,00,00,
-1693295650837911,000003BD,false,Rx,0,8,14,04,0D,00,00,00,00,00,
-1693295650827970,000003BE,false,Rx,0,8,00,00,00,80,00,00,00,00,
-1693295650768198,000003B8,false,Rx,0,8,64,02,01,00,02,00,1D,1E,
-1693295650758044,000003BA,false,Rx,0,8,2E,2E,3B,32,3C,3C,00,00,
-1693295650748189,000003BC,false,Rx,0,8,2E,2E,1A,8C,00,5F,00,00,
-1693295650737992,000003BD,false,Rx,0,8,14,04,0D,00,00,00,00,00,
-1693295650728222,000003BE,false,Rx,0,8,00,00,00,80,00,00,00,00,
-1693295650668236,000003B8,false,Rx,0,8,64,02,01,00,02,00,1D,1E,
-1693295650657826,000003BA,false,Rx,0,8,2E,2E,3B,32,3C,3C,00,00,
-1693295650648355,000003BC,false,Rx,0,8,2E,2E,1A,8C,00,5F,00,00,
-1693295650638329,000003BD,false,Rx,0,8,14,04,0D,00,00,00,00,00,
-1693295650628303,000003BE,false,Rx,0,8,00,00,00,80,00,00,00,00,
-1693295650568189,000003B8,false,Rx,0,8,64,02,01,00,02,00,1D,1E,
-1693295650558120,000003BA,false,Rx,0,8,2E,2E,3B,32,3C,3C,00,00,
-1693295650548137,000003BC,false,Rx,0,8,2E,2E,1A,8C,00,5F,00,00,
-1693295650538196,000003BD,false,Rx,0,8,14,04,0D,00,00,00,00,00,
-1693295650528213,000003BE,false,Rx,0,8,00,00,00,80,00,00,00,00,
-1693295650467971,000003B8,false,Rx,0,8,64,02,01,00,02,00,1D,1E,
-1693295650458585,000003BA,false,Rx,0,8,2E,2E,3B,32,3C,3C,00,00,
-1693295650448431,000003BC,false,Rx,0,8,2E,2E,1A,8C,00,5F,00,00,
-1693295650438491,000003BD,false,Rx,0,8,14,04,0D,00,00,00,00,00,
-1693295650428507,000003BE,false,Rx,0,8,00,00,00,80,00,00,00,00,
-1693295650368479,000003B8,false,Rx,0,8,64,02,01,00,02,00,1D,1E,
-1693295650358325,000003BA,false,Rx,0,8,2E,2E,3B,33,3D,3D,00,00,
-1693295650348640,000003BC,false,Rx,0,8,2E,2E,1A,8C,00,5F,00,00,
-1693295650338742,000003BD,false,Rx,0,8,14,04,0D,00,00,00,00,00,
-1693295650328588,000003BE,false,Rx,0,8,00,00,00,80,00,00,00,00,
-1693295650268645,000003B8,false,Rx,0,8,64,02,01,00,02,00,1D,1E,
-1693295650258619,000003BA,false,Rx,0,8,2E,2E,3B,33,3D,3D,00,00,
-1693295650248593,000003BC,false,Rx,0,8,2E,2E,1A,8C,00,5F,00,00,
-1693295650238695,000003BD,false,Rx,0,8,14,04,0D,00,00,00,00,00,
-1693295650228754,000003BE,false,Rx,0,8,00,00,00,80,00,00,00,00,
-1693295650168683,000003B8,false,Rx,0,8,64,02,01,00,02,00,1D,1E,
-1693295650158828,000003BA,false,Rx,0,8,2E,2E,3B,33,3D,3D,00,00,
-1693295650148973,000003BC,false,Rx,0,8,2E,2E,1A,8C,00,7E,00,00,
-1693295650138477,000003BD,false,Rx,0,8,14,04,0D,00,00,00,00,00,
-1693295650128750,000003BE,false,Rx,0,8,00,00,00,80,00,00,00,00,
-1693295650068978,000003B8,false,Rx,0,8,64,02,01,00,02,00,1D,1E,
-1693295650059122,000003BA,false,Rx,0,8,2E,2E,3B,33,3D,3D,00,00,
-1693295650048883,000003BC,false,Rx,0,8,2E,2E,1A,8C,00,7E,00,00,
-1693295650038985,000003BD,false,Rx,0,8,14,04,0D,00,00,00,00,00,
-1693295650028831,000003BE,false,Rx,0,8,00,00,00,80,00,00,00,00,
-1693295649968973,000003B8,false,Rx,0,8,64,02,01,00,02,00,1D,1E,
-1693295649958862,000003BA,false,Rx,0,8,2E,2E,3B,33,3D,3D,00,00,
-1693295649948879,000003BC,false,Rx,0,8,2E,2E,1A,8C,00,9C,00,00,
-1693295649938980,000003BD,false,Rx,0,8,14,04,0D,00,00,00,00,00,
-1693295649929015,000003BE,false,Rx,0,8,00,00,00,80,00,00,00,00,
-1693295649868987,000003B8,false,Rx,0,8,64,02,02,00,02,00,1D,1E,
-1693295649858875,000003BA,false,Rx,0,8,2E,2E,3B,33,3D,3D,00,00,
-1693295649849020,000003BC,false,Rx,0,8,2E,2E,1A,8C,00,9C,00,00,
-1693295649839037,000003BD,false,Rx,0,8,14,04,0D,00,00,00,00,00,
-1693295649829053,000003BE,false,Rx,0,8,00,00,00,80,00,00,00,00,
-1693295649768726,000003B8,false,Rx,0,8,64,02,02,00,02,00,1D,1E,
-1693295649758871,000003BA,false,Rx,0,8,2E,2E,3B,33,3D,3D,00,00,
-1693295649748888,000003BC,false,Rx,0,8,2E,2E,1A,8C,00,9C,00,00,
-1693295649738990,000003BD,false,Rx,0,8,14,04,0D,00,00,00,00,00,
-1693295649728622,000003BE,false,Rx,0,8,00,00,00,80,00,00,00,00,
-1693295649669191,000003B8,false,Rx,0,8,64,02,02,00,02,00,1D,1E,
-1693295649659123,000003BA,false,Rx,0,8,2E,2E,3B,33,3D,3D,00,00,
-1693295649649139,000003BC,false,Rx,0,8,2E,2E,1A,79,00,9C,00,00,
-1693295649638985,000003BD,false,Rx,0,8,14,04,0D,00,00,00,00,00,
-1693295649629258,000003BE,false,Rx,0,8,00,00,00,80,00,00,00,00,
-1693295649569230,000003B8,false,Rx,0,8,64,02,02,00,02,00,1D,1E,
-1693295649559246,000003BA,false,Rx,0,8,2E,2E,3B,33,3D,3D,00,00,
-1693295649549007,000003BC,false,Rx,0,8,2E,2E,1A,79,00,9C,00,00,
-1693295649539237,000003BD,false,Rx,0,8,14,04,0D,00,00,00,00,00,
-1693295649529296,000003BE,false,Rx,0,8,00,00,00,80,00,00,00,00,
-1693295649469268,000003B8,false,Rx,0,8,64,02,02,00,02,00,1D,1E,
-1693295649459370,000003BA,false,Rx,0,8,2E,2E,3B,33,3D,3D,00,00,
-1693295649449386,000003BC,false,Rx,0,8,2E,2E,1A,79,00,9C,00,00,
-1693295649439275,000003BD,false,Rx,0,8,14,04,0D,00,00,00,00,00,
-1693295649429377,000003BE,false,Rx,0,8,00,00,00,80,00,00,00,00,
-1693295649369477,000003B8,false,Rx,0,8,64,02,02,00,02,00,1D,1E,
-1693295649359621,000003BA,false,Rx,0,8,2E,2E,3B,33,3D,3D,00,00,
-1693295649349681,000003BC,false,Rx,0,8,2E,2E,1A,76,00,BA,00,00,
-1693295649339825,000003BD,false,Rx,0,8,14,04,0D,00,00,00,00,00,
-1693295649329543,000003BE,false,Rx,0,8,00,00,00,80,00,00,00,00,
-1693295649269771,000003B8,false,Rx,0,8,64,02,02,00,02,00,1D,1E,
-1693295649259788,000003BA,false,Rx,0,8,2E,2E,3B,33,3D,3D,00,00,
-1693295649249548,000003BC,false,Rx,0,8,2E,2E,1A,76,00,BA,00,00,
-1693295649239821,000003BD,false,Rx,0,8,14,04,0D,00,00,00,00,00,
-1693295649229581,000003BE,false,Rx,0,8,00,00,00,80,00,00,00,00,
-1693295649169809,000003B8,false,Rx,0,8,64,02,02,00,02,00,1D,1E,
-1693295649159954,000003BA,false,Rx,0,8,2E,2E,3B,33,3D,3D,00,00,
-1693295649149970,000003BC,false,Rx,0,8,2E,2E,1A,76,00,BA,00,00,
-1693295649139859,000003BD,false,Rx,0,8,14,04,0D,00,00,00,00,00,
-1693295649129961,000003BE,false,Rx,0,8,00,00,00,80,00,00,00,00,
-1693295649069805,000003B8,false,Rx,0,8,64,02,02,00,02,00,1D,1E,
-1693295649059949,000003BA,false,Rx,0,8,2E,2E,3B,33,3D,3D,00,00,
-1693295649049966,000003BC,false,Rx,0,8,2E,2E,1A,75,00,9C,00,00,
-1693295649040111,000003BD,false,Rx,0,8,14,04,0D,00,00,00,00,00,
-1693295649029871,000003BE,false,Rx,0,8,00,00,00,80,00,00,00,00,
-1693295648970014,000003B8,false,Rx,0,8,64,02,02,00,02,00,1D,1E,
-1693295648959817,000003BA,false,Rx,0,8,2E,2E,3C,33,3D,3D,00,00,
-1693295648950090,000003BC,false,Rx,0,8,2E,2E,1A,75,00,9C,00,00,
-1693295648940106,000003BD,false,Rx,0,8,14,04,0D,00,00,00,00,00,
-1693295648930123,000003BE,false,Rx,0,8,00,00,00,80,00,00,00,00,
-1693295648870278,000003B8,false,Rx,0,8,64,02,02,00,02,00,1D,1E,
-1693295648860124,000003BA,false,Rx,0,8,2E,2E,3C,33,3D,3D,00,00,
-1693295648849885,000003BC,false,Rx,0,8,2E,2E,1A,75,00,9C,00,00,
-1693295648840242,000003BD,false,Rx,0,8,14,04,0D,00,00,00,00,00,
-1693295648830216,000003BE,false,Rx,0,8,00,00,00,80,00,00,00,00,
-1693295648770103,000003B8,false,Rx,0,8,64,02,02,00,02,00,1D,1E,
-1693295648760503,000003BA,false,Rx,0,8,2E,2E,3C,33,3D,3D,00,00,
-1693295648750307,000003BC,false,Rx,0,8,2E,2E,1A,75,00,9C,00,00,
-1693295648740153,000003BD,false,Rx,0,8,14,04,0D,00,00,00,00,00,
-1693295648730340,000003BE,false,Rx,0,8,00,00,00,80,00,00,00,00,
-1693295648670525,000003B8,false,Rx,0,8,64,02,02,00,02,00,1D,1E,
-1693295648660328,000003BA,false,Rx,0,8,2E,2E,3C,33,3D,3D,00,00,
-1693295648650558,000003BC,false,Rx,0,8,2E,2E,1A,75,00,9C,00,00,
-1693295648640532,000003BD,false,Rx,0,8,14,04,0D,00,00,00,00,00,
-1693295648630080,000003BE,false,Rx,0,8,00,00,00,80,00,00,00,00,
-1693295648570521,000003B8,false,Rx,0,8,64,02,02,00,02,00,1D,1E,
-1693295648560495,000003BA,false,Rx,0,8,2E,2E,3C,33,3D,3D,00,00,
-1693295648550554,000003BC,false,Rx,0,8,2E,2E,1A,75,00,9C,00,00,
-1693295648540613,000003BD,false,Rx,0,8,14,04,0D,00,00,00,00,00,
-1693295648530459,000003BE,false,Rx,0,8,00,00,00,80,00,00,00,00,
-1693295648470346,000003B8,false,Rx,0,8,64,02,02,00,02,00,1D,1E,
-1693295648460704,000003BA,false,Rx,0,8,2E,2E,3C,33,3D,3D,00,00,
-1693295648450763,000003BC,false,Rx,0,8,2E,2E,1A,75,00,9C,00,00,
-1693295648440523,000003BD,false,Rx,0,8,14,04,0D,00,00,00,00,00,
-1693295648430583,000003BE,false,Rx,0,8,00,00,00,80,00,00,00,00,
-1693295648370256,000003B8,false,Rx,0,8,64,02,02,00,02,00,1D,1E,
-1693295648360784,000003BA,false,Rx,0,8,2E,2E,3C,33,3D,3D,00,00,
-1693295648350673,000003BC,false,Rx,0,8,2E,2E,1A,75,00,9C,00,00,
-1693295648340732,000003BD,false,Rx,0,8,14,04,0D,00,00,00,00,00,
-1693295648330749,000003BE,false,Rx,0,8,00,00,00,80,00,00,00,00,
-1693295648270934,000003B8,false,Rx,0,8,64,02,02,00,02,00,1D,1E,
-1693295648260951,000003BA,false,Rx,0,8,2E,2E,3C,33,3D,3D,00,00,
-1693295648250754,000003BC,false,Rx,0,8,2E,2E,1A,75,00,BA,00,00,
-1693295648240813,000003BD,false,Rx,0,8,14,04,0D,00,00,00,00,00,
-1693295648230873,000003BE,false,Rx,0,8,00,00,00,80,00,00,00,00,
-1693295648170802,000003B8,false,Rx,0,8,64,02,02,00,02,00,1D,1E,
-1693295648161160,000003BA,false,Rx,0,8,2E,2E,3C,33,3D,3D,00,00,
-1693295648150664,000003BC,false,Rx,0,8,2E,2E,1A,75,00,BA,00,00,
-1693295648141193,000003BD,false,Rx,0,8,14,04,0D,00,00,00,00,00,
-1693295648130996,000003BE,false,Rx,0,8,00,00,00,80,00,00,00,00,
-1693295648071181,000003B8,false,Rx,0,8,64,02,02,00,02,00,1D,1E,
-1693295648061198,000003BA,false,Rx,0,8,2E,2E,3C,33,3D,3D,00,00,
-1693295648051342,000003BC,false,Rx,0,8,2E,2E,1A,75,00,BA,00,00,
-1693295648040676,000003BD,false,Rx,0,8,14,04,0D,00,00,00,00,00,
-1693295648031162,000003BE,false,Rx,0,8,00,00,00,80,00,00,00,00,
-1693295647971091,000003B8,false,Rx,0,8,64,02,08,00,02,00,1D,1E,
-1693295647961364,000003BA,false,Rx,0,8,2E,2E,3C,33,3D,3D,00,00,
-1693295647951466,000003BC,false,Rx,0,8,2E,2E,1A,75,03,1A,00,00,
-1693295647941440,000003BD,false,Rx,0,8,14,04,0D,00,00,00,00,00,
-1693295647931286,000003BE,false,Rx,0,8,00,00,00,80,00,00,00,00,
-1693295647871270,000003B8,false,Rx,0,8,64,02,08,00,02,00,1D,1E,
-1693295647861244,000003BA,false,Rx,0,8,2E,2E,3C,33,3D,3D,00,00,
-1693295647851261,000003BC,false,Rx,0,8,2E,2E,1A,75,03,1A,00,00,
-1693295647841278,000003BD,false,Rx,0,8,14,04,0D,00,00,00,00,00,
-1693295647831380,000003BE,false,Rx,0,8,00,00,00,80,00,00,00,00,
-1693295647771266,000003B8,false,Rx,0,8,64,02,08,00,02,00,1D,1E,
-1693295647761496,000003BA,false,Rx,0,8,2E,2E,3C,33,3D,3D,00,00,
-1693295647751129,000003BC,false,Rx,0,8,2E,2E,1A,75,06,C7,00,00,
-1693295647741230,000003BD,false,Rx,0,8,14,04,0D,00,00,00,00,00,
-1693295647731204,000003BE,false,Rx,0,8,00,00,00,80,00,00,00,00,
-1693295647670878,000003B8,false,Rx,0,8,64,02,11,00,02,00,1D,1E,
-1693295647661406,000003BA,false,Rx,0,8,2E,2E,3C,33,3D,3D,00,00,
-1693295647651508,000003BC,false,Rx,0,8,2E,2E,1A,75,06,C7,00,00,
-1693295647641482,000003BD,false,Rx,0,8,14,04,0D,00,00,00,00,00,
-1693295647631371,000003BE,false,Rx,0,8,00,00,00,80,00,00,00,00,
-1693295647571428,000003B8,false,Rx,0,8,64,02,11,00,02,00,1D,1E,
-1693295647561700,000003BA,false,Rx,0,8,2E,2E,3C,33,3D,3D,00,00,
-1693295647551461,000003BC,false,Rx,0,8,2E,2E,1A,75,06,C7,00,00,
-1693295647541734,000003BD,false,Rx,0,8,14,04,0D,00,00,00,00,00,
-1693295647531580,000003BE,false,Rx,0,8,00,00,00,80,00,00,00,00,
-1693295647471765,000003B8,false,Rx,0,8,64,02,11,00,02,00,1D,1E,
-1693295647461909,000003BA,false,Rx,0,8,2E,2E,3C,33,3D,3D,00,00,
-1693295647451883,000003BC,false,Rx,0,8,2E,2E,1A,71,0A,38,00,00,
-1693295647441815,000003BD,false,Rx,0,8,14,04,0D,00,00,00,00,00,
-1693295647431874,000003BE,false,Rx,0,8,00,00,00,80,00,00,00,00,
-1693295647371760,000003B8,false,Rx,0,8,64,02,1A,00,02,00,1D,1E,
-1693295647361905,000003BA,false,Rx,0,8,2E,2E,3C,33,3D,3D,00,00,
-1693295647351964,000003BC,false,Rx,0,8,2E,2E,1A,71,0A,38,00,00,
-1693295647342023,000003BD,false,Rx,0,8,14,04,0D,00,00,00,00,00,
-1693295647332040,000003BE,false,Rx,0,8,00,00,00,80,00,00,00,00,
-1693295647271969,000003B8,false,Rx,0,8,64,02,1A,00,02,00,1D,1E,
-1693295647262028,000003BA,false,Rx,0,8,2E,2E,3C,33,3D,3D,00,00,
-1693295647252088,000003BC,false,Rx,0,8,2E,2E,1A,71,0A,38,00,00,
-1693295647242190,000003BD,false,Rx,0,8,14,04,0D,00,00,00,00,00,
-1693295647231780,000003BE,false,Rx,0,8,00,00,00,80,00,00,00,00,
-1693295647171965,000003B8,false,Rx,0,8,64,02,23,00,02,00,1D,1E,
-1693295647162109,000003BA,false,Rx,0,8,2E,2E,3C,33,3D,3D,00,00,
-1693295647152211,000003BC,false,Rx,0,8,2E,2E,1A,68,0D,C7,00,00,
-1693295647142228,000003BD,false,Rx,0,8,14,04,0D,00,00,00,00,00,
-1693295647132117,000003BE,false,Rx,0,8,00,00,00,80,00,00,00,00,
-1693295647072088,000003B8,false,Rx,0,8,64,02,23,00,02,00,1D,1E,
-1693295647062148,000003BA,false,Rx,0,8,2E,2E,3C,33,3D,3D,00,00,
-1693295647052036,000003BC,false,Rx,0,8,2E,2E,1A,68,0D,C7,00,00,
-1693295647041754,000003BD,false,Rx,0,8,14,04,0D,00,00,00,00,00,
-1693295647032155,000003BE,false,Rx,0,8,00,00,00,80,00,00,00,00,
-1693295646971999,000003B8,false,Rx,0,8,64,02,23,00,02,00,1D,1E,
-1693295646962101,000003BA,false,Rx,0,8,2E,2E,3C,33,3D,3D,00,00,
-1693295646952117,000003BC,false,Rx,0,8,2E,2E,1A,68,0D,C7,00,00,
-1693295646942048,000003BD,false,Rx,0,8,14,04,0D,00,00,00,00,00,
-1693295646931894,000003BE,false,Rx,0,8,00,00,00,80,00,00,00,00,
-1693295646871976,000003B8,false,Rx,0,8,64,02,2C,00,02,00,1D,1E,
-1693295646862078,000003BA,false,Rx,0,8,2E,2E,3C,33,3D,3D,00,00,
-1693295646852222,000003BC,false,Rx,0,8,2E,2E,1A,5E,11,57,00,00,
-1693295646842196,000003BD,false,Rx,0,8,14,04,0D,00,00,00,00,00,
-1693295646832042,000003BE,false,Rx,0,8,00,00,00,80,00,00,00,00,
-1693295646772227,000003B8,false,Rx,0,8,64,02,2C,00,02,00,1D,1E,
-1693295646761860,000003BA,false,Rx,0,8,2E,2E,3C,33,3D,3D,00,00,
-1693295646752261,000003BC,false,Rx,0,8,2E,2E,1A,5E,11,57,00,00,
-1693295646742363,000003BD,false,Rx,0,8,14,04,0D,00,00,00,00,00,
-1693295646732251,000003BE,false,Rx,0,8,00,00,00,80,00,00,00,00,
-1693295646672351,000003B8,false,Rx,0,8,64,02,2C,00,02,00,1D,1E,
-1693295646662325,000003BA,false,Rx,0,8,2E,2E,3C,33,3D,3D,00,00,
-1693295646652470,000003BC,false,Rx,0,8,2E,2E,1A,5E,11,57,00,00,
-1693295646642486,000003BD,false,Rx,0,8,14,04,0D,00,00,00,00,00,
-1693295646632332,000003BE,false,Rx,0,8,00,00,00,80,00,00,00,00,
-1693295646572347,000003B8,false,Rx,0,8,64,02,33,00,02,00,1D,1E,
-1693295646562534,000003BA,false,Rx,0,8,2E,2E,3C,33,3D,3D,00,00,
-1693295646552465,000003BC,false,Rx,0,8,2E,2E,1A,A0,13,F3,00,00,
-1693295646542482,000003BD,false,Rx,0,8,14,04,0D,00,00,00,00,00,
-1693295646532541,000003BE,false,Rx,0,8,00,00,00,80,00,00,00,00,
-1693295646472598,000003B8,false,Rx,0,8,64,02,33,00,02,00,1D,1E,
-1693295646462572,000003BA,false,Rx,0,8,2E,2E,3C,33,3D,3D,00,00,
-1693295646452631,000003BC,false,Rx,0,8,2E,2E,1A,A0,13,F3,00,00,
-1693295646442221,000003BD,false,Rx,0,8,14,04,0D,00,00,00,00,00,
-1693295646432622,000003BE,false,Rx,0,8,00,00,00,80,00,00,00,00,
-1693295646372807,000003B8,false,Rx,0,8,64,02,33,00,02,00,1D,1E,
-1693295646362824,000003BA,false,Rx,0,8,2E,2E,3C,33,3D,3D,00,00,
-1693295646352840,000003BC,false,Rx,0,8,2E,2E,1C,16,16,AD,00,00,
-1693295646342772,000003BD,false,Rx,0,8,14,04,0D,00,00,00,00,00,
-1693295646332319,000003BE,false,Rx,0,8,00,00,00,80,00,00,00,00,
-1693295646272803,000003B8,false,Rx,0,8,64,02,3A,00,02,00,1D,1E,
-1693295646262862,000003BA,false,Rx,0,8,2E,2E,3C,33,3D,3D,00,00,
-1693295646252793,000003BC,false,Rx,0,8,2E,2E,1C,16,16,AD,00,00,
-1693295646242767,000003BD,false,Rx,0,8,14,04,0D,00,00,00,00,00,
-1693295646232912,000003BE,false,Rx,0,8,00,00,00,80,00,00,00,00,
-1693295646172585,000003B8,false,Rx,0,8,64,02,3A,00,02,00,1D,1E,
-1693295646162815,000003BA,false,Rx,0,8,2E,2E,3C,33,3D,3D,00,00,
-1693295646152917,000003BC,false,Rx,0,8,2E,2E,1C,16,16,AD,00,00,
-1693295646142891,000003BD,false,Rx,0,8,14,04,0D,00,00,00,00,00,
-1693295646132822,000003BE,false,Rx,0,8,00,00,00,80,00,00,00,00,
-1693295646072794,000003B8,false,Rx,0,8,64,02,45,00,02,00,1D,1E,
-1693295646062597,000003BA,false,Rx,0,8,2E,2E,3C,33,3D,3D,00,00,
-1693295646052955,000003BC,false,Rx,0,8,2E,2E,23,3F,1A,D4,00,00,
-1693295646042972,000003BD,false,Rx,0,8,14,04,0D,00,00,00,00,00,
-1693295646032903,000003BE,false,Rx,0,8,00,00,00,80,00,00,00,00,
-1693295645973088,000003B8,false,Rx,0,8,64,02,45,00,02,00,1D,1E,
-1693295645963062,000003BA,false,Rx,0,8,2E,2E,3C,33,3D,3D,00,00,
-1693295645952652,000003BC,false,Rx,0,8,2E,2E,23,3F,1A,D4,00,00,
-1693295645943053,000003BD,false,Rx,0,8,14,04,0D,00,00,00,00,00,
-1693295645933155,000003BE,false,Rx,0,8,00,00,00,80,00,00,00,00,
-1693295645873054,000003B8,false,Rx,0,8,64,02,45,00,02,00,1D,1E,
-1693295645863241,000003BA,false,Rx,0,8,2E,2E,3C,33,3D,3D,00,00,
-1693295645853215,000003BC,false,Rx,0,8,2E,2E,23,3F,1A,D4,00,00,
-1693295645843274,000003BD,false,Rx,0,8,14,04,0D,00,00,00,00,00,
-1693295645833163,000003BE,false,Rx,0,8,00,00,00,80,00,00,00,00,
-1693295645773263,000003B8,false,Rx,0,8,64,02,4F,00,02,00,1D,AE,
-1693295645763407,000003BA,false,Rx,0,8,2E,2E,3C,33,3D,3D,00,00,
-1693295645753381,000003BC,false,Rx,0,8,2E,2E,28,E0,1E,DD,00,00,
-1693295645743056,000003BD,false,Rx,0,8,14,04,0D,00,00,00,00,00,
-1693295645733372,000003BE,false,Rx,0,8,00,00,00,80,00,00,00,00,
-1693295645673386,000003B8,false,Rx,0,8,64,02,4F,00,02,00,1D,AE,
-1693295645663531,000003BA,false,Rx,0,8,2E,2E,3C,33,3D,3D,00,00,
-1693295645653505,000003BC,false,Rx,0,8,2E,2E,28,E0,1E,DD,00,00,
-1693295645643393,000003BD,false,Rx,0,8,14,04,0D,00,00,00,00,00,
-1693295645633495,000003BE,false,Rx,0,8,00,00,00,80,00,00,00,00,
-1693295645573510,000003B8,false,Rx,0,8,64,02,4F,00,02,00,20,AE,
-1693295645563569,000003BA,false,Rx,0,8,2E,2E,3C,33,3D,3D,00,00,
-1693295645553671,000003BC,false,Rx,0,8,2E,2E,38,12,09,82,00,00,
-1693295645543688,000003BD,false,Rx,0,8,14,04,0D,00,00,00,00,00,
-1693295645533661,000003BE,false,Rx,0,8,00,00,00,80,00,00,00,00,
-1693295645473591,000003B8,false,Rx,0,8,64,0B,18,00,02,00,20,AE,
-1693295645463693,000003BA,false,Rx,0,8,2E,2E,3C,33,3D,3D,00,00,
-1693295645453794,000003BC,false,Rx,0,8,2E,2E,38,12,09,82,00,00,
-1693295645443811,000003BD,false,Rx,0,8,14,04,0D,00,00,00,00,00,
-1693295645433273,000003BE,false,Rx,0,8,00,00,00,80,00,00,00,00,
-1693295645373757,000003B8,false,Rx,0,8,64,0B,18,00,02,00,20,1E,
-1693295645363816,000003BA,false,Rx,0,8,2E,2E,3C,33,3D,3D,00,00,
-1693295645353747,000003BC,false,Rx,0,8,2E,2E,38,12,09,82,00,00,
-1693295645343807,000003BD,false,Rx,0,8,14,04,0D,00,00,00,00,00,
-1693295645333695,000003BE,false,Rx,0,8,00,00,00,80,00,00,00,00,
-1693295645273752,000003B8,false,Rx,0,8,64,0B,57,00,02,00,2A,1E,
-1693295645263940,000003BA,false,Rx,0,8,2E,2E,3C,33,3D,3D,00,00,
-1693295645253956,000003BC,false,Rx,0,8,2E,2E,3E,93,21,D4,00,00,
-1693295645243632,000003BD,false,Rx,0,8,14,04,0D,00,00,00,00,00,
-1693295645233904,000003BE,false,Rx,0,8,00,00,00,80,00,00,00,00,
-1693295645174004,000003B8,false,Rx,0,8,64,0B,57,00,02,00,2A,1E,
-1693295645163594,000003BA,false,Rx,0,8,2E,2E,3C,33,3D,3D,00,00,
-1693295645153995,000003BC,false,Rx,0,8,2E,2E,3E,93,21,D4,00,00,
-1693295645144139,000003BD,false,Rx,0,8,14,04,0D,00,00,00,00,00,
-1693295645134070,000003BE,false,Rx,0,8,00,00,00,80,00,00,00,00,
-1693295645074000,000003B8,false,Rx,0,8,64,0B,57,00,02,00,2A,1E,
-1693295645064059,000003BA,false,Rx,0,8,2E,2E,3C,33,3D,3D,00,00,
-1693295645053649,000003BC,false,Rx,0,8,2E,2E,3E,93,21,D4,00,00,
-1693295645044049,000003BD,false,Rx,0,8,14,04,0D,00,00,00,00,00,
-1693295645034023,000003BE,false,Rx,0,8,00,00,00,80,00,00,00,00,
-1693295644974123,000003B8,false,Rx,0,8,64,06,66,00,02,00,2A,1E,
-1693295644964140,000003BA,false,Rx,0,8,2E,2E,3C,33,3D,3D,00,00,
-1693295644954284,000003BC,false,Rx,0,8,2E,2E,3E,7E,27,E1,00,00,
-1693295644944301,000003BD,false,Rx,0,8,14,04,0D,00,00,00,00,00,
-1693295644934275,000003BE,false,Rx,0,8,00,00,00,80,00,00,00,00,
-1693295644874217,000003B8,false,Rx,0,8,64,06,66,00,02,00,2A,1E,
-1693295644864233,000003BA,false,Rx,0,8,2E,2E,3C,33,3D,3D,00,00,
-1693295644854378,000003BC,false,Rx,0,8,2E,2E,3E,7E,27,E1,00,00,
-1693295644844437,000003BD,false,Rx,0,8,14,04,0D,00,00,00,00,00,
-1693295644834369,000003BE,false,Rx,0,8,00,00,00,80,00,00,00,00,
-1693295644774426,000003B8,false,Rx,0,8,64,06,66,00,02,00,2B,1E,
-1693295644764442,000003BA,false,Rx,0,8,2E,2E,3C,33,3D,3D,00,00,
-1693295644754374,000003BC,false,Rx,0,8,2E,2E,3E,7E,27,E1,00,00,
-1693295644744390,000003BD,false,Rx,0,8,14,04,0D,00,00,00,00,00,
-1693295644734236,000003BE,false,Rx,0,8,00,00,00,80,00,00,00,00,
-1693295644673995,000003B8,false,Rx,0,8,64,04,6C,00,02,00,2B,1E,
-1693295644664480,000003BA,false,Rx,0,8,2E,2E,3C,33,3D,3D,00,00,
-1693295644654412,000003BC,false,Rx,0,8,2E,2E,3E,5F,2A,40,00,00,
-1693295644644556,000003BD,false,Rx,0,8,14,04,0D,00,00,00,00,00,
-1693295644634488,000003BE,false,Rx,0,8,00,00,00,80,00,00,00,00,
-1693295644574417,000003B8,false,Rx,0,8,64,04,6C,00,02,00,2B,1E,
-1693295644564092,000003BA,false,Rx,0,8,2E,2E,3C,33,3D,3D,00,00,
-1693295644554621,000003BC,false,Rx,0,8,2E,2E,3E,5F,2A,40,00,00,
-1693295644544595,000003BD,false,Rx,0,8,14,04,0D,00,00,00,00,00,
-1693295644534569,000003BE,false,Rx,0,8,00,00,00,80,00,00,00,00,
-1693295644474626,000003B8,false,Rx,0,8,64,04,6C,00,02,00,2F,1E,
-1693295644464770,000003BA,false,Rx,0,8,2E,2E,3C,33,3D,3D,00,00,
-1693295644454787,000003BC,false,Rx,0,8,2E,2E,3E,42,2C,45,00,00,
-1693295644444676,000003BD,false,Rx,0,8,14,04,0D,00,00,00,00,00,
-1693295644434777,000003BE,false,Rx,0,8,00,00,00,80,00,00,00,00,
-1693295644374707,000003B8,false,Rx,0,8,64,03,71,00,02,00,2F,1E,
-1693295644364809,000003BA,false,Rx,0,8,2E,2E,3C,33,3D,3D,00,00,
-1693295644354612,000003BC,false,Rx,0,8,2E,2E,3E,42,2C,45,00,00,
-1693295644344884,000003BD,false,Rx,0,8,14,04,0D,00,00,00,00,00,
-1693295644334901,000003BE,false,Rx,0,8,00,00,00,80,00,00,00,00,
-1693295644274915,000003B8,false,Rx,0,8,64,03,71,00,02,00,2F,1E,
-1693295644264975,000003BA,false,Rx,0,8,2E,2E,3C,33,3D,3D,00,00,
-1693295644254949,000003BC,false,Rx,0,8,2E,2E,3E,42,2C,45,00,00,
-1693295644244539,000003BD,false,Rx,0,8,14,04,0D,00,00,00,00,00,
-1693295644234897,000003BE,false,Rx,0,8,00,00,00,80,00,00,00,00,
-1693295644174954,000003B8,false,Rx,0,8,64,02,68,00,02,00,2F,AE,
-1693295644165013,000003BA,false,Rx,0,8,2E,2E,3C,33,3D,3D,00,00,
-1693295644155072,000003BC,false,Rx,0,8,2E,2E,3E,C3,28,79,00,00,
-1693295644145004,000003BD,false,Rx,0,8,14,04,0D,00,00,00,00,00,
-1693295644134551,000003BE,false,Rx,0,8,00,00,00,80,00,00,00,00,
-1693295644074864,000003B8,false,Rx,0,8,64,02,68,00,02,00,2F,AE,
-1693295644065009,000003BA,false,Rx,0,8,2E,2E,3C,33,3D,3D,00,00,
-1693295644054940,000003BC,false,Rx,0,8,2E,2E,3E,C3,28,79,00,00,
-1693295644045085,000003BD,false,Rx,0,8,14,04,0D,00,00,00,00,00,
-1693295644034845,000003BE,false,Rx,0,8,00,00,00,80,00,00,00,00,
-1693295643974902,000003B8,false,Rx,0,8,64,02,68,00,02,00,37,AE,
-1693295643965047,000003BA,false,Rx,0,8,2E,2E,3C,33,3D,3D,00,00,
-1693295643954978,000003BC,false,Rx,0,8,2E,2E,3E,C3,28,79,00,00,
-1693295643944952,000003BD,false,Rx,0,8,14,04,0D,00,00,00,00,00,
-1693295643935054,000003BE,false,Rx,0,8,00,00,00,80,00,00,00,00,
-1693295643874527,000003B8,false,Rx,0,8,64,0E,39,00,02,00,37,AE,
-1693295643865098,000003BA,false,Rx,0,8,2E,2E,3C,33,3D,3D,00,00,
-1693295643855072,000003BC,false,Rx,0,8,2E,2E,51,F7,16,33,00,00,
-1693295643845174,000003BD,false,Rx,0,8,14,04,0D,00,00,00,00,00,
-1693295643835148,000003BE,false,Rx,0,8,00,00,00,80,00,00,00,00,
-1693295643774949,000003B8,false,Rx,0,8,64,0E,39,00,02,00,37,AE,
-1693295643765179,000003BA,false,Rx,0,8,2E,2E,3C,33,3D,3D,00,00,
-1693295643755153,000003BC,false,Rx,0,8,2E,2E,51,F7,16,33,00,00,
-1693295643745255,000003BD,false,Rx,0,8,14,04,0D,00,00,00,00,00,
-1693295643735186,000003BE,false,Rx,0,8,00,00,00,80,00,00,00,00,
-1693295643675286,000003B8,false,Rx,0,8,64,0E,39,00,02,00,3E,AE,
-1693295643665302,000003BA,false,Rx,0,8,2E,2E,3C,33,3D,3D,00,00,
-1693295643655276,000003BC,false,Rx,0,8,2E,2E,51,F7,16,33,00,00,
-1693295643645378,000003BD,false,Rx,0,8,14,04,0D,00,00,00,00,00,
-1693295643635352,000003BE,false,Rx,0,8,00,00,00,80,00,00,00,00,
-1693295643575367,000003B8,false,Rx,0,8,64,0A,6B,00,02,00,3E,AE,
-1693295643565213,000003BA,false,Rx,0,8,2E,2E,3C,33,3D,3D,00,00,
-1693295643555570,000003BC,false,Rx,0,8,2E,2E,54,75,29,E5,00,00,
-1693295643545459,000003BD,false,Rx,0,8,14,04,0D,00,00,00,00,00,
-1693295643535348,000003BE,false,Rx,0,8,00,00,00,80,00,00,00,00,
-1693295643475447,000003B8,false,Rx,0,8,64,0A,6B,00,02,00,3E,AE,
-1693295643465464,000003BA,false,Rx,0,8,2E,2E,3C,33,3D,3D,00,00,
-1693295643455609,000003BC,false,Rx,0,8,2E,2E,54,75,29,E5,00,00,
-1693295643445455,000003BD,false,Rx,0,8,14,04,0D,00,00,00,00,00,
-1693295643435471,000003BE,false,Rx,0,8,00,00,00,80,00,00,00,00,
-1693295643375656,000003B8,false,Rx,0,8,64,0A,6B,00,02,00,3E,AE,
-1693295643365630,000003BA,false,Rx,0,8,2E,2E,3C,33,3D,3D,00,00,
-1693295643355647,000003BC,false,Rx,0,8,2E,2E,54,93,2C,45,00,00,
-1693295643345664,000003BD,false,Rx,0,8,14,04,0D,00,00,00,00,00,
-1693295643335766,000003BE,false,Rx,0,8,00,00,00,80,00,00,00,00,
-1693295643275652,000003B8,false,Rx,0,8,64,07,71,00,02,00,3E,AE,
-1693295643265797,000003BA,false,Rx,0,8,2E,2E,3C,33,3D,3D,00,00,
-1693295643255301,000003BC,false,Rx,0,8,2E,2E,54,93,2C,45,00,00,
-1693295643245830,000003BD,false,Rx,0,8,14,04,0D,00,00,00,00,00,
-1693295643235761,000003BE,false,Rx,0,8,00,00,00,80,00,00,00,00,
-1693295643175946,000003B8,false,Rx,0,8,64,07,71,00,02,00,3E,AE,
-1693295643166005,000003BA,false,Rx,0,8,2E,2E,3C,33,3D,3D,00,00,
-1693295643155510,000003BC,false,Rx,0,8,2E,2E,54,93,2C,45,00,00,
-1693295643146039,000003BD,false,Rx,0,8,14,04,0D,00,00,00,00,00,
-1693295643135970,000003BE,false,Rx,0,8,00,00,00,80,00,00,00,00,
-1693295643075899,000003B8,false,Rx,0,8,64,03,73,00,02,00,3E,AE,
-1693295643065958,000003BA,false,Rx,0,8,2E,2E,3C,33,3D,3D,00,00,
-1693295643055975,000003BC,false,Rx,0,8,2E,2E,54,6B,2D,19,00,00,
-1693295643045949,000003BD,false,Rx,0,8,14,04,0D,00,00,00,00,00,
-1693295643036094,000003BE,false,Rx,0,8,00,00,00,80,00,00,00,00,
-1693295642975852,000003B8,false,Rx,0,8,64,03,73,00,02,00,3E,AE,
-1693295642965997,000003BA,false,Rx,0,8,2E,2E,3C,33,3D,3D,00,00,
-1693295642955928,000003BC,false,Rx,0,8,2E,2E,54,6B,2D,19,00,00,
-1693295642945689,000003BD,false,Rx,0,8,14,04,0D,00,00,00,00,00,
-1693295642936004,000003BE,false,Rx,0,8,00,00,00,80,00,00,00,00,
-1693295642876047,000003B8,false,Rx,0,8,64,03,73,00,02,00,42,AE,
-1693295642866064,000003BA,false,Rx,0,8,2E,2E,3C,33,3D,3D,00,00,
-1693295642856166,000003BC,false,Rx,0,8,2E,2E,54,6B,2D,19,00,00,
-1693295642846140,000003BD,false,Rx,0,8,14,04,0D,00,00,00,00,00,
-1693295642836114,000003BE,false,Rx,0,8,00,00,00,80,00,00,00,00,
-1693295642776043,000003B8,false,Rx,0,8,64,03,73,00,02,00,42,AE,
-1693295642766230,000003BA,false,Rx,0,8,2E,2E,3C,33,3D,3D,00,00,
-1693295642756119,000003BC,false,Rx,0,8,2E,2E,54,45,2C,DD,00,00,
-1693295642746306,000003BD,false,Rx,0,8,14,04,0D,00,00,00,00,00,
-1693295642735811,000003BE,false,Rx,0,8,00,00,00,80,00,00,00,00,
-1693295642676252,000003B8,false,Rx,0,8,64,03,73,00,02,00,42,AE,
-1693295642666439,000003BA,false,Rx,0,8,2E,2E,3C,33,3D,3D,00,00,
-1693295642656370,000003BC,false,Rx,0,8,2E,2E,54,45,2C,DD,00,00,
-1693295642646344,000003BD,false,Rx,0,8,14,04,0D,00,00,00,00,00,
-1693295642636233,000003BE,false,Rx,0,8,00,00,00,80,00,00,00,00,
-1693295642576375,000003B8,false,Rx,0,8,64,03,73,00,02,00,43,AE,
-1693295642566563,000003BA,false,Rx,0,8,2E,2E,3C,33,3D,3D,00,00,
-1693295642556494,000003BC,false,Rx,0,8,2E,2E,54,45,2C,DD,00,00,
-1693295642546468,000003BD,false,Rx,0,8,14,04,0D,00,00,00,00,00,
-1693295642536570,000003BE,false,Rx,0,8,00,00,00,80,00,00,00,00,
-1693295642476030,000003B8,false,Rx,0,8,64,02,73,00,02,00,43,AE,
-1693295642466601,000003BA,false,Rx,0,8,2E,2E,3C,33,3D,3D,00,00,
-1693295642456703,000003BC,false,Rx,0,8,2E,2E,54,13,2C,DD,00,00,
-1693295642446421,000003BD,false,Rx,0,8,14,04,0D,00,00,00,00,00,
-1693295642436395,000003BE,false,Rx,0,8,00,00,00,80,00,00,00,00,
-1693295642376366,000003B8,false,Rx,0,8,64,02,73,00,02,00,43,AE,
-1693295642366554,000003BA,false,Rx,0,8,2E,2E,3C,33,3D,3D,00,00,
-1693295642356613,000003BC,false,Rx,0,8,2E,2E,54,13,2C,DD,00,00,
-1693295642346544,000003BD,false,Rx,0,8,14,04,0D,00,00,00,00,00,
-1693295642336561,000003BE,false,Rx,0,8,00,00,00,80,00,00,00,00,
-1693295642276575,000003B8,false,Rx,0,8,64,02,73,00,02,00,43,AE,
-1693295642266635,000003BA,false,Rx,0,8,2E,2E,3C,33,3D,3D,00,00,
-1693295642256779,000003BC,false,Rx,0,8,2E,2E,53,F8,2C,FB,00,00,
-1693295642246753,000003BD,false,Rx,0,8,14,04,0D,00,00,00,00,00,
-1693295642236642,000003BE,false,Rx,0,8,00,00,00,80,00,00,00,00,
-1693295642176742,000003B8,false,Rx,0,8,64,02,73,00,02,00,43,AE,
-1693295642166929,000003BA,false,Rx,0,8,2E,2E,3C,33,3D,3D,00,00,
-1693295642156903,000003BC,false,Rx,0,8,2E,2E,53,F8,2C,FB,00,00,
-1693295642146792,000003BD,false,Rx,0,8,14,04,0D,00,00,00,00,00,
-1693295642136893,000003BE,false,Rx,0,8,00,00,00,80,00,00,00,00,
-1693295642076865,000003B8,false,Rx,0,8,64,02,73,00,02,00,43,AE,
-1693295642066669,000003BA,false,Rx,0,8,2E,2E,3C,33,3D,3D,00,00,
-1693295642056984,000003BC,false,Rx,0,8,2E,2E,53,F8,2C,FB,00,00,
-1693295642046958,000003BD,false,Rx,0,8,14,04,0D,00,00,00,00,00,
-1693295642037060,000003BE,false,Rx,0,8,00,00,00,80,00,00,00,00,
-1693295641977031,000003B8,false,Rx,0,8,64,02,73,00,02,00,43,AE,
-1693295641967133,000003BA,false,Rx,0,8,2E,2E,3C,33,3D,3D,00,00,
-1693295641957107,000003BC,false,Rx,0,8,2E,2E,53,DF,2C,FB,00,00,
-1693295641947081,000003BD,false,Rx,0,8,14,04,0D,00,00,00,00,00,
-1693295641937141,000003BE,false,Rx,0,8,00,00,00,80,00,00,00,00,
-1693295641876852,000003B8,false,Rx,0,8,64,02,73,00,02,00,43,AE,
-1693295641866997,000003BA,false,Rx,0,8,2E,2E,3C,33,3D,3D,00,00,
-1693295641856758,000003BC,false,Rx,0,8,2E,2E,53,DF,2C,FB,00,00,
-1693295641847116,000003BD,false,Rx,0,8,14,04,0D,00,00,00,00,00,
-1693295641837047,000003BE,false,Rx,0,8,00,00,00,80,00,00,00,00,
-1693295641777019,000003B8,false,Rx,0,8,64,02,73,00,02,00,43,AE,
-1693295641767121,000003BA,false,Rx,0,8,2E,2E,3C,33,3D,3D,00,00,
-1693295641757265,000003BC,false,Rx,0,8,2E,2E,53,DF,2C,FB,00,00,
-1693295641747282,000003BD,false,Rx,0,8,14,04,0D,00,00,00,00,00,
-1693295641737170,000003BE,false,Rx,0,8,00,00,00,80,00,00,00,00,
-1693295641677185,000003B8,false,Rx,0,8,64,02,73,00,02,00,43,AE,
-1693295641667329,000003BA,false,Rx,0,8,2E,2E,3C,33,3D,3D,00,00,
-1693295641657303,000003BC,false,Rx,0,8,2E,2E,53,CA,2C,BE,00,00,
-1693295641647107,000003BD,false,Rx,0,8,14,04,0D,00,00,00,00,00,
-1693295641637422,000003BE,false,Rx,0,8,00,00,00,80,00,00,00,00,
-1693295641577436,000003B8,false,Rx,0,8,64,02,73,00,02,00,43,AE,
-1693295641567410,000003BA,false,Rx,0,8,2E,2E,3C,33,3D,3D,00,00,
-1693295641557427,000003BC,false,Rx,0,8,2E,2E,53,CA,2C,BE,00,00,
-1693295641547529,000003BD,false,Rx,0,8,14,04,0D,00,00,00,00,00,
-1693295641537460,000003BE,false,Rx,0,8,00,00,00,80,00,00,00,00,
-1693295641477432,000003B8,false,Rx,0,8,64,02,73,00,02,00,43,AE,
-1693295641467406,000003BA,false,Rx,0,8,2E,2E,3C,33,3D,3D,00,00,
-1693295641457551,000003BC,false,Rx,0,8,2E,2E,53,CA,2C,BE,00,00,
-1693295641447482,000003BD,false,Rx,0,8,14,04,0D,00,00,00,00,00,
-1693295641437584,000003BE,false,Rx,0,8,00,00,00,80,00,00,00,00,
-1693295641377556,000003B8,false,Rx,0,8,64,02,6D,00,02,00,43,AE,
-1693295641367658,000003BA,false,Rx,0,8,2E,2E,3C,33,3D,3D,00,00,
-1693295641357589,000003BC,false,Rx,0,8,2E,2E,53,AF,2A,BA,00,00,
-1693295641347648,000003BD,false,Rx,0,8,14,04,0D,00,00,00,00,00,
-1693295641337494,000003BE,false,Rx,0,8,00,00,00,80,00,00,00,00,
-1693295641277636,000003B8,false,Rx,0,8,64,02,6D,00,02,00,43,AE,
-1693295641267781,000003BA,false,Rx,0,8,2E,2E,3C,33,3D,3D,00,00,
-1693295641257883,000003BC,false,Rx,0,8,2E,2E,53,AF,2A,BA,00,00,
-1693295641247772,000003BD,false,Rx,0,8,14,04,0D,00,00,00,00,00,
-1693295641237788,000003BE,false,Rx,0,8,00,00,00,80,00,00,00,00,
-1693295641177419,000003B8,false,Rx,0,8,64,02,6D,00,02,00,43,AE,
-1693295641167990,000003BA,false,Rx,0,8,2E,2E,3C,33,3D,3D,00,00,
-1693295641158007,000003BC,false,Rx,0,8,2E,2E,53,9B,26,93,00,00,
-1693295641147938,000003BD,false,Rx,0,8,14,04,0D,00,00,00,00,00,
-1693295641137912,000003BE,false,Rx,0,8,00,00,00,80,00,00,00,00,
-1693295641077713,000003B8,false,Rx,0,8,64,02,63,00,02,00,43,AE,
-1693295641068071,000003BA,false,Rx,0,8,2E,2E,3C,33,3D,3D,00,00,
-1693295641058130,000003BC,false,Rx,0,8,2E,2E,53,9B,26,93,00,00,
-1693295641047934,000003BD,false,Rx,0,8,14,04,0D,00,00,00,00,00,
-1693295641038078,000003BE,false,Rx,0,8,00,00,00,80,00,00,00,00,
-1693295640977965,000003B8,false,Rx,0,8,64,02,63,00,02,00,43,AE,
-1693295640967981,000003BA,false,Rx,0,8,2E,2E,3C,33,3D,3D,00,00,
-1693295640957955,000003BC,false,Rx,0,8,2E,2E,53,9B,26,93,00,00,
-1693295640948057,000003BD,false,Rx,0,8,14,04,0D,00,00,00,00,00,
-1693295640937988,000003BE,false,Rx,0,8,00,00,00,80,00,00,00,00,
-1693295640877930,000003B8,false,Rx,0,8,64,02,56,00,02,00,43,AE,
-1693295640867648,000003BA,false,Rx,0,8,2E,2E,3C,33,3D,3D,00,00,
-1693295640858177,000003BC,false,Rx,0,8,2E,2E,53,88,21,98,00,00,
-1693295640848108,000003BD,false,Rx,0,8,14,04,0D,00,00,00,00,00,
-1693295640838082,000003BE,false,Rx,0,8,00,00,00,80,00,00,00,00,
-1693295640778182,000003B8,false,Rx,0,8,64,02,56,00,02,00,43,AE,
-1693295640768028,000003BA,false,Rx,0,8,2E,2E,3C,33,3D,3D,00,00,
-1693295640758215,000003BC,false,Rx,0,8,2E,2E,53,88,21,98,00,00,
-1693295640748317,000003BD,false,Rx,0,8,14,04,0D,00,00,00,00,00,
-1693295640738291,000003BE,false,Rx,0,8,00,00,00,80,00,00,00,00,
-1693295640678220,000003B8,false,Rx,0,8,64,02,56,00,02,00,43,AE,
-1693295640668365,000003BA,false,Rx,0,8,2E,2E,3C,33,3D,3D,00,00,
-1693295640658381,000003BC,false,Rx,0,8,2E,2E,53,88,21,98,00,00,
-1693295640648312,000003BD,false,Rx,0,8,14,04,0D,00,00,00,00,00,
-1693295640638414,000003BE,false,Rx,0,8,00,00,00,80,00,00,00,00,
-1693295640578216,000003B8,false,Rx,0,8,64,02,4B,00,02,00,43,AE,
-1693295640568360,000003BA,false,Rx,0,8,2E,2E,3C,33,3D,3D,00,00,
-1693295640558121,000003BC,false,Rx,0,8,2E,2E,53,7A,1D,34,00,00,
-1693295640548308,000003BD,false,Rx,0,8,14,04,0D,00,00,00,00,00,
-1693295640538367,000003BE,false,Rx,0,8,00,00,00,80,00,00,00,00,
-1693295640478382,000003B8,false,Rx,0,8,64,02,4B,00,02,00,43,AE,
-1693295640468398,000003BA,false,Rx,0,8,2E,2E,3C,33,3D,3D,00,00,
-1693295640458500,000003BC,false,Rx,0,8,2E,2E,53,7A,1D,34,00,00,
-1693295640448432,000003BD,false,Rx,0,8,14,04,0D,00,00,00,00,00,
-1693295640438491,000003BE,false,Rx,0,8,00,00,00,80,00,00,00,00,
-1693295640378463,000003B8,false,Rx,0,8,64,02,4B,00,02,00,43,AE,
-1693295640368479,000003BA,false,Rx,0,8,2E,2E,3C,33,3D,3D,00,00,
-1693295640358539,000003BC,false,Rx,0,8,2E,2E,53,7A,1D,34,00,00,
-1693295640348129,000003BD,false,Rx,0,8,14,04,0D,00,00,00,00,00,
-1693295640338487,000003BE,false,Rx,0,8,00,00,00,80,00,00,00,00,
-1693295640278629,000003B8,false,Rx,0,8,64,02,45,00,02,00,43,AE,
-1693295640268603,000003BA,false,Rx,0,8,2E,2E,3C,33,3D,3D,00,00,
-1693295640258662,000003BC,false,Rx,0,8,2E,2E,53,64,1A,D4,00,00,
-1693295640248465,000003BD,false,Rx,0,8,14,04,0D,00,00,00,00,00,
-1693295640238653,000003BE,false,Rx,0,8,00,00,00,80,00,00,00,00,
-1693295640178710,000003B8,false,Rx,0,8,64,02,45,00,02,00,43,AE,
-1693295640168854,000003BA,false,Rx,0,8,2E,2E,3C,33,3D,3D,00,00,
-1693295640158914,000003BC,false,Rx,0,8,2E,2E,53,64,1A,D4,00,00,
-1693295640148760,000003BD,false,Rx,0,8,14,04,0D,00,00,00,00,00,
-1693295640138862,000003BE,false,Rx,0,8,00,00,00,80,00,00,00,00,
-1693295640078919,000003B8,false,Rx,0,8,64,02,45,00,02,00,43,AE,
-1693295640068935,000003BA,false,Rx,0,8,2E,2E,3C,33,3D,3D,00,00,
-1693295640058909,000003BC,false,Rx,0,8,2E,2E,53,46,17,A0,00,00,
-1693295640048841,000003BD,false,Rx,0,8,14,04,0D,00,00,00,00,00,
-1693295640038345,000003BE,false,Rx,0,8,00,00,00,80,00,00,00,00,
-1693295639978872,000003B8,false,Rx,0,8,64,02,3C,00,02,00,43,AE,
-1693295639969059,000003BA,false,Rx,0,8,2E,2E,3C,33,3D,3D,00,00,
-1693295639958948,000003BC,false,Rx,0,8,2E,2E,53,46,17,A0,00,00,
-1693295639948922,000003BD,false,Rx,0,8,14,04,0D,00,00,00,00,00,
-1693295639938810,000003BE,false,Rx,0,8,00,00,00,80,00,00,00,00,
-1693295639878965,000003B8,false,Rx,0,8,64,02,3C,00,02,00,43,AE,
-1693295639869110,000003BA,false,Rx,0,8,2E,2E,3C,33,3D,3D,00,00,
-1693295639859041,000003BC,false,Rx,0,8,2E,2E,53,46,17,A0,00,00,
-1693295639849015,000003BD,false,Rx,0,8,14,04,0D,00,00,00,00,00,
-1693295639839074,000003BE,false,Rx,0,8,00,00,00,80,00,00,00,00,
-1693295639778790,000003B8,false,Rx,0,8,64,02,33,00,02,00,43,AE,
-1693295639769233,000003BA,false,Rx,0,8,2E,2E,3C,33,3D,3D,00,00,
-1693295639759165,000003BC,false,Rx,0,8,2E,2E,53,39,13,D4,00,00,
-1693295639749139,000003BD,false,Rx,0,8,14,04,0D,00,00,00,00,00,
-1693295639739241,000003BE,false,Rx,0,8,00,00,00,80,00,00,00,00,
-1693295639678914,000003B8,false,Rx,0,8,64,02,33,00,02,00,43,AE,
-1693295639669314,000003BA,false,Rx,0,8,2E,2E,3C,33,3D,3D,00,00,
-1693295639659416,000003BC,false,Rx,0,8,2E,2E,53,39,13,D4,00,00,
-1693295639649433,000003BD,false,Rx,0,8,14,04,0D,00,00,00,00,00,
-1693295639639322,000003BE,false,Rx,0,8,00,00,00,80,00,00,00,00,
-1693295639579336,000003B8,false,Rx,0,8,64,02,33,00,02,00,43,AE,
-1693295639569353,000003BA,false,Rx,0,8,2E,2E,3C,33,3D,3D,00,00,
-1693295639559284,000003BC,false,Rx,0,8,2E,2E,53,39,13,D4,00,00,
-1693295639549429,000003BD,false,Rx,0,8,14,04,0D,00,00,00,00,00,
-1693295639539274,000003BE,false,Rx,0,8,00,00,00,80,00,00,00,00,
-1693295639479246,000003B8,false,Rx,0,8,64,02,2B,00,02,00,43,AE,
-1693295639469050,000003BA,false,Rx,0,8,2E,2E,3C,33,3D,3D,00,00,
-1693295639459407,000003BC,false,Rx,0,8,2E,2E,53,31,10,DD,00,00,
-1693295639449381,000003BD,false,Rx,0,8,14,04,0D,00,00,00,00,00,
-1693295639439441,000003BE,false,Rx,0,8,00,00,00,80,00,00,00,00,
-1693295639379370,000003B8,false,Rx,0,8,64,02,2B,00,02,00,43,AE,
-1693295639369301,000003BA,false,Rx,0,8,2E,2E,3C,33,3D,3D,00,00,
-1693295639359446,000003BC,false,Rx,0,8,2E,2E,53,31,10,DD,00,00,
-1693295639349377,000003BD,false,Rx,0,8,14,04,0D,00,00,00,00,00,
-1693295639339436,000003BE,false,Rx,0,8,00,00,00,80,00,00,00,00,
-1693295639279451,000003B8,false,Rx,0,8,64,02,2B,00,02,00,43,AE,
-1693295639269553,000003BA,false,Rx,0,8,2E,2E,3C,33,3D,3D,00,00,
-1693295639259100,000003BC,false,Rx,0,8,2E,2E,53,31,10,DD,00,00,
-1693295639249629,000003BD,false,Rx,0,8,14,04,0D,00,00,00,00,00,
-1693295639239603,000003BE,false,Rx,0,8,00,00,00,80,00,00,00,00,
-1693295639179532,000003B8,false,Rx,0,8,64,02,22,00,02,00,43,AE,
-1693295639169634,000003BA,false,Rx,0,8,2E,2E,3C,33,3D,3D,00,00,
-1693295639159437,000003BC,false,Rx,0,8,2E,2E,53,12,0D,6C,00,00,
-1693295639149027,000003BD,false,Rx,0,8,14,04,0D,00,00,00,00,00,
-1693295639139470,000003BE,false,Rx,0,8,00,00,00,80,00,00,00,00,
-1693295639079527,000003B8,false,Rx,0,8,64,02,22,00,02,00,43,AE,
-1693295639069544,000003BA,false,Rx,0,8,2E,2E,3C,33,3D,3D,00,00,
-1693295639059475,000003BC,false,Rx,0,8,2E,2E,53,12,0D,6C,00,00,
-1693295639049492,000003BD,false,Rx,0,8,14,04,0D,00,00,00,00,00,
-1693295639039508,000003BE,false,Rx,0,8,00,00,00,80,00,00,00,00,
-1693295638979608,000003B8,false,Rx,0,8,64,02,17,00,02,00,43,AE,
-1693295638969625,000003BA,false,Rx,0,8,2E,2E,3C,33,3D,3D,00,00,
-1693295638959684,000003BC,false,Rx,0,8,2E,2E,53,0A,09,27,00,00,
-1693295638949743,000003BD,false,Rx,0,8,14,04,0D,00,00,00,00,00,
-1693295638939632,000003BE,false,Rx,0,8,00,00,00,80,00,00,00,00,
-1693295638879757,000003B8,false,Rx,0,8,64,02,17,00,02,00,43,AE,
-1693295638869731,000003BA,false,Rx,0,8,2E,2E,3C,33,3D,3D,00,00,
-1693295638859791,000003BC,false,Rx,0,8,2E,2E,53,0A,09,27,00,00,
-1693295638849807,000003BD,false,Rx,0,8,14,04,0D,00,00,00,00,00,
-1693295638839781,000003BE,false,Rx,0,8,00,00,00,80,00,00,00,00,
-1693295638779796,000003B8,false,Rx,0,8,64,02,17,00,02,00,43,1E,
-1693295638769556,000003BA,false,Rx,0,8,2E,2E,3C,33,3D,3D,00,00,
-1693295638759872,000003BC,false,Rx,0,8,2E,2E,53,0A,09,27,00,00,
-1693295638749888,000003BD,false,Rx,0,8,14,04,0D,00,00,00,00,00,
-1693295638739947,000003BE,false,Rx,0,8,00,00,00,80,00,00,00,00,
-1693295638680005,000003B8,false,Rx,0,8,64,02,0D,00,02,00,43,1E,
-1693295638670064,000003BA,false,Rx,0,8,2E,2E,3C,33,3D,3D,00,00,
-1693295638659952,000003BC,false,Rx,0,8,2E,2E,52,F3,05,3D,00,00,
-1693295638650054,000003BD,false,Rx,0,8,14,04,0D,00,00,00,00,00,
-1693295638640114,000003BE,false,Rx,0,8,00,00,00,80,00,00,00,00,
-1693295638580171,000003B8,false,Rx,0,8,64,02,0D,00,02,00,43,1E,
-1693295638570273,000003BA,false,Rx,0,8,2E,2E,3C,33,3D,3D,00,00,
-1693295638560161,000003BC,false,Rx,0,8,2E,2E,52,F3,05,3D,00,00,
-1693295638550263,000003BD,false,Rx,0,8,14,04,0D,00,00,00,00,00,
-1693295638540152,000003BE,false,Rx,0,8,00,00,00,80,00,00,00,00,
-1693295638480252,000003B8,false,Rx,0,8,64,02,0D,00,02,00,43,1E,
-1693295638470354,000003BA,false,Rx,0,8,2E,2E,3C,33,3D,3D,00,00,
-1693295638460285,000003BC,false,Rx,0,8,2E,2E,52,F3,05,3D,00,00,
-1693295638450302,000003BD,false,Rx,0,8,14,04,0D,00,00,00,00,00,
-1693295638440318,000003BE,false,Rx,0,8,00,00,00,80,00,00,00,00,
-1693295638380162,000003B8,false,Rx,0,8,64,02,06,00,02,00,43,1E,
-1693295638370264,000003BA,false,Rx,0,8,2E,2E,3C,33,3D,3D,00,00,
-1693295638360195,000003BC,false,Rx,0,8,2E,2E,52,F2,02,27,00,00,
-1693295638350254,000003BD,false,Rx,0,8,14,04,0D,00,00,00,00,00,
-1693295638340228,000003BE,false,Rx,0,8,00,00,00,80,00,00,00,00,
-1693295638280413,000003B8,false,Rx,0,8,64,02,06,00,02,00,43,1E,
-1693295638270345,000003BA,false,Rx,0,8,2E,2E,3C,33,3D,3D,00,00,
-1693295638260532,000003BC,false,Rx,0,8,2E,2E,52,F2,02,27,00,00,
-1693295638250378,000003BD,false,Rx,0,8,14,04,0D,00,00,00,00,00,
-1693295638240480,000003BE,false,Rx,0,8,00,00,00,80,00,00,00,00,
-1693295638180537,000003B8,false,Rx,0,8,64,02,06,00,02,00,40,1E,
-1693295638170596,000003BA,false,Rx,0,8,2E,2E,3C,33,3D,3D,00,00,
-1693295638160656,000003BC,false,Rx,0,8,2E,2E,52,F2,02,27,00,00,
-1693295638150502,000003BD,false,Rx,0,8,14,04,0D,00,00,00,00,00,
-1693295638140433,000003BE,false,Rx,0,8,00,00,00,80,00,00,00,00,
-1693295638080405,000003B8,false,Rx,0,8,64,02,02,00,02,00,40,1E,
-1693295638070635,000003BA,false,Rx,0,8,2E,2E,3C,33,3D,3D,00,00,
-1693295638060651,000003BC,false,Rx,0,8,2E,2E,52,CA,00,D9,00,00,
-1693295638050668,000003BD,false,Rx,0,8,14,04,0D,00,00,00,00,00,
-1693295638040642,000003BE,false,Rx,0,8,00,00,00,80,00,00,00,00,
-1693295637980571,000003B8,false,Rx,0,8,64,02,02,00,02,00,40,1E,
-1693295637970630,000003BA,false,Rx,0,8,2E,2E,3C,33,3D,3D,00,00,
-1693295637960689,000003BC,false,Rx,0,8,2E,2E,52,CA,00,D9,00,00,
-1693295637950749,000003BD,false,Rx,0,8,14,04,0D,00,00,00,00,00,
-1693295637940808,000003BE,false,Rx,0,8,00,00,00,80,00,00,00,00,
-1693295637880709,000003B8,false,Rx,0,8,64,02,02,00,02,00,40,1E,
-1693295637870896,000003BA,false,Rx,0,8,2E,2E,3C,33,3D,3D,00,00,
-1693295637860998,000003BC,false,Rx,0,8,2E,2E,52,C4,00,BA,00,00,
-1693295637851015,000003BD,false,Rx,0,8,14,04,0D,00,00,00,00,00,
-1693295637840520,000003BE,false,Rx,0,8,00,00,00,80,00,00,00,00,
-1693295637781089,000003B8,false,Rx,0,8,64,02,02,00,02,00,40,1E,
-1693295637771063,000003BA,false,Rx,0,8,2E,2E,3C,33,3D,3D,00,00,
-1693295637761079,000003BC,false,Rx,0,8,2E,2E,52,C4,00,BA,00,00,
-1693295637751181,000003BD,false,Rx,0,8,14,04,0D,00,00,00,00,00,
-1693295637741198,000003BE,false,Rx,0,8,00,00,00,80,00,00,00,00,
-1693295637681127,000003B8,false,Rx,0,8,64,02,02,00,02,00,3B,1E,
-1693295637671186,000003BA,false,Rx,0,8,2E,2E,3C,33,3D,3D,00,00,
-1693295637661246,000003BC,false,Rx,0,8,2E,2E,52,C4,00,BA,00,00,
-1693295637651177,000003BD,false,Rx,0,8,14,04,0D,00,00,00,00,00,
-1693295637641236,000003BE,false,Rx,0,8,00,00,00,80,00,00,00,00,
-1693295637580824,000003B8,false,Rx,0,8,64,02,02,00,02,00,3B,1E,
-1693295637571352,000003BA,false,Rx,0,8,2E,2E,3C,33,3D,3D,00,00,
-1693295637561412,000003BC,false,Rx,0,8,2E,2E,52,C3,00,BA,00,00,
-1693295637551258,000003BD,false,Rx,0,8,14,04,0D,00,00,00,00,00,
-1693295637541360,000003BE,false,Rx,0,8,00,00,00,80,00,00,00,00,
-1693295637481374,000003B8,false,Rx,0,8,64,02,02,00,02,00,3B,1E,
-1693295637471092,000003BA,false,Rx,0,8,2E,2E,3C,33,3D,3D,00,00,
-1693295637461535,000003BC,false,Rx,0,8,2E,2E,52,C3,00,BA,00,00,
-1693295637451467,000003BD,false,Rx,0,8,14,04,0D,00,00,00,00,00,
-1693295637441526,000003BE,false,Rx,0,8,00,00,00,80,00,00,00,00,
-1693295637381498,000003B8,false,Rx,0,8,64,02,02,00,02,00,3B,1E,
-1693295637371600,000003BA,false,Rx,0,8,2E,2E,3C,33,3D,3D,00,00,
-1693295637361446,000003BC,false,Rx,0,8,2E,2E,52,C3,00,BA,00,00,
-1693295637351505,000003BD,false,Rx,0,8,14,04,0D,00,00,00,00,00,
-1693295637341522,000003BE,false,Rx,0,8,00,00,00,80,00,00,00,00,
-1693295637281536,000003B8,false,Rx,0,8,64,02,02,00,02,00,3B,1E,
-1693295637271595,000003BA,false,Rx,0,8,2E,2E,3C,33,3D,3D,00,00,
-1693295637261697,000003BC,false,Rx,0,8,2E,2E,52,B3,00,BA,00,00,
-1693295637251714,000003BD,false,Rx,0,8,14,04,0D,00,00,00,00,00,
-1693295637241730,000003BE,false,Rx,0,8,00,00,00,80,00,00,00,00,
-1693295637181532,000003B8,false,Rx,0,8,64,02,02,00,02,00,3B,1E,
-1693295637171249,000003BA,false,Rx,0,8,2E,2E,3C,33,3D,3D,00,00,
-1693295637161693,000003BC,false,Rx,0,8,2E,2E,52,B3,00,BA,00,00,
-1693295637151752,000003BD,false,Rx,0,8,14,04,0D,00,00,00,00,00,
-1693295637141769,000003BE,false,Rx,0,8,00,00,00,80,00,00,00,00,
-1693295637081740,000003B8,false,Rx,0,8,64,02,02,00,02,00,36,1E,
-1693295637071842,000003BA,false,Rx,0,8,2E,2E,3C,33,3D,3D,00,00,
-1693295637061432,000003BC,false,Rx,0,8,2E,2E,52,B3,00,BA,00,00,
-1693295637051748,000003BD,false,Rx,0,8,14,04,0D,00,00,00,00,00,
-1693295637041892,000003BE,false,Rx,0,8,00,00,00,80,00,00,00,00,
-1693295636981864,000003B8,false,Rx,0,8,64,02,02,00,02,00,36,1E,
-1693295636972094,000003BA,false,Rx,0,8,2E,2E,3C,33,3D,3D,00,00,
-1693295636961897,000003BC,false,Rx,0,8,2E,2E,52,A1,00,BA,00,00,
-1693295636951701,000003BD,false,Rx,0,8,14,04,0D,00,00,00,00,00,
-1693295636941930,000003BE,false,Rx,0,8,00,00,00,80,00,00,00,00,
-1693295636882038,000003B8,false,Rx,0,8,64,02,02,00,02,00,36,1E,
-1693295636872098,000003BA,false,Rx,0,8,2E,2E,3C,33,3D,3D,00,00,
-1693295636862114,000003BC,false,Rx,0,8,2E,2E,52,A1,00,BA,00,00,
-1693295636852045,000003BD,false,Rx,0,8,14,04,0D,00,00,00,00,00,
-1693295636841849,000003BE,false,Rx,0,8,00,00,00,80,00,00,00,00,
-1693295636782119,000003B8,false,Rx,0,8,64,02,02,00,02,00,36,1E,
-1693295636772264,000003BA,false,Rx,0,8,2E,2E,3C,33,3D,3D,00,00,
-1693295636762152,000003BC,false,Rx,0,8,2E,2E,52,93,00,BA,00,00,
-1693295636752212,000003BD,false,Rx,0,8,14,04,0D,00,00,00,00,00,
-1693295636742314,000003BE,false,Rx,0,8,00,00,00,80,00,00,00,00,
-1693295636682285,000003B8,false,Rx,0,8,64,02,02,00,02,00,36,1E,
-1693295636672430,000003BA,false,Rx,0,8,2E,2E,3C,33,3D,3D,00,00,
-1693295636662404,000003BC,false,Rx,0,8,2E,2E,52,93,00,BA,00,00,
-1693295636652378,000003BD,false,Rx,0,8,14,04,0D,00,00,00,00,00,
-1693295636642395,000003BE,false,Rx,0,8,00,00,00,80,00,00,00,00,
-1693295636582110,000003B8,false,Rx,0,8,64,02,02,00,02,00,36,1E,
-1693295636572468,000003BA,false,Rx,0,8,2E,2E,3C,33,3D,3D,00,00,
-1693295636562485,000003BC,false,Rx,0,8,2E,2E,52,93,00,BA,00,00,
-1693295636552544,000003BD,false,Rx,0,8,14,04,0D,00,00,00,00,00,
-1693295636542006,000003BE,false,Rx,0,8,00,00,00,80,00,00,00,00,
-1693295636482405,000003B8,false,Rx,0,8,64,02,02,00,02,00,36,1E,
-1693295636472507,000003BA,false,Rx,0,8,2E,2E,3C,33,3D,3D,00,00,
-1693295636462608,000003BC,false,Rx,0,8,2E,2E,52,7E,00,BA,00,00,
-1693295636452668,000003BD,false,Rx,0,8,14,04,0D,00,00,00,00,00,
-1693295636442599,000003BE,false,Rx,0,8,00,00,00,80,00,00,00,00,
-1693295636382613,000003B8,false,Rx,0,8,64,02,02,00,02,00,36,1E,
-1693295636372673,000003BA,false,Rx,0,8,2E,2E,3C,33,3D,3D,00,00,
-1693295636362732,000003BC,false,Rx,0,8,2E,2E,52,7E,00,BA,00,00,
-1693295636352663,000003BD,false,Rx,0,8,14,04,0D,00,00,00,00,00,
-1693295636342723,000003BE,false,Rx,0,8,00,00,00,80,00,00,00,00,
-1693295636282310,000003B8,false,Rx,0,8,64,02,02,00,02,00,32,1E,
-1693295636272839,000003BA,false,Rx,0,8,2E,2E,3C,33,3D,3D,00,00,
-1693295636262898,000003BC,false,Rx,0,8,2E,2E,52,7E,00,BA,00,00,
-1693295636252787,000003BD,false,Rx,0,8,14,04,0D,00,00,00,00,00,
-1693295636242804,000003BE,false,Rx,0,8,00,00,00,80,00,00,00,00,
-1693295636182690,000003B8,false,Rx,0,8,64,02,02,00,02,00,32,1E,
-1693295636172621,000003BA,false,Rx,0,8,2E,2E,3C,33,3D,3D,00,00,
-1693295636162937,000003BC,false,Rx,0,8,2E,2E,52,7D,00,BA,00,00,
-1693295636152782,000003BD,false,Rx,0,8,14,04,0D,00,00,00,00,00,
-1693295636142799,000003BE,false,Rx,0,8,00,00,00,80,00,00,00,00,
-1693295636082771,000003B8,false,Rx,0,8,64,02,02,00,02,00,32,1E,
-1693295636072873,000003BA,false,Rx,0,8,2E,2E,3C,33,3D,3D,00,00,
-1693295636062889,000003BC,false,Rx,0,8,2E,2E,52,7D,00,BA,00,00,
-1693295636052991,000003BD,false,Rx,0,8,14,04,0D,00,00,00,00,00,
-1693295636042965,000003BE,false,Rx,0,8,00,00,00,80,00,00,00,00,
-1693295635982980,000003B8,false,Rx,0,8,64,02,02,00,02,00,32,1E,
-1693295635973167,000003BA,false,Rx,0,8,2E,2E,3C,33,3D,3D,00,00,
-1693295635963141,000003BC,false,Rx,0,8,2E,2E,52,7D,00,BA,00,00,
-1693295635953158,000003BD,false,Rx,0,8,14,04,0D,00,00,00,00,00,
-1693295635943132,000003BE,false,Rx,0,8,00,00,00,80,00,00,00,00,
-1693295635883116,000003B8,false,Rx,0,8,64,02,02,00,02,00,32,1E,
-1693295635872749,000003BA,false,Rx,0,8,2E,2E,3C,33,3D,3D,00,00,
-1693295635863320,000003BC,false,Rx,0,8,2E,2E,52,6A,00,BA,00,00,
-1693295635853209,000003BD,false,Rx,0,8,14,04,0D,00,00,00,00,00,
-1693295635843140,000003BE,false,Rx,0,8,00,00,00,80,00,00,00,00,
-1693295635783240,000003B8,false,Rx,0,8,64,02,02,00,02,00,32,1E,
-1693295635773470,000003BA,false,Rx,0,8,2E,2E,3C,33,3D,3D,00,00,
-1693295635763315,000003BC,false,Rx,0,8,2E,2E,52,6A,00,BA,00,00,
-1693295635753460,000003BD,false,Rx,0,8,14,04,0D,00,00,00,00,00,
-1693295635743434,000003BE,false,Rx,0,8,00,00,00,80,00,00,00,00,
-1693295635683448,000003B8,false,Rx,0,8,64,02,02,00,02,00,32,1E,
-1693295635673465,000003BA,false,Rx,0,8,2E,2E,3C,33,3D,3D,00,00,
-1693295635663567,000003BC,false,Rx,0,8,2E,2E,52,65,00,BA,00,00,
-1693295635653072,000003BD,false,Rx,0,8,14,04,0D,00,00,00,00,00,
-1693295635643515,000003BE,false,Rx,0,8,00,00,00,80,00,00,00,00,
-1693295635583487,000003B8,false,Rx,0,8,64,02,02,00,02,00,32,1E,
-1693295635573631,000003BA,false,Rx,0,8,2E,2E,3C,33,3D,3D,00,00,
-1693295635563691,000003BC,false,Rx,0,8,2E,2E,52,65,00,BA,00,00,
-1693295635553750,000003BD,false,Rx,0,8,14,04,0D,00,00,00,00,00,
-1693295635543383,000003BE,false,Rx,0,8,00,00,00,80,00,00,00,00,
-1693295635483653,000003B8,false,Rx,0,8,64,02,02,00,02,00,32,1E,
-1693295635473755,000003BA,false,Rx,0,8,2E,2E,3C,33,3D,3D,00,00,
-1693295635463814,000003BC,false,Rx,0,8,2E,2E,52,65,00,BA,00,00,
-1693295635453746,000003BD,false,Rx,0,8,14,04,0D,00,00,00,00,00,
-1693295635443762,000003BE,false,Rx,0,8,00,00,00,80,00,00,00,00,
-1693295635383862,000003B8,false,Rx,0,8,64,02,02,00,02,00,32,1E,
-1693295635373879,000003BA,false,Rx,0,8,2E,2E,3C,33,3D,3D,00,00,
-1693295635363895,000003BC,false,Rx,0,8,2E,2E,52,54,00,BA,00,00,
-1693295635353997,000003BD,false,Rx,0,8,14,04,0D,00,00,00,00,00,
-1693295635343928,000003BE,false,Rx,0,8,00,00,00,80,00,00,00,00,
-1693295635283473,000003B8,false,Rx,0,8,64,02,02,00,02,00,32,1E,
-1693295635273959,000003BA,false,Rx,0,8,2E,2E,3C,33,3D,3D,00,00,
-1693295635264019,000003BC,false,Rx,0,8,2E,2E,52,54,00,BA,00,00,
-1693295635253907,000003BD,false,Rx,0,8,14,04,0D,00,00,00,00,00,
-1693295635243967,000003BE,false,Rx,0,8,00,00,00,80,00,00,00,00,
-1693295635183768,000003B8,false,Rx,0,8,64,02,02,00,02,00,2C,1E,
-1693295635173827,000003BA,false,Rx,0,8,2E,2E,3C,33,3D,3D,00,00,
-1693295635163929,000003BC,false,Rx,0,8,2E,2E,52,54,00,BA,00,00,
-1693295635154031,000003BD,false,Rx,0,8,14,04,0D,00,00,00,00,00,
-1693295635143834,000003BE,false,Rx,0,8,00,00,00,80,00,00,00,00,
-1693295635083977,000003B8,false,Rx,0,8,64,02,02,00,02,00,2C,1E,
-1693295635074079,000003BA,false,Rx,0,8,2E,2E,3C,33,3D,3D,00,00,
-1693295635064095,000003BC,false,Rx,0,8,2E,2E,52,46,00,BA,00,00,
-1693295635054026,000003BD,false,Rx,0,8,14,04,0D,00,00,00,00,00,
-1693295635044086,000003BE,false,Rx,0,8,00,00,00,80,00,00,00,00,
-1693295634983631,000003B8,false,Rx,0,8,64,02,02,00,02,00,2C,1E,
-1693295634974202,000003BA,false,Rx,0,8,2E,2E,3C,33,3D,3D,00,00,
-1693295634964219,000003BC,false,Rx,0,8,2E,2E,52,46,00,BA,00,00,
-1693295634954235,000003BD,false,Rx,0,8,14,04,0D,00,00,00,00,00,
-1693295634944252,000003BE,false,Rx,0,8,00,00,00,80,00,00,00,00,
-1693295634884249,000003B8,false,Rx,0,8,64,02,02,00,02,00,2C,1E,
-1693295634873967,000003BA,false,Rx,0,8,2E,2E,3C,33,3D,3D,00,00,
-1693295634864453,000003BC,false,Rx,0,8,2E,2E,52,46,00,BA,00,00,
-1693295634854299,000003BD,false,Rx,0,8,14,04,0D,00,00,00,00,00,
-1693295634844316,000003BE,false,Rx,0,8,00,00,00,80,00,00,00,00,
-1693295634784416,000003B8,false,Rx,0,8,64,02,04,00,02,00,2C,1E,
-1693295634774475,000003BA,false,Rx,0,8,2E,2E,3C,33,3D,3D,00,00,
-1693295634764236,000003BC,false,Rx,0,8,2E,2E,52,37,01,71,00,00,
-1693295634754551,000003BD,false,Rx,0,8,14,04,0D,00,00,00,00,00,
-1693295634744482,000003BE,false,Rx,0,8,00,00,00,80,00,00,00,00,
-1693295634684539,000003B8,false,Rx,0,8,64,02,04,00,02,00,2C,1E,
-1693295634674556,000003BA,false,Rx,0,8,2E,2E,3C,33,3D,3D,00,00,
-1693295634664530,000003BC,false,Rx,0,8,2E,2E,52,37,01,71,00,00,
-1693295634654290,000003BD,false,Rx,0,8,14,04,0D,00,00,00,00,00,
-1693295634644478,000003BE,false,Rx,0,8,00,00,00,80,00,00,00,00,
-1693295634584535,000003B8,false,Rx,0,8,64,02,04,00,02,00,2C,1E,
-1693295634574722,000003BA,false,Rx,0,8,2E,2E,3C,33,3D,3D,00,00,
-1693295634564653,000003BC,false,Rx,0,8,2E,2E,52,22,05,1E,00,00,
-1693295634554713,000003BD,false,Rx,0,8,14,04,0D,00,00,00,00,00,
-1693295634544516,000003BE,false,Rx,0,8,00,00,00,80,00,00,00,00,
-1693295634484744,000003B8,false,Rx,0,8,64,02,0D,00,02,00,2C,1E,
-1693295634474846,000003BA,false,Rx,0,8,2E,2E,3C,33,3D,3D,00,00,
-1693295634464905,000003BC,false,Rx,0,8,2E,2E,52,22,05,1E,00,00,
-1693295634454922,000003BD,false,Rx,0,8,14,04,0D,00,00,00,00,00,
-1693295634444810,000003BE,false,Rx,0,8,00,00,00,80,00,00,00,00,
-1693295634384867,000003B8,false,Rx,0,8,64,02,0D,00,02,00,2C,1E,
-1693295634374969,000003BA,false,Rx,0,8,2E,2E,3C,33,3D,3D,00,00,
-1693295634365029,000003BC,false,Rx,0,8,2E,2E,52,22,05,1E,00,00,
-1693295634354917,000003BD,false,Rx,0,8,14,04,0D,00,00,00,00,00,
-1693295634344934,000003BE,false,Rx,0,8,00,00,00,80,00,00,00,00,
-1693295634284906,000003B8,false,Rx,0,8,64,02,19,00,02,00,2C,1E,
-1693295634275136,000003BA,false,Rx,0,8,2E,2E,3C,33,3D,3D,00,00,
-1693295634265152,000003BC,false,Rx,0,8,2E,2E,52,24,09,DD,00,00,
-1693295634255083,000003BD,false,Rx,0,8,14,04,0D,00,00,00,00,00,
-1693295634244716,000003BE,false,Rx,0,8,00,00,00,80,00,00,00,00,
-1693295634184944,000003B8,false,Rx,0,8,64,02,19,00,02,00,2C,1E,
-1693295634175088,000003BA,false,Rx,0,8,2E,2E,3C,33,3D,3D,00,00,
-1693295634165148,000003BC,false,Rx,0,8,2E,2E,52,24,09,DD,00,00,
-1693295634155207,000003BD,false,Rx,0,8,14,04,0D,00,00,00,00,00,
-1693295634145096,000003BE,false,Rx,0,8,00,00,00,80,00,00,00,00,
-1693295634085110,000003B8,false,Rx,0,8,64,02,19,00,02,00,2C,1E,
-1693295634075169,000003BA,false,Rx,0,8,2E,2E,3C,33,3D,3D,00,00,
-1693295634065229,000003BC,false,Rx,0,8,2E,2E,52,24,09,DD,00,00,
-1693295634055331,000003BD,false,Rx,0,8,14,04,0D,00,00,00,00,00,
-1693295634045347,000003BE,false,Rx,0,8,00,00,00,80,00,00,00,00,
-1693295633984892,000003B8,false,Rx,0,8,64,02,21,00,02,00,2C,1E,
-1693295633975421,000003BA,false,Rx,0,8,2E,2E,3C,33,3D,3D,00,00,
-1693295633965438,000003BC,false,Rx,0,8,2E,2E,52,18,0C,B6,00,00,
-1693295633955369,000003BD,false,Rx,0,8,14,04,0D,00,00,00,00,00,
-1693295633945385,000003BE,false,Rx,0,8,00,00,00,80,00,00,00,00,
-1693295633885285,000003B8,false,Rx,0,8,64,02,21,00,02,00,2C,1E,
-1693295633875216,000003BA,false,Rx,0,8,2E,2E,3C,33,3D,3D,00,00,
-1693295633865318,000003BC,false,Rx,0,8,2E,2E,52,18,0C,B6,00,00,
-1693295633855334,000003BD,false,Rx,0,8,14,04,0D,00,00,00,00,00,
-1693295633845266,000003BE,false,Rx,0,8,00,00,00,80,00,00,00,00,
-1693295633785323,000003B8,false,Rx,0,8,64,02,21,00,02,00,2C,1E,
-1693295633775425,000003BA,false,Rx,0,8,2E,2E,3C,33,3D,3D,00,00,
-1693295633765271,000003BC,false,Rx,0,8,2E,2E,52,18,0C,B6,00,00,
-1693295633755330,000003BD,false,Rx,0,8,14,04,0D,00,00,00,00,00,
-1693295633745389,000003BE,false,Rx,0,8,00,00,00,80,00,00,00,00,
-1693295633685105,000003B8,false,Rx,0,8,64,02,26,00,02,00,2C,1E,
-1693295633675548,000003BA,false,Rx,0,8,2E,2E,3C,33,3D,3D,00,00,
-1693295633665565,000003BC,false,Rx,0,8,2E,2E,52,02,0E,BA,00,00,
-1693295633655454,000003BD,false,Rx,0,8,14,04,0D,00,00,00,00,00,
-1693295633645129,000003BE,false,Rx,0,8,00,00,00,80,00,00,00,00,
-1693295633585442,000003B8,false,Rx,0,8,64,02,26,00,02,00,2C,1E,
-1693295633575587,000003BA,false,Rx,0,8,2E,2E,3C,33,3D,3D,00,00,
-1693295633565433,000003BC,false,Rx,0,8,2E,2E,52,02,0E,BA,00,00,
-1693295633555534,000003BD,false,Rx,0,8,14,04,0D,00,00,00,00,00,
-1693295633545466,000003BE,false,Rx,0,8,00,00,00,80,00,00,00,00,
-1693295633485480,000003B8,false,Rx,0,8,64,02,26,00,02,00,2C,1E,
-1693295633475753,000003BA,false,Rx,0,8,2E,2E,3C,33,3D,3D,00,00,
-1693295633465599,000003BC,false,Rx,0,8,2E,2E,51,F0,10,BF,00,00,
-1693295633455786,000003BD,false,Rx,0,8,14,04,0D,00,00,00,00,00,
-1693295633445675,000003BE,false,Rx,0,8,00,00,00,80,00,00,00,00,
-1693295633385817,000003B8,false,Rx,0,8,64,02,2B,00,02,00,2C,1E,
-1693295633375322,000003BA,false,Rx,0,8,2E,2E,3C,33,3D,3D,00,00,
-1693295633365722,000003BC,false,Rx,0,8,2E,2E,51,F0,10,BF,00,00,
-1693295633355654,000003BD,false,Rx,0,8,14,04,0D,00,00,00,00,00,
-1693295633345585,000003BE,false,Rx,0,8,00,00,00,80,00,00,00,00,
-1693295633285642,000003B8,false,Rx,0,8,64,02,2B,00,02,00,2C,1E,
-1693295633275787,000003BA,false,Rx,0,8,2E,2E,3C,33,3D,3D,00,00,
-1693295633265803,000003BC,false,Rx,0,8,2E,2E,51,F0,10,BF,00,00,
-1693295633255777,000003BD,false,Rx,0,8,14,04,0D,00,00,00,00,00,
-1693295633245709,000003BE,false,Rx,0,8,00,00,00,80,00,00,00,00,
-1693295633185766,000003B8,false,Rx,0,8,64,02,30,00,02,00,2C,1E,
-1693295633175996,000003BA,false,Rx,0,8,2E,2E,3C,33,3D,3D,00,00,
-1693295633165970,000003BC,false,Rx,0,8,2E,2E,51,ED,12,A5,00,00,
-1693295633155986,000003BD,false,Rx,0,8,14,04,0D,00,00,00,00,00,
-1693295633145917,000003BE,false,Rx,0,8,00,00,00,80,00,00,00,00,
-1693295633086017,000003B8,false,Rx,0,8,64,02,30,00,02,00,2C,1E,
-1693295633076034,000003BA,false,Rx,0,8,2E,2E,3C,33,3D,3D,00,00,
-1693295633066008,000003BC,false,Rx,0,8,2E,2E,51,ED,12,A5,00,00,
-1693295633055982,000003BD,false,Rx,0,8,14,04,0D,00,00,00,00,00,
-1693295633045956,000003BE,false,Rx,0,8,00,00,00,80,00,00,00,00,
-1693295632986013,000003B8,false,Rx,0,8,64,02,30,00,02,00,2C,1E,
-1693295632976157,000003BA,false,Rx,0,8,2E,2E,3C,33,3D,3D,00,00,
-1693295632966131,000003BC,false,Rx,0,8,2E,2E,51,ED,12,A5,00,00,
-1693295632956148,000003BD,false,Rx,0,8,14,04,0D,00,00,00,00,00,
-1693295632946079,000003BE,false,Rx,0,8,00,00,00,80,00,00,00,00,
-1693295632886234,000003B8,false,Rx,0,8,64,02,32,00,02,00,2C,1E,
-1693295632876208,000003BA,false,Rx,0,8,2E,2E,3C,33,3D,3D,00,00,
-1693295632866225,000003BC,false,Rx,0,8,2E,2E,51,DD,13,98,00,00,
-1693295632856370,000003BD,false,Rx,0,8,14,04,0D,00,00,00,00,00,
-1693295632846301,000003BE,false,Rx,0,8,00,00,00,80,00,00,00,00,
-1693295632786145,000003B8,false,Rx,0,8,64,02,32,00,02,00,2C,1E,
-1693295632776417,000003BA,false,Rx,0,8,2E,2E,3C,33,3D,3D,00,00,
-1693295632766391,000003BC,false,Rx,0,8,2E,2E,51,DD,13,98,00,00,
-1693295632756322,000003BD,false,Rx,0,8,14,04,0D,00,00,00,00,00,
-1693295632746296,000003BE,false,Rx,0,8,00,00,00,80,00,00,00,00,
-1693295632686396,000003B8,false,Rx,0,8,64,02,32,00,02,00,2C,1E,
-1693295632676413,000003BA,false,Rx,0,8,2E,2E,3C,33,3D,3D,00,00,
-1693295632666557,000003BC,false,Rx,0,8,2E,2E,51,DD,13,98,00,00,
-1693295632656489,000003BD,false,Rx,0,8,14,04,0D,00,00,00,00,00,
-1693295632646505,000003BE,false,Rx,0,8,00,00,00,80,00,00,00,00,
-1693295632586605,000003B8,false,Rx,0,8,64,02,35,00,02,00,2C,AE,
-1693295632576579,000003BA,false,Rx,0,8,2E,2E,3C,33,3D,3D,00,00,
-1693295632566681,000003BC,false,Rx,0,8,2E,2E,51,D9,14,A9,00,00,
-1693295632556698,000003BD,false,Rx,0,8,14,04,0D,00,00,00,00,00,
-1693295632546586,000003BE,false,Rx,0,8,00,00,00,80,00,00,00,00,
-1693295632486601,000003B8,false,Rx,0,8,64,02,35,00,02,00,2C,AE,
-1693295632476745,000003BA,false,Rx,0,8,2E,2E,3C,33,3D,3D,00,00,
-1693295632466250,000003BC,false,Rx,0,8,2E,2E,51,D9,14,A9,00,00,
-1693295632456693,000003BD,false,Rx,0,8,14,04,0D,00,00,00,00,00,
-1693295632446710,000003BE,false,Rx,0,8,00,00,00,80,00,00,00,00,
-1693295632386724,000003B8,false,Rx,0,8,64,02,39,00,02,00,2C,AE,
-1693295632376954,000003BA,false,Rx,0,8,2E,2E,3C,33,3D,3D,00,00,
-1693295632366501,000003BC,false,Rx,0,8,2E,2E,52,16,16,33,00,00,
-1693295632356859,000003BD,false,Rx,0,8,14,04,0D,00,00,00,00,00,
-1693295632347004,000003BE,false,Rx,0,8,00,00,00,80,00,00,00,00,
-1693295632286976,000003B8,false,Rx,0,8,64,02,39,00,02,00,2C,AE,
-1693295632277035,000003BA,false,Rx,0,8,2E,2E,3C,33,3D,3D,00,00,
-1693295632266838,000003BC,false,Rx,0,8,2E,2E,52,16,16,33,00,00,
-1693295632257026,000003BD,false,Rx,0,8,14,04,0D,00,00,00,00,00,
-1693295632246957,000003BE,false,Rx,0,8,00,00,00,80,00,00,00,00,
-1693295632187142,000003B8,false,Rx,0,8,64,02,39,00,02,00,2C,AE,
-1693295632177073,000003BA,false,Rx,0,8,2E,2E,3C,33,3D,3D,00,00,
-1693295632167218,000003BC,false,Rx,0,8,2E,2E,52,16,16,33,00,00,
-1693295632157192,000003BD,false,Rx,0,8,14,04,0D,00,00,00,00,00,
-1693295632147123,000003BE,false,Rx,0,8,00,00,00,80,00,00,00,00,
-1693295632087180,000003B8,false,Rx,0,8,64,02,49,00,02,00,2C,AE,
-1693295632077368,000003BA,false,Rx,0,8,2E,2E,3C,33,3D,3D,00,00,
-1693295632067299,000003BC,false,Rx,0,8,2E,2E,52,D5,1C,5F,00,00,
-1693295632057059,000003BD,false,Rx,0,8,14,04,0D,00,00,00,00,00,
-1693295632047247,000003BE,false,Rx,0,8,00,00,00,80,00,00,00,00,
-1693295631987304,000003B8,false,Rx,0,8,64,02,49,00,02,00,2C,AE,
-1693295631977278,000003BA,false,Rx,0,8,2E,2E,3C,33,3D,3D,00,00,
-1693295631967380,000003BC,false,Rx,0,8,2E,2E,52,D5,1C,5F,00,00,
-1693295631957396,000003BD,false,Rx,0,8,14,04,0D,00,00,00,00,00,
-1693295631947370,000003BE,false,Rx,0,8,00,00,00,80,00,00,00,00,
-1693295631887381,000003B8,false,Rx,0,8,64,02,49,00,02,00,2C,AE,
-1693295631877398,000003BA,false,Rx,0,8,2E,2E,3C,33,3D,3D,00,00,
-1693295631867500,000003BC,false,Rx,0,8,2E,2E,52,D5,1C,5F,00,00,
-1693295631857474,000003BD,false,Rx,0,8,14,04,0D,00,00,00,00,00,
-1693295631847149,000003BE,false,Rx,0,8,00,00,00,80,00,00,00,00,
-1693295631787377,000003B8,false,Rx,0,8,64,02,53,00,02,00,2C,AE,
-1693295631777521,000003BA,false,Rx,0,8,2E,2E,3C,33,3D,3D,00,00,
-1693295631767495,000003BC,false,Rx,0,8,2E,2E,52,D3,20,86,00,00,
-1693295631757469,000003BD,false,Rx,0,8,14,04,0D,00,00,00,00,00,
-1693295631747528,000003BE,false,Rx,0,8,00,00,00,80,00,00,00,00,
-1693295631687074,000003B8,false,Rx,0,8,64,02,53,00,02,00,2C,AE,
-1693295631677688,000003BA,false,Rx,0,8,2E,2E,3C,33,3D,3D,00,00,
-1693295631667576,000003BC,false,Rx,0,8,2E,2E,52,D3,20,86,00,00,
-1693295631657721,000003BD,false,Rx,0,8,14,04,0D,00,00,00,00,00,
-1693295631647609,000003BE,false,Rx,0,8,00,00,00,80,00,00,00,00,
-1693295631587453,000003B8,false,Rx,0,8,64,02,53,00,02,00,2C,AE,
-1693295631577683,000003BA,false,Rx,0,8,2E,2E,3C,33,3D,3D,00,00,
-1693295631567742,000003BC,false,Rx,0,8,2E,2E,52,D3,20,86,00,00,
-1693295631557716,000003BD,false,Rx,0,8,14,04,0D,00,00,00,00,00,
-1693295631547690,000003BE,false,Rx,0,8,00,00,00,80,00,00,00,00,
-1693295631487747,000003B8,false,Rx,0,8,64,02,5C,00,02,00,2C,AE,
-1693295631477935,000003BA,false,Rx,0,8,2E,2E,3C,33,3D,3D,00,00,
-1693295631467781,000003BC,false,Rx,0,8,2E,2E,52,C3,23,D8,00,00,
-1693295631457669,000003BD,false,Rx,0,8,14,04,0D,00,00,00,00,00,
-1693295631447729,000003BE,false,Rx,0,8,00,00,00,80,00,00,00,00,
-1693295631387700,000003B8,false,Rx,0,8,64,02,5C,00,02,00,2C,AE,
-1693295631377589,000003BA,false,Rx,0,8,2E,2E,3C,33,3D,3D,00,00,
-1693295631367776,000003BC,false,Rx,0,8,2E,2E,52,C3,23,D8,00,00,
-1693295631357793,000003BD,false,Rx,0,8,14,04,0D,00,00,00,00,00,
-1693295631347767,000003BE,false,Rx,0,8,00,00,00,80,00,00,00,00,
-1693295631287867,000003B8,false,Rx,0,8,64,02,65,00,02,00,2C,AE,
-1693295631277883,000003BA,false,Rx,0,8,2E,2E,3C,33,3D,3D,00,00,
-1693295631268028,000003BC,false,Rx,0,8,2E,2E,52,BE,27,67,00,00,
-1693295631258002,000003BD,false,Rx,0,8,14,04,0D,00,00,00,00,00,
-1693295631247933,000003BE,false,Rx,0,8,00,00,00,80,00,00,00,00,
-1693295631187947,000003B8,false,Rx,0,8,64,02,65,00,02,00,2C,AE,
-1693295631177964,000003BA,false,Rx,0,8,2E,2E,3C,33,3D,3D,00,00,
-1693295631168023,000003BC,false,Rx,0,8,2E,2E,52,BE,27,67,00,00,
-1693295631157997,000003BD,false,Rx,0,8,14,04,0D,00,00,00,00,00,
-1693295631148099,000003BE,false,Rx,0,8,00,00,00,80,00,00,00,00,
-1693295631088071,000003B8,false,Rx,0,8,64,02,65,00,02,00,2C,AE,
-1693295631078173,000003BA,false,Rx,0,8,2E,2E,3C,33,3D,3D,00,00,
-1693295631067720,000003BC,false,Rx,0,8,2E,2E,52,BE,27,67,00,00,
-1693295631058121,000003BD,false,Rx,0,8,14,04,0D,00,00,00,00,00,
-1693295631048180,000003BE,false,Rx,0,8,00,00,00,80,00,00,00,00,
-1693295630988195,000003B8,false,Rx,0,8,64,02,6E,00,02,00,2C,AE,
-1693295630978297,000003BA,false,Rx,0,8,2E,2E,3C,33,3D,3D,00,00,
-1693295630968271,000003BC,false,Rx,0,8,2E,2E,52,AD,2A,F7,00,00,
-1693295630958244,000003BD,false,Rx,0,8,14,04,0D,00,00,00,00,00,
-1693295630948346,000003BE,false,Rx,0,8,00,00,00,80,00,00,00,00,
-1693295630888246,000003B8,false,Rx,0,8,64,02,6E,00,02,00,2C,AE,
-1693295630878347,000003BA,false,Rx,0,8,2E,2E,3C,33,3D,3D,00,00,
-1693295630868492,000003BC,false,Rx,0,8,2E,2E,52,AD,2A,F7,00,00,
-1693295630857911,000003BD,false,Rx,0,8,14,04,0D,00,00,00,00,00,
-1693295630848483,000003BE,false,Rx,0,8,00,00,00,80,00,00,00,00,
-1693295630788284,000003B8,false,Rx,0,8,64,02,6E,00,02,00,2F,AE,
-1693295630778471,000003BA,false,Rx,0,8,2E,2E,3C,33,3D,3D,00,00,
-1693295630768445,000003BC,false,Rx,0,8,2E,2E,52,AD,2A,F7,00,00,
-1693295630758334,000003BD,false,Rx,0,8,14,04,0D,00,00,00,00,00,
-1693295630748478,000003BE,false,Rx,0,8,00,00,00,80,00,00,00,00,
-1693295630688493,000003B8,false,Rx,0,8,64,02,73,00,02,00,2F,AE,
-1693295630678637,000003BA,false,Rx,0,8,2E,2E,3C,33,3D,3D,00,00,
-1693295630668611,000003BC,false,Rx,0,8,2E,2E,52,9A,2C,BE,00,00,
-1693295630658543,000003BD,false,Rx,0,8,14,04,0D,00,00,00,00,00,
-1693295630648090,000003BE,false,Rx,0,8,00,00,00,80,00,00,00,00,
-1693295630588574,000003B8,false,Rx,0,8,64,02,73,00,02,00,2F,AE,
-1693295630578718,000003BA,false,Rx,0,8,2E,2E,3C,33,3D,3D,00,00,
-1693295630568650,000003BC,false,Rx,0,8,2E,2E,52,9A,2C,BE,00,00,
-1693295630558709,000003BD,false,Rx,0,8,14,04,0D,00,00,00,00,00,
-1693295630548341,000003BE,false,Rx,0,8,00,00,00,80,00,00,00,00,
-1693295630488697,000003B8,false,Rx,0,8,64,02,73,00,02,00,32,AE,
-1693295630478842,000003BA,false,Rx,0,8,2E,2E,3C,33,3D,3D,00,00,
-1693295630468901,000003BC,false,Rx,0,8,2E,2E,52,9A,2C,BE,00,00,
-1693295630458832,000003BD,false,Rx,0,8,14,04,0D,00,00,00,00,00,
-1693295630448678,000003BE,false,Rx,0,8,00,00,00,80,00,00,00,00,
-1693295630388309,000003B8,false,Rx,0,8,64,02,73,00,02,00,32,AE,
-1693295630378837,000003BA,false,Rx,0,8,2E,2E,3C,33,3D,3D,00,00,
-1693295630368811,000003BC,false,Rx,0,8,2E,2E,52,88,2C,FB,00,00,
-1693295630358743,000003BD,false,Rx,0,8,14,04,0D,00,00,00,00,00,
-1693295630348887,000003BE,false,Rx,0,8,00,00,00,80,00,00,00,00,
-1693295630288603,000003B8,false,Rx,0,8,64,02,73,00,02,00,32,AE,
-1693295630278790,000003BA,false,Rx,0,8,2E,2E,3C,33,3D,3D,00,00,
-1693295630268807,000003BC,false,Rx,0,8,2E,2E,52,88,2C,FB,00,00,
-1693295630258866,000003BD,false,Rx,0,8,14,04,0D,00,00,00,00,00,
-1693295630248798,000003BE,false,Rx,0,8,00,00,00,80,00,00,00,00,
-1693295630188940,000003B8,false,Rx,0,8,64,02,73,00,02,00,34,AE,
-1693295630178999,000003BA,false,Rx,0,8,2E,2E,3C,33,3D,3D,00,00,
-1693295630168973,000003BC,false,Rx,0,8,2E,2E,52,7D,2C,FB,00,00,
-1693295630159075,000003BD,false,Rx,0,8,14,04,0D,00,00,00,00,00,
-1693295630149006,000003BE,false,Rx,0,8,00,00,00,80,00,00,00,00,
-1693295630089063,000003B8,false,Rx,0,8,64,02,73,00,02,00,34,AE,
-1693295630078653,000003BA,false,Rx,0,8,2E,2E,3D,33,3D,3D,00,00,
-1693295630069182,000003BC,false,Rx,0,8,2E,2E,52,7D,2C,FB,00,00,
-1693295630059113,000003BD,false,Rx,0,8,14,04,0D,00,00,00,00,00,
-1693295630049045,000003BE,false,Rx,0,8,00,00,00,80,00,00,00,00,
-1693295629989144,000003B8,false,Rx,0,8,64,02,73,00,02,00,34,AE,
-1693295629978990,000003BA,false,Rx,0,8,2E,2E,3D,33,3D,3D,00,00,
-1693295629969306,000003BC,false,Rx,0,8,2E,2E,52,7D,2C,FB,00,00,
-1693295629959280,000003BD,false,Rx,0,8,14,04,0D,00,00,00,00,00,
-1693295629949211,000003BE,false,Rx,0,8,00,00,00,80,00,00,00,00,
-1693295629889223,000003B8,false,Rx,0,8,64,02,73,00,02,00,34,AE,
-1693295629879411,000003BA,false,Rx,0,8,2E,2E,3D,33,3D,3D,00,00,
-1693295629869385,000003BC,false,Rx,0,8,2E,2E,52,79,2C,FB,00,00,
-1693295629859316,000003BD,false,Rx,0,8,14,04,0D,00,00,00,00,00,
-1693295629849503,000003BE,false,Rx,0,8,00,00,00,80,00,00,00,00,
-1693295629789475,000003B8,false,Rx,0,8,64,02,73,00,02,00,34,AE,
-1693295629779492,000003BA,false,Rx,0,8,2E,2E,3D,33,3D,3D,00,00,
-1693295629769039,000003BC,false,Rx,0,8,2E,2E,52,79,2C,FB,00,00,
-1693295629759610,000003BD,false,Rx,0,8,14,04,0D,00,00,00,00,00,
-1693295629749541,000003BE,false,Rx,0,8,00,00,00,80,00,00,00,00,
-1693295629689598,000003B8,false,Rx,0,8,64,02,73,00,02,00,39,AE,
-1693295629679615,000003BA,false,Rx,0,8,2E,2E,3D,33,3D,3D,00,00,
-1693295629669589,000003BC,false,Rx,0,8,2E,2E,52,79,2C,FB,00,00,
-1693295629659734,000003BD,false,Rx,0,8,14,04,0D,00,00,00,00,00,
-1693295629649665,000003BE,false,Rx,0,8,00,00,00,80,00,00,00,00,
-1693295629589679,000003B8,false,Rx,0,8,64,02,73,00,02,00,39,AE,
-1693295629579824,000003BA,false,Rx,0,8,2E,2E,3D,33,3D,3D,00,00,
-1693295629569798,000003BC,false,Rx,0,8,2E,2E,52,6C,2D,19,00,00,
-1693295629559388,000003BD,false,Rx,0,8,14,04,0D,00,00,00,00,00,
-1693295629549703,000003BE,false,Rx,0,8,00,00,00,80,00,00,00,00,
-1693295629489632,000003B8,false,Rx,0,8,64,02,73,00,02,00,39,AE,
-1693295629479777,000003BA,false,Rx,0,8,2E,2E,3D,33,3D,3D,00,00,
-1693295629469708,000003BC,false,Rx,0,8,2E,2E,52,6C,2D,19,00,00,
-1693295629459639,000003BD,false,Rx,0,8,14,04,0D,00,00,00,00,00,
-1693295629449827,000003BE,false,Rx,0,8,00,00,00,80,00,00,00,00,
-1693295629389756,000003B8,false,Rx,0,8,64,02,73,00,02,00,39,AE,
-1693295629379900,000003BA,false,Rx,0,8,2E,2E,3D,33,3D,3D,00,00,
-1693295629369832,000003BC,false,Rx,0,8,2E,2E,52,6C,2D,19,00,00,
-1693295629359806,000003BD,false,Rx,0,8,14,04,0D,00,00,00,00,00,
-1693295629349438,000003BE,false,Rx,0,8,00,00,00,80,00,00,00,00,
-1693295629289879,000003B8,false,Rx,0,8,64,02,74,00,02,00,39,AE,
-1693295629279981,000003BA,false,Rx,0,8,2E,2E,3D,33,3D,3D,00,00,
-1693295629269998,000003BC,false,Rx,0,8,2E,2E,52,65,2D,38,00,00,
-1693295629259972,000003BD,false,Rx,0,8,14,04,0D,00,00,00,00,00,
-1693295629249690,000003BE,false,Rx,0,8,00,00,00,80,00,00,00,00,
-1693295629190003,000003B8,false,Rx,0,8,64,02,74,00,02,00,39,AE,
-1693295629180148,000003BA,false,Rx,0,8,2E,2E,3D,33,3D,3D,00,00,
-1693295629170122,000003BC,false,Rx,0,8,2E,2E,52,65,2D,38,00,00,
-1693295629160181,000003BD,false,Rx,0,8,14,04,0D,00,00,00,00,00,
-1693295629150112,000003BE,false,Rx,0,8,00,00,00,80,00,00,00,00,
-1693295629090255,000003B8,false,Rx,0,8,64,02,73,00,02,00,39,AE,
-1693295629080271,000003BA,false,Rx,0,8,2E,2E,3D,33,3D,3D,00,00,
-1693295629070330,000003BC,false,Rx,0,8,2E,2E,52,5C,2C,DD,00,00,
-1693295629060304,000003BD,false,Rx,0,8,14,04,0D,00,00,00,00,00,
-1693295629050236,000003BE,false,Rx,0,8,00,00,00,80,00,00,00,00,
-1693295628989994,000003B8,false,Rx,0,8,64,02,73,00,02,00,39,AE,
-1693295628980352,000003BA,false,Rx,0,8,2E,2E,3D,33,3D,3D,00,00,
-1693295628970411,000003BC,false,Rx,0,8,2E,2E,52,5C,2C,DD,00,00,
-1693295628960385,000003BD,false,Rx,0,8,14,04,0D,00,00,00,00,00,
-1693295628950274,000003BE,false,Rx,0,8,00,00,00,80,00,00,00,00,
-1693295628890173,000003B8,false,Rx,0,8,64,02,73,00,02,00,3E,AE,
-1693295628880403,000003BA,false,Rx,0,8,2E,2E,3D,33,3D,3D,00,00,
-1693295628870505,000003BC,false,Rx,0,8,2E,2E,52,5C,2C,DD,00,00,
-1693295628860479,000003BD,false,Rx,0,8,14,04,0D,00,00,00,00,00,
-1693295628850325,000003BE,false,Rx,0,8,00,00,00,80,00,00,00,00,
-1693295628790254,000003B8,false,Rx,0,8,64,02,69,00,02,00,3E,AE,
-1693295628780015,000003BA,false,Rx,0,8,2E,2E,3D,33,3D,3D,00,00,
-1693295628770373,000003BC,false,Rx,0,8,2E,2E,52,50,28,F2,00,00,
-1693295628760347,000003BD,false,Rx,0,8,14,04,0D,00,00,00,00,00,
-1693295628750448,000003BE,false,Rx,0,8,00,00,00,80,00,00,00,00,
-1693295628690378,000003B8,false,Rx,0,8,64,02,69,00,02,00,3E,AE,
-1693295628680522,000003BA,false,Rx,0,8,2E,2E,3D,33,3D,3D,00,00,
-1693295628670070,000003BC,false,Rx,0,8,2E,2E,52,50,28,F2,00,00,
-1693295628660641,000003BD,false,Rx,0,8,14,04,0D,00,00,00,00,00,
-1693295628650529,000003BE,false,Rx,0,8,00,00,00,80,00,00,00,00,
-1693295628590672,000003B8,false,Rx,0,8,64,02,69,00,02,00,3E,AE,
-1693295628580603,000003BA,false,Rx,0,8,2E,2E,3D,33,3D,3D,00,00,
-1693295628570790,000003BC,false,Rx,0,8,2E,2E,52,50,28,F2,00,00,
-1693295628560167,000003BD,false,Rx,0,8,14,04,0D,00,00,00,00,00,
-1693295628550653,000003BE,false,Rx,0,8,00,00,00,80,00,00,00,00,
-1693295628490795,000003B8,false,Rx,0,8,64,02,69,00,02,00,3E,AE,
-1693295628480897,000003BA,false,Rx,0,8,2E,2E,3D,33,3D,3D,00,00,
-1693295628470871,000003BC,false,Rx,0,8,2E,2E,52,50,28,F2,00,00,
-1693295628460419,000003BD,false,Rx,0,8,14,04,0D,00,00,00,00,00,
-1693295628450734,000003BE,false,Rx,0,8,00,00,00,80,00,00,00,00,
-1693295628390876,000003B8,false,Rx,0,8,64,02,69,00,02,00,3E,AE,
-1693295628380850,000003BA,false,Rx,0,8,2E,2E,3D,33,3D,3D,00,00,
-1693295628370995,000003BC,false,Rx,0,8,2E,2E,52,50,28,F2,00,00,
-1693295628360670,000003BD,false,Rx,0,8,14,04,0D,00,00,00,00,00,
-1693295628350943,000003BE,false,Rx,0,8,00,00,00,80,00,00,00,00,
-1693295628290915,000003B8,false,Rx,0,8,64,02,49,00,02,00,3E,AE,
-1693295628281016,000003BA,false,Rx,0,8,2E,2E,3D,33,3D,3D,00,00,
-1693295628271118,000003BC,false,Rx,0,8,2E,2E,52,36,1C,7D,00,00,
-1693295628261007,000003BD,false,Rx,0,8,14,04,0D,00,00,00,00,00,
-1693295628251024,000003BE,false,Rx,0,8,00,00,00,80,00,00,00,00,
-1693295628191038,000003B8,false,Rx,0,8,64,02,49,00,02,00,3E,AE,
-1693295628181140,000003BA,false,Rx,0,8,2E,2E,3D,33,3D,3D,00,00,
-1693295628171242,000003BC,false,Rx,0,8,2E,2E,52,36,1C,7D,00,00,
-1693295628161216,000003BD,false,Rx,0,8,14,04,0D,00,00,00,00,00,
-1693295628151147,000003BE,false,Rx,0,8,00,00,00,80,00,00,00,00,
-1693295628091119,000003B8,false,Rx,0,8,64,02,49,00,02,00,3E,AE,
-1693295628081221,000003BA,false,Rx,0,8,2E,2E,3D,33,3D,3D,00,00,
-1693295628071280,000003BC,false,Rx,0,8,2E,2E,52,34,16,CB,00,00,
-1693295628061297,000003BD,false,Rx,0,8,14,04,0D,00,00,00,00,00,
-1693295628051100,000003BE,false,Rx,0,8,00,00,00,80,00,00,00,00,
-1693295627991328,000003B8,false,Rx,0,8,64,02,3A,00,02,00,3E,AE,
-1693295627981345,000003BA,false,Rx,0,8,2E,2E,3D,33,3D,3D,00,00,
-1693295627971489,000003BC,false,Rx,0,8,2E,2E,52,34,16,CB,00,00,
-1693295627961378,000003BD,false,Rx,0,8,14,04,0D,00,00,00,00,00,
-1693295627951352,000003BE,false,Rx,0,8,00,00,00,80,00,00,00,00,
-1693295627891422,000003B8,false,Rx,0,8,64,02,3A,00,02,00,3E,AE,
-1693295627881438,000003BA,false,Rx,0,8,2E,2E,3D,33,3D,3D,00,00,
-1693295627871497,000003BC,false,Rx,0,8,2E,2E,52,34,16,CB,00,00,
-1693295627861599,000003BD,false,Rx,0,8,14,04,0D,00,00,00,00,00,
-1693295627851531,000003BE,false,Rx,0,8,00,00,00,80,00,00,00,00,
-1693295627791118,000003B8,false,Rx,0,8,64,02,33,00,02,00,3E,AE,
-1693295627781647,000003BA,false,Rx,0,8,2E,2E,3D,33,3D,3D,00,00,
-1693295627771621,000003BC,false,Rx,0,8,2E,2E,52,21,14,11,00,00,
-1693295627761723,000003BD,false,Rx,0,8,14,04,0D,00,00,00,00,00,
-1693295627751697,000003BE,false,Rx,0,8,00,00,00,80,00,00,00,00,
-1693295627691583,000003B8,false,Rx,0,8,64,02,33,00,02,00,3E,AE,
-1693295627681771,000003BA,false,Rx,0,8,2E,2E,3D,33,3D,3D,00,00,
-1693295627671745,000003BC,false,Rx,0,8,2E,2E,52,21,14,11,00,00,
-1693295627661847,000003BD,false,Rx,0,8,14,04,0D,00,00,00,00,00,
-1693295627651820,000003BE,false,Rx,0,8,00,00,00,80,00,00,00,00,
-1693295627591750,000003B8,false,Rx,0,8,64,02,33,00,02,00,3E,AE,
-1693295627581937,000003BA,false,Rx,0,8,2E,2E,3D,33,3D,3D,00,00,
-1693295627571868,000003BC,false,Rx,0,8,2E,2E,52,21,14,11,00,00,
-1693295627562013,000003BD,false,Rx,0,8,14,04,0D,00,00,00,00,00,
-1693295627551944,000003BE,false,Rx,0,8,00,00,00,80,00,00,00,00,
-1693295627491873,000003B8,false,Rx,0,8,64,02,2A,00,02,00,3E,AE,
-1693295627481890,000003BA,false,Rx,0,8,2E,2E,3D,33,3D,3D,00,00,
-1693295627472034,000003BC,false,Rx,0,8,2E,2E,52,0D,10,64,00,00,
-1693295627461966,000003BD,false,Rx,0,8,14,04,0D,00,00,00,00,00,
-1693295627452068,000003BE,false,Rx,0,8,00,00,00,80,00,00,00,00,
-1693295627391954,000003B8,false,Rx,0,8,64,02,2A,00,02,00,3E,AE,
-1693295627382141,000003BA,false,Rx,0,8,2E,2E,3D,33,3D,3D,00,00,
-1693295627372115,000003BC,false,Rx,0,8,2E,2E,52,0D,10,64,00,00,
-1693295627362004,000003BD,false,Rx,0,8,14,04,0D,00,00,00,00,00,
-1693295627351978,000003BE,false,Rx,0,8,00,00,00,80,00,00,00,00,
-1693295627292078,000003B8,false,Rx,0,8,64,02,2A,00,02,00,3E,AE,
-1693295627282052,000003BA,false,Rx,0,8,2E,2E,3D,33,3D,3D,00,00,
-1693295627271940,000003BC,false,Rx,0,8,2E,2E,52,0D,10,64,00,00,
-1693295627262085,000003BD,false,Rx,0,8,14,04,0D,00,00,00,00,00,
-1693295627252101,000003BE,false,Rx,0,8,00,00,00,80,00,00,00,00,
-1693295627192073,000003B8,false,Rx,0,8,64,02,23,00,02,00,3E,AE,
-1693295627182175,000003BA,false,Rx,0,8,2E,2E,3D,33,3D,3D,00,00,
-1693295627172234,000003BC,false,Rx,0,8,2E,2E,51,FF,0D,A9,00,00,
-1693295627162080,000003BD,false,Rx,0,8,14,04,0D,00,00,00,00,00,
-1693295627152225,000003BE,false,Rx,0,8,00,00,00,80,00,00,00,00,
-1693295627092154,000003B8,false,Rx,0,8,64,02,23,00,02,00,3E,AE,
-1693295627082213,000003BA,false,Rx,0,8,2E,2E,3D,33,3D,3D,00,00,
-1693295627072273,000003BC,false,Rx,0,8,2E,2E,51,FF,0D,A9,00,00,
-1693295627062204,000003BD,false,Rx,0,8,14,04,0D,00,00,00,00,00,
-1693295627052221,000003BE,false,Rx,0,8,00,00,00,80,00,00,00,00,
-1693295626992320,000003B8,false,Rx,0,8,64,02,23,00,02,00,3E,AE,
-1693295626982209,000003BA,false,Rx,0,8,2E,2E,3D,33,3D,3D,00,00,
-1693295626972354,000003BC,false,Rx,0,8,2E,2E,51,F2,0A,B1,00,00,
-1693295626962413,000003BD,false,Rx,0,8,14,04,0D,00,00,00,00,00,
-1693295626952387,000003BE,false,Rx,0,8,00,00,00,80,00,00,00,00,
-1693295626892243,000003B8,false,Rx,0,8,64,02,1B,00,02,00,3E,AE,
-1693295626882431,000003BA,false,Rx,0,8,2E,2E,3D,33,3D,3D,00,00,
-1693295626872490,000003BC,false,Rx,0,8,2E,2E,51,F2,0A,B1,00,00,
-1693295626862251,000003BD,false,Rx,0,8,14,04,0D,00,00,00,00,00,
-1693295626852395,000003BE,false,Rx,0,8,00,00,00,80,00,00,00,00,
-1693295626792239,000003B8,false,Rx,0,8,64,02,1B,00,02,00,3E,1E,
-1693295626782085,000003BA,false,Rx,0,8,2E,2E,3D,33,3D,3D,00,00,
-1693295626772357,000003BC,false,Rx,0,8,2E,2E,51,F2,0A,B1,00,00,
-1693295626762459,000003BD,false,Rx,0,8,14,04,0D,00,00,00,00,00,
-1693295626752476,000003BE,false,Rx,0,8,00,00,00,80,00,00,00,00,
-1693295626692234,000003B8,false,Rx,0,8,64,02,14,00,02,00,3E,1E,
-1693295626682336,000003BA,false,Rx,0,8,2E,2E,3D,33,3D,3D,00,00,
-1693295626672396,000003BC,false,Rx,0,8,2E,2E,51,F0,07,BA,00,00,
-1693295626662498,000003BD,false,Rx,0,8,14,04,0D,00,00,00,00,00,
-1693295626652344,000003BE,false,Rx,0,8,00,00,00,80,00,00,00,00,
-1693295626592486,000003B8,false,Rx,0,8,64,02,14,00,02,00,3E,1E,
-1693295626582545,000003BA,false,Rx,0,8,2E,2E,3D,33,3D,3D,00,00,
-1693295626572647,000003BC,false,Rx,0,8,2E,2E,51,F0,07,BA,00,00,
-1693295626562493,000003BD,false,Rx,0,8,14,04,0D,00,00,00,00,00,
-1693295626552595,000003BE,false,Rx,0,8,00,00,00,80,00,00,00,00,
-1693295626492652,000003B8,false,Rx,0,8,64,02,14,00,02,00,3E,1E,
-1693295626482754,000003BA,false,Rx,0,8,2E,2E,3D,33,3D,3D,00,00,
-1693295626472771,000003BC,false,Rx,0,8,2E,2E,51,F0,07,BA,00,00,
-1693295626462702,000003BD,false,Rx,0,8,14,04,0D,00,00,00,00,00,
-1693295626452719,000003BE,false,Rx,0,8,00,00,00,80,00,00,00,00,
-1693295626392733,000003B8,false,Rx,0,8,64,02,0A,00,02,00,3E,1E,
-1693295626382835,000003BA,false,Rx,0,8,2E,2E,3D,33,3D,3D,00,00,
-1693295626372468,000003BC,false,Rx,0,8,2E,2E,51,EC,03,D0,00,00,
-1693295626362954,000003BD,false,Rx,0,8,14,04,0D,00,00,00,00,00,
-1693295626352800,000003BE,false,Rx,0,8,00,00,00,80,00,00,00,00,
-1693295626292942,000003B8,false,Rx,0,8,64,02,0A,00,02,00,3E,1E,
-1693295626283044,000003BA,false,Rx,0,8,2E,2E,3D,33,3D,3D,00,00,
-1693295626272975,000003BC,false,Rx,0,8,2E,2E,51,EC,03,D0,00,00,
-1693295626262779,000003BD,false,Rx,0,8,14,04,0D,00,00,00,00,00,
-1693295626253009,000003BE,false,Rx,0,8,00,00,00,80,00,00,00,00,
-1693295626192852,000003B8,false,Rx,0,8,64,02,0A,00,02,00,3B,1E,
-1693295626182954,000003BA,false,Rx,0,8,2E,2E,3D,33,3D,3D,00,00,
-1693295626173142,000003BC,false,Rx,0,8,2E,2E,51,EC,03,D0,00,00,
-1693295626163030,000003BD,false,Rx,0,8,14,04,0D,00,00,00,00,00,
-1693295626152919,000003BE,false,Rx,0,8,00,00,00,80,00,00,00,00,
-1693295626093061,000003B8,false,Rx,0,8,64,02,03,00,02,00,3B,1E,
-1693295626083121,000003BA,false,Rx,0,8,2E,2E,3D,33,3D,3D,00,00,
-1693295626073180,000003BC,false,Rx,0,8,2E,2E,51,D9,01,52,00,00,
-1693295626063196,000003BD,false,Rx,0,8,14,04,0D,00,00,00,00,00,
-1693295626053128,000003BE,false,Rx,0,8,00,00,00,80,00,00,00,00,
-1693295625993099,000003B8,false,Rx,0,8,64,02,03,00,02,00,3B,1E,
-1693295625983287,000003BA,false,Rx,0,8,2E,2E,3D,33,3D,3D,00,00,
-1693295625973218,000003BC,false,Rx,0,8,2E,2E,51,D9,01,52,00,00,
-1693295625963405,000003BD,false,Rx,0,8,14,04,0D,00,00,00,00,00,
-1693295625953422,000003BE,false,Rx,0,8,00,00,00,80,00,00,00,00,
-1693295625893292,000003B8,false,Rx,0,8,64,02,03,00,02,00,3B,1E,
-1693295625883437,000003BA,false,Rx,0,8,2E,2E,3D,33,3D,3D,00,00,
-1693295625873539,000003BC,false,Rx,0,8,2E,2E,51,D5,00,D9,00,00,
-1693295625863385,000003BD,false,Rx,0,8,14,04,0D,00,00,00,00,00,
-1693295625853017,000003BE,false,Rx,0,8,00,00,00,80,00,00,00,00,
-1693295625793416,000003B8,false,Rx,0,8,64,02,02,00,02,00,3B,1E,
-1693295625783432,000003BA,false,Rx,0,8,2E,2E,3D,33,3D,3D,00,00,
-1693295625773492,000003BC,false,Rx,0,8,2E,2E,51,D5,00,D9,00,00,
-1693295625763551,000003BD,false,Rx,0,8,14,04,0D,00,00,00,00,00,
-1693295625753439,000003BE,false,Rx,0,8,00,00,00,80,00,00,00,00,
-1693295625693539,000003B8,false,Rx,0,8,64,02,02,00,02,00,36,1E,
-1693295625683599,000003BA,false,Rx,0,8,2E,2E,3D,33,3D,3D,00,00,
-1693295625673658,000003BC,false,Rx,0,8,2E,2E,51,D5,00,D9,00,00,
-1693295625663589,000003BD,false,Rx,0,8,14,04,0D,00,00,00,00,00,
-1693295625653606,000003BE,false,Rx,0,8,00,00,00,80,00,00,00,00,
-1693295625593321,000003B8,false,Rx,0,8,64,02,02,00,02,00,36,1E,
-1693295625583850,000003BA,false,Rx,0,8,2E,2E,3D,33,3D,3D,00,00,
-1693295625573696,000003BC,false,Rx,0,8,2E,2E,51,C2,00,BA,00,00,
-1693295625563798,000003BD,false,Rx,0,8,14,04,0D,00,00,00,00,00,
-1693295625553217,000003BE,false,Rx,0,8,00,00,00,80,00,00,00,00,
-1693295625493829,000003B8,false,Rx,0,8,64,02,02,00,02,00,36,1E,
-1693295625483760,000003BA,false,Rx,0,8,2E,2E,3D,33,3D,3D,00,00,
-1693295625473862,000003BC,false,Rx,0,8,2E,2E,51,C2,00,BA,00,00,
-1693295625463922,000003BD,false,Rx,0,8,14,04,0D,00,00,00,00,00,
-1693295625453810,000003BE,false,Rx,0,8,00,00,00,80,00,00,00,00,
-1693295625394038,000003B8,false,Rx,0,8,64,02,02,00,02,00,36,1E,
-1693295625384097,000003BA,false,Rx,0,8,2E,2E,3D,33,3D,3D,00,00,
-1693295625373986,000003BC,false,Rx,0,8,2E,2E,51,C2,00,BA,00,00,
-1693295625364130,000003BD,false,Rx,0,8,14,04,0D,00,00,00,00,00,
-1693295625354104,000003BE,false,Rx,0,8,00,00,00,80,00,00,00,00,
-1693295625293607,000003B8,false,Rx,0,8,64,02,02,00,02,00,36,1E,
-1693295625284135,000003BA,false,Rx,0,8,2E,2E,3D,33,3D,3D,00,00,
-1693295625274152,000003BC,false,Rx,0,8,2E,2E,51,C1,00,BA,00,00,
-1693295625264254,000003BD,false,Rx,0,8,14,04,0D,00,00,00,00,00,
