Time Stamp,ID,Extended,Dir,Bus,LEN,D1,D2,D3,D4,D5,D6,D7,D8
-1693295655175277,000003B8,false,Rx,0,8,64,00,00,00,00,00,00,12,
-1693295655165379,000003BA,false,Rx,0,8,7E,7E,41,41,41,41,00,00,
-1693295655155395,000003BC,false,Rx,0,8,7E,7E,00,00,00,00,00,00,
-1693295655145497,000003BD,false,Rx,0,8,14,04,0D,00,00,00,00,00,
-1693295655135386,000003BE,false,Rx,0,8,00,00,00,81,00,00,00,00,
-1693295655075443,000003B8,false,Rx,0,8,64,00,00,00,00,00,00,12,
-1693295655065289,000003BA,false,Rx,0,8,7E,7E,41,41,41,41,00,00,
-1693295655055562,000003BC,false,Rx,0,8,7E,7E,00,00,00,00,00,00,
-1693295655045664,000003BD,false,Rx,0,8,14,04,0D,00,00,00,00,00,
-1693295655035552,000003BE,false,Rx,0,8,00,00,00,81,00,00,00,00,
-1693295654975567,000003B8,false,Rx,0,8,64,00,00,00,00,00,00,12,
-1693295654965242,000003BA,false,Rx,0,8,7E,7E,41,41,41,41,00,00,
-1693295654955728,000003BC,false,Rx,0,8,7E,7E,00,00,00,00,00,00,
-1693295654945830,000003BD,false,Rx,0,8,14,04,0D,00,00,00,00,00,
-1693295654935676,000003BE,false,Rx,0,8,00,00,00,81,00,00,00,00,
-1693295654875733,000003B8,false,Rx,0,8,64,00,00,00,00,00,00,12,
-1693295654865195,000003BA,false,Rx,0,8,7E,7E,41,41,41,41,00,00,
-1693295654855851,000003BC,false,Rx,0,8,7E,7E,00,00,00,00,00,00,
-1693295654845911,000003BD,false,Rx,0,8,14,04,0D,00,00,00,00,00,
-1693295654835799,000003BE,false,Rx,0,8,00,00,00,81,00,00,00,00,
-1693295654775856,000003B8,false,Rx,0,8,64,00,00,00,00,00,00,12,
-1693295654765958,000003BA,false,Rx,0,8,7E,7E,41,41,41,41,00,00,
-1693295654755975,000003BC,false,Rx,0,8,7E,7E,00,00,00,00,00,00,
-1693295654745864,000003BD,false,Rx,0,8,14,04,0D,00,00,00,00,00,
-1693295654735966,000003BE,false,Rx,0,8,00,00,00,81,00,00,00,00,
-1693295654676023,000003B8,false,Rx,0,8,64,00,00,00,00,00,00,12,
-1693295654666167,000003BA,false,Rx,0,8,7E,7E,41,41,41,41,00,00,
-1693295654656184,000003BC,false,Rx,0,8,7E,7E,00,00,00,00,00,00,
-1693295654645859,000003BD,false,Rx,0,8,14,04,0D,00,00,00,00,00,
-1693295654636174,000003BE,false,Rx,0,8,00,00,00,81,00,00,00,00,
-1693295654576189,000003B8,false,Rx,0,8,64,00,00,00,00,00,00,12,
-1693295654566333,000003BA,false,Rx,0,8,7E,7E,41,41,41,41,00,00,
-1693295654556350,000003BC,false,Rx,0,8,7E,7E,00,00,00,00,00,00,
-1693295654545855,000003BD,false,Rx,0,8,14,04,0D,00,00,00,00,00,
-1693295654536341,000003BE,false,Rx,0,8,00,00,00,81,00,00,00,00,
-1693295654476355,000003B8,false,Rx,0,8,64,00,00,00,00,00,00,12,
-1693295654466500,000003BA,false,Rx,0,8,7E,7F,41,41,41,41,00,00,
-1693295654456516,000003BC,false,Rx,0,8,7E,7F,00,00,00,00,00,00,
-1693295654445808,000003BD,false,Rx,0,8,14,04,0D,00,00,00,00,00,
-1693295654436522,000003BE,false,Rx,0,8,00,00,00,81,00,00,00,00,
-1693295654376579,000003B8,false,Rx,0,8,64,00,00,00,00,00,00,12,
-1693295654366724,000003BA,false,Rx,0,8,7E,7F,41,41,41,41,00,00,
-1693295654356698,000003BC,false,Rx,0,8,7E,7F,00,00,00,00,00,00,
-1693295654346629,000003BD,false,Rx,0,8,14,04,0D,00,00,00,00,00,
-1693295654336646,000003BE,false,Rx,0,8,00,00,00,81,00,00,00,00,
-1693295654276063,000003B8,false,Rx,0,8,64,00,00,00,00,00,38,12,
-1693295654266805,000003BA,false,Rx,0,8,7E,7F,41,41,41,41,00,00,
-1693295654256864,000003BC,false,Rx,0,8,7E,7F,00,00,00,00,00,00,
-1693295654246838,000003BD,false,Rx,0,8,14,04,0D,00,00,00,00,00,
-1693295654236727,000003BE,false,Rx,0,8,00,00,00,81,00,00,00,00,
-1693295654176826,000003B8,false,Rx,0,8,00,00,00,00,00,00,38,12,
-1693295654166886,000003BA,false,Rx,0,8,7E,7E,41,41,41,41,00,00,
-1693295654156817,000003BC,false,Rx,0,8,7E,7E,00,00,00,00,00,00,
-1693295654146492,000003BD,false,Rx,0,8,14,04,0D,00,00,00,00,00,
-1693295654136850,000003BE,false,Rx,0,8,00,00,00,81,00,00,00,00,
-1693295654076865,000003B8,false,Rx,0,8,00,00,00,00,00,00,38,12,
-1693295654066497,000003BA,false,Rx,0,8,7E,7E,41,41,41,41,00,00,
-1693295654057069,000003BC,false,Rx,0,8,7E,7E,00,00,00,00,00,00,
-1693295654047128,000003BD,false,Rx,0,8,14,04,0D,00,00,00,00,00,
-1693295654037102,000003BE,false,Rx,0,8,00,00,00,81,00,00,00,00,
-1693295653976946,000003B8,false,Rx,0,8,00,00,01,00,00,00,38,12,
-1693295653967090,000003BA,false,Rx,0,8,7E,7F,41,41,41,41,00,00,
-1693295653957192,000003BC,false,Rx,0,8,7E,7F,02,1A,00,3C,00,00,
-1693295653947124,000003BD,false,Rx,0,8,14,04,0D,00,00,00,00,00,
-1693295653936927,000003BE,false,Rx,0,8,00,00,00,81,00,00,00,00,
-1693295653877112,000003B8,false,Rx,0,8,00,00,01,00,00,00,38,12,
-1693295653867086,000003BA,false,Rx,0,8,7E,7E,41,41,41,41,00,00,
-1693295653857273,000003BC,false,Rx,0,8,7E,7E,02,1A,00,3C,00,00,
-1693295653847247,000003BD,false,Rx,0,8,14,04,0D,00,00,00,00,00,
-1693295653837221,000003BE,false,Rx,0,8,00,00,00,81,00,00,00,00,
-1693295653777150,000003B8,false,Rx,0,8,00,00,01,00,00,00,38,12,
-1693295653767337,000003BA,false,Rx,0,8,7E,7F,2D,25,2F,31,00,00,
-1693295653757226,000003BC,false,Rx,0,8,7E,7F,02,1A,00,3C,00,00,
-1693295653746731,000003BD,false,Rx,0,8,14,04,0D,00,00,00,00,00,
-1693295653737387,000003BE,false,Rx,0,8,00,00,00,81,00,00,00,00,
-1693295653677316,000003B8,false,Rx,0,8,00,00,01,00,00,00,38,12,
-1693295653666693,000003BA,false,Rx,0,8,7E,7F,2D,25,2F,31,00,00,
-1693295653657392,000003BC,false,Rx,0,8,7E,7F,02,1A,00,3C,00,00,
-1693295653647324,000003BD,false,Rx,0,8,14,04,0D,00,00,00,00,00,
-1693295653637298,000003BE,false,Rx,0,8,00,00,00,81,00,00,00,00,
-1693295653577312,000003B8,false,Rx,0,8,00,00,01,00,04,00,89,12,
-1693295653567201,000003BA,false,Rx,0,8,7E,7E,2D,25,2F,31,00,00,
-1693295653557303,000003BC,false,Rx,0,8,7E,7E,02,1A,00,3C,00,00,
-1693295653547447,000003BD,false,Rx,0,8,14,04,0D,00,00,00,00,00,
-1693295653536824,000003BE,false,Rx,0,8,00,00,00,81,00,00,00,00,
-1693295653477350,000003B8,false,Rx,0,8,00,00,01,00,04,00,89,12,
-1693295653467452,000003BA,false,Rx,0,8,7E,7E,2D,25,2F,31,00,00,
-1693295653457383,000003BC,false,Rx,0,8,7E,7E,02,1A,00,3C,00,00,
-1693295653447315,000003BD,false,Rx,0,8,14,04,0D,00,00,00,00,00,
-1693295653437534,000003BE,false,Rx,0,8,00,00,00,81,00,00,00,00,
-1693295653377421,000003B8,false,Rx,0,8,00,00,01,00,04,00,89,12,
-1693295653367608,000003BA,false,Rx,0,8,7E,7E,2D,25,2F,31,00,00,
-1693295653357326,000003BC,false,Rx,0,8,7E,7E,02,1A,00,3C,00,00,
-1693295653347556,000003BD,false,Rx,0,8,14,04,0D,00,00,00,00,00,
-1693295653337701,000003BE,false,Rx,0,8,00,00,00,81,00,00,00,00,
-1693295653277203,000003B8,false,Rx,0,8,00,00,01,00,04,00,89,12,
-1693295653267518,000003BA,false,Rx,0,8,7E,7F,30,28,32,34,00,00,
-1693295653257620,000003BC,false,Rx,0,8,7E,7F,02,1A,00,3C,00,00,
-1693295653247466,000003BD,false,Rx,0,8,14,04,0D,00,00,00,00,00,
-1693295653237611,000003BE,false,Rx,0,8,00,00,00,81,00,00,00,00,
-1693295653177540,000003B8,false,Rx,0,8,00,00,01,00,04,00,89,12,
-1693295653167599,000003BA,false,Rx,0,8,7E,7F,30,28,32,34,00,00,
-1693295653157531,000003BC,false,Rx,0,8,7E,7F,02,1A,00,3C,00,00,
-1693295653147504,000003BD,false,Rx,0,8,14,04,0D,00,00,00,00,00,
-1693295653137521,000003BE,false,Rx,0,8,00,00,00,81,00,00,00,00,
-1693295653077664,000003B8,false,Rx,0,8,00,00,01,00,04,00,89,12,
-1693295653067211,000003BA,false,Rx,0,8,7E,7F,30,28,32,34,00,00,
-1693295653057782,000003BC,false,Rx,0,8,7E,7F,02,1A,00,3C,00,00,
-1693295653047799,000003BD,false,Rx,0,8,14,04,0D,00,00,00,00,00,
-1693295653037730,000003BE,false,Rx,0,8,00,00,00,81,00,00,00,00,
-1693295652977830,000003B8,false,Rx,0,8,00,00,01,00,04,00,89,12,
-1693295652967761,000003BA,false,Rx,0,8,7E,7E,30,28,32,34,00,00,
-1693295652957778,000003BC,false,Rx,0,8,7E,7E,02,1A,00,3C,00,00,
-1693295652947794,000003BD,false,Rx,0,8,14,04,0D,00,00,00,00,00,
-1693295652937470,000003BE,false,Rx,0,8,00,00,00,81,00,00,00,00,
-1693295652877953,000003B8,false,Rx,0,8,00,02,01,00,04,00,89,12,
-1693295652867970,000003BA,false,Rx,0,8,7E,7F,30,28,32,34,00,00,
-1693295652857389,000003BC,false,Rx,0,8,7E,7F,02,1A,00,3C,00,00,
-1693295652848131,000003BD,false,Rx,0,8,14,04,0D,00,00,00,00,00,
-1693295652838062,000003BE,false,Rx,0,8,00,00,00,81,00,00,00,00,
-1693295652778120,000003B8,false,Rx,0,8,00,02,01,00,04,00,89,12,
-1693295652768094,000003BA,false,Rx,0,8,7E,7F,30,28,32,34,00,00,
-1693295652758195,000003BC,false,Rx,0,8,7E,7F,02,1A,00,3C,00,00,
-1693295652748169,000003BD,false,Rx,0,8,14,04,0D,00,00,00,00,00,
-1693295652738101,000003BE,false,Rx,0,8,00,00,00,80,00,00,00,00,
-1693295652678030,000003B8,false,Rx,0,8,00,02,01,00,04,00,89,12,
-1693295652668174,000003BA,false,Rx,0,8,7E,7F,32,2A,34,35,00,00,
-1693295652658191,000003BC,false,Rx,0,8,7E,7F,02,1A,00,3C,00,00,
-1693295652647909,000003BD,false,Rx,0,8,14,04,0D,00,00,00,00,00,
-1693295652638310,000003BE,false,Rx,0,8,00,00,00,80,00,00,00,00,
-1693295652578239,000003B8,false,Rx,0,8,00,02,01,00,04,00,89,12,
-1693295652567829,000003BA,false,Rx,0,8,7E,7E,32,2A,34,35,00,00,
-1693295652558443,000003BC,false,Rx,0,8,7E,7E,02,1A,00,3C,00,00,
-1693295652548459,000003BD,false,Rx,0,8,14,04,0D,00,00,00,00,00,
-1693295652538433,000003BE,false,Rx,0,8,00,00,00,80,00,00,00,00,
-1693295652478490,000003B8,false,Rx,0,8,00,02,01,00,04,00,89,12,
-1693295652468592,000003BA,false,Rx,0,8,7E,7F,32,2A,34,35,00,00,
-1693295652458566,000003BC,false,Rx,0,8,7E,7F,02,1A,00,3C,00,00,
-1693295652448626,000003BD,false,Rx,0,8,14,04,0D,00,00,00,00,00,
-1693295652438015,000003BE,false,Rx,0,8,00,00,00,80,00,00,00,00,
-1693295652378456,000003B8,false,Rx,0,8,00,02,01,00,03,00,1D,12,
-1693295652368515,000003BA,false,Rx,0,8,7E,7F,32,2A,34,35,00,00,
-1693295652358574,000003BC,false,Rx,0,8,7E,7F,02,1A,00,5F,00,00,
-1693295652348591,000003BD,false,Rx,0,8,14,04,0D,00,00,00,00,00,
-1693295652338480,000003BE,false,Rx,0,8,00,00,00,80,00,00,00,00,
-1693295652278494,000003B8,false,Rx,0,8,00,02,01,00,03,00,1D,12,
-1693295652268681,000003BA,false,Rx,0,8,7E,7E,33,2B,35,36,00,00,
-1693295652258442,000003BC,false,Rx,0,8,7E,7E,02,1A,00,5F,00,00,
-1693295652248629,000003BD,false,Rx,0,8,14,04,0D,00,00,00,00,00,
-1693295652238731,000003BE,false,Rx,0,8,00,00,00,80,00,00,00,00,
-1693295652178106,000003B8,false,Rx,0,8,00,02,01,00,02,00,1D,12,
-1693295652168890,000003BA,false,Rx,0,8,7E,7E,33,2B,35,36,00,00,
-1693295652158864,000003BC,false,Rx,0,8,7E,7E,02,1A,00,5F,00,00,
-1693295652148881,000003BD,false,Rx,0,8,14,04,0D,00,00,00,00,00,
-1693295652138770,000003BE,false,Rx,0,8,00,00,00,80,00,00,00,00,
-1693295652078741,000003B8,false,Rx,0,8,00,02,01,00,02,00,1D,12,
-1693295652068929,000003BA,false,Rx,0,8,7E,7E,33,2B,35,36,00,00,
-1693295652059031,000003BC,false,Rx,0,8,7E,7E,02,1A,00,5F,00,00,
-1693295652049090,000003BD,false,Rx,0,8,14,04,0D,00,00,00,00,00,
-1693295652038978,000003BE,false,Rx,0,8,00,00,00,80,00,00,00,00,
-1693295651978865,000003B8,false,Rx,0,8,00,02,01,00,02,00,1D,12,
-1693295651969095,000003BA,false,Rx,0,8,7E,7F,34,2C,36,37,00,00,
-1693295651959026,000003BC,false,Rx,0,8,7E,7F,02,1A,00,5F,00,00,
-1693295651948787,000003BD,false,Rx,0,8,14,04,0D,00,00,00,00,00,
-1693295651938974,000003BE,false,Rx,0,8,00,00,00,80,00,00,00,00,
-1693295651879116,000003B8,false,Rx,0,8,00,02,01,00,02,00,1D,12,
-1693295651868536,000003BA,false,Rx,0,8,7E,7E,34,2C,36,37,00,00,
-1693295651859107,000003BC,false,Rx,0,8,7E,7E,02,1A,00,5F,00,00,
-1693295651849252,000003BD,false,Rx,0,8,14,04,0D,00,00,00,00,00,
-1693295651839098,000003BE,false,Rx,0,8,00,00,00,80,00,00,00,00,
-1693295651779112,000003B8,false,Rx,0,8,00,02,01,00,02,00,1D,12,
-1693295651769129,000003BA,false,Rx,0,8,7E,7F,34,2C,36,37,00,00,
-1693295651759316,000003BC,false,Rx,0,8,7E,7F,02,1A,00,5F,00,00,
-1693295651749247,000003BD,false,Rx,0,8,14,04,0D,00,00,00,00,00,
-1693295651738667,000003BE,false,Rx,0,8,00,00,00,80,00,00,00,00,
-1693295651679406,000003B8,false,Rx,0,8,00,02,01,00,02,00,1D,12,
-1693295651669423,000003BA,false,Rx,0,8,7E,7F,34,2D,37,37,00,00,
-1693295651659397,000003BC,false,Rx,0,8,7E,7F,02,1A,00,5F,00,00,
-1693295651649413,000003BD,false,Rx,0,8,14,04,0D,00,00,00,00,00,
-1693295651639302,000003BE,false,Rx,0,8,00,00,00,80,00,00,00,00,
-1693295651579572,000003B8,false,Rx,0,8,00,02,01,00,02,00,1D,12,
-1693295651569546,000003BA,false,Rx,0,8,7E,7E,34,2D,37,37,00,00,
-1693295651558923,000003BC,false,Rx,0,8,7E,7E,02,1A,00,5F,00,00,
-1693295651549537,000003BD,false,Rx,0,8,14,04,0D,00,00,00,00,00,
-1693295651539639,000003BE,false,Rx,0,8,00,00,00,80,00,00,00,00,
-1693295651479696,000003B8,false,Rx,0,8,00,02,01,00,02,00,1D,12,
-1693295651469755,000003BA,false,Rx,0,8,7E,7F,34,2D,37,37,00,00,
-1693295651459644,000003BC,false,Rx,0,8,7E,7F,02,1A,00,5F,00,00,
-1693295651449831,000003BD,false,Rx,0,8,14,04,0D,00,00,00,00,00,
-1693295651439647,000003BE,false,Rx,0,8,00,00,00,80,00,00,00,00,
-1693295651379235,000003B8,false,Rx,0,8,00,02,01,00,02,00,1D,12,
-1693295651369849,000003BA,false,Rx,0,8,7E,7F,35,2D,37,37,00,00,
-1693295651359738,000003BC,false,Rx,0,8,7E,7F,02,1A,00,5F,00,00,
-1693295651349925,000003BD,false,Rx,0,8,14,04,0D,00,00,00,00,00,
-1693295651339600,000003BE,false,Rx,0,8,00,00,00,80,00,00,00,00,
-1693295651279700,000003B8,false,Rx,0,8,00,02,01,00,02,00,1D,12,
-1693295651269930,000003BA,false,Rx,0,8,7E,7F,35,2D,37,37,00,00,
-1693295651259776,000003BC,false,Rx,0,8,7E,7F,02,1A,00,5F,00,00,
-1693295651249195,000003BD,false,Rx,0,8,14,04,0D,00,00,00,00,00,
-1693295651239852,000003BE,false,Rx,0,8,00,00,00,80,00,00,00,00,
-1693295651179951,000003B8,false,Rx,0,8,00,02,01,00,02,00,1D,12,
-1693295651169968,000003BA,false,Rx,0,8,7E,7F,35,2D,37,37,00,00,
-1693295651160027,000003BC,false,Rx,0,8,7E,7F,02,1A,00,5F,00,00,
-1693295651149788,000003BD,false,Rx,0,8,14,04,0D,00,00,00,00,00,
-1693295651139847,000003BE,false,Rx,0,8,00,00,00,80,00,00,00,00,
-1693295651079862,000003B8,false,Rx,0,8,00,02,01,00,02,00,1D,12,
-1693295651069750,000003BA,false,Rx,0,8,7E,7E,35,2D,37,37,00,00,
-1693295651060066,000003BC,false,Rx,0,8,7E,7E,02,1A,00,5F,00,00,
-1693295651050125,000003BD,false,Rx,0,8,14,04,0D,00,00,00,00,00,
-1693295651040099,000003BE,false,Rx,0,8,00,00,00,80,00,00,00,00,
-1693295650980156,000003B8,false,Rx,0,8,00,02,01,00,02,00,1D,12,
-1693295650970215,000003BA,false,Rx,0,8,7E,7F,35,2D,37,37,00,00,
-1693295650960232,000003BC,false,Rx,0,8,7E,7F,02,1A,00,5F,00,00,
-1693295650950120,000003BD,false,Rx,0,8,14,04,0D,00,00,00,00,00,
-1693295650939582,000003BE,false,Rx,0,8,00,00,00,80,00,00,00,00,
-1693295650880322,000003B8,false,Rx,0,8,00,02,01,00,02,00,1D,12,
-1693295650870424,000003BA,false,Rx,0,8,7E,7E,35,2D,37,38,00,00,
-1693295650860355,000003BC,false,Rx,0,8,7E,7E,02,1A,00,5F,00,00,
-1693295650850329,000003BD,false,Rx,0,8,14,04,0D,00,00,00,00,00,
-1693295650840047,000003BE,false,Rx,0,8,00,00,00,80,00,00,00,00,
-1693295650780360,000003B8,false,Rx,0,8,00,02,01,00,02,00,1D,12,
-1693295650770462,000003BA,false,Rx,0,8,7E,7E,35,2D,37,38,00,00,
-1693295650759924,000003BC,false,Rx,0,8,7E,7E,02,1A,00,5F,00,00,
-1693295650750410,000003BD,false,Rx,0,8,14,04,0D,00,00,00,00,00,
-1693295650740555,000003BE,false,Rx,0,8,00,00,00,80,00,00,00,00,
-1693295650680484,000003B8,false,Rx,0,8,00,02,01,00,02,00,1D,12,
-1693295650670671,000003BA,false,Rx,0,8,7E,7E,35,2D,37,38,00,00,
-1693295650660432,000003BC,false,Rx,0,8,7E,7E,02,1A,00,5F,00,00,
-1693295650650619,000003BD,false,Rx,0,8,14,04,0D,00,00,00,00,00,
-1693295650640551,000003BE,false,Rx,0,8,00,00,00,80,00,00,00,00,
-1693295650580138,000003B8,false,Rx,0,8,00,02,01,00,02,00,1D,12,
-1693295650570539,000003BA,false,Rx,0,8,7E,7E,35,2E,38,38,00,00,
-1693295650560641,000003BC,false,Rx,0,8,7E,7E,02,1A,00,5F,00,00,
-1693295650550700,000003BD,false,Rx,0,8,14,04,0D,00,00,00,00,00,
-1693295650540589,000003BE,false,Rx,0,8,00,00,00,80,00,00,00,00,
-1693295650480689,000003B8,false,Rx,0,8,00,02,01,00,02,00,1D,12,
-1693295650470705,000003BA,false,Rx,0,8,7E,7F,35,2E,38,38,00,00,
-1693295650460850,000003BC,false,Rx,0,8,7E,7F,02,1A,00,5F,00,00,
-1693295650450269,000003BD,false,Rx,0,8,14,04,0D,00,00,00,00,00,
-1693295650440798,000003BE,false,Rx,0,8,00,00,00,80,00,00,00,00,
-1693295650380825,000003B8,false,Rx,0,8,00,02,01,00,02,00,1D,12,
-1693295650370884,000003BA,false,Rx,0,8,7E,7F,35,2E,38,38,00,00,
-1693295650360815,000003BC,false,Rx,0,8,7E,7F,02,1A,00,5F,00,00,
-1693295650350960,000003BD,false,Rx,0,8,14,04,0D,00,00,00,00,00,
-1693295650340806,000003BE,false,Rx,0,8,00,00,00,80,00,00,00,00,
-1693295650280820,000003B8,false,Rx,0,8,00,02,01,00,02,00,1D,12,
-1693295650270624,000003BA,false,Rx,0,8,7E,7F,36,2E,38,38,00,00,
-1693295650260811,000003BC,false,Rx,0,8,7E,7F,02,1A,00,5F,00,00,
-1693295650250956,000003BD,false,Rx,0,8,14,04,0D,00,00,00,00,00,
-1693295650240972,000003BE,false,Rx,0,8,00,00,00,80,00,00,00,00,
-1693295650180987,000003B8,false,Rx,0,8,00,02,01,00,02,00,1D,12,
-1693295650170961,000003BA,false,Rx,0,8,7E,7E,36,2E,38,38,00,00,
-1693295650161105,000003BC,false,Rx,0,8,7E,7E,02,1A,00,5F,00,00,
-1693295650151079,000003BD,false,Rx,0,8,14,04,0D,00,00,00,00,00,
-1693295650140584,000003BE,false,Rx,0,8,00,00,00,80,00,00,00,00,
-1693295650081153,000003B8,false,Rx,0,8,00,02,01,00,02,00,1D,12,
-1693295650071127,000003BA,false,Rx,0,8,7E,7F,36,2E,38,38,00,00,
-1693295650061101,000003BC,false,Rx,0,8,7E,7F,02,1A,00,5F,00,00,
-1693295650051245,000003BD,false,Rx,0,8,14,04,0D,00,00,00,00,00,
-1693295650040963,000003BE,false,Rx,0,8,00,00,00,80,00,00,00,00,
-1693295649981020,000003B8,false,Rx,0,8,00,02,01,00,02,00,1D,12,
-1693295649971165,000003BA,false,Rx,0,8,7E,7F,36,2E,38,38,00,00,
-1693295649960499,000003BC,false,Rx,0,8,7E,7F,02,1A,00,5F,00,00,
-1693295649951241,000003BD,false,Rx,0,8,14,04,0D,00,00,00,00,00,
-1693295649941087,000003BE,false,Rx,0,8,00,00,00,80,00,00,00,00,
-1693295649881059,000003B8,false,Rx,0,8,00,02,01,00,02,00,1D,12,
-1693295649871246,000003BA,false,Rx,0,8,7E,7F,36,2E,38,38,00,00,
-1693295649860751,000003BC,false,Rx,0,8,7E,7F,02,1A,00,5F,00,00,
-1693295649851279,000003BD,false,Rx,0,8,14,04,0D,00,00,00,00,00,
-1693295649841338,000003BE,false,Rx,0,8,00,00,00,80,00,00,00,00,
-1693295649781310,000003B8,false,Rx,0,8,00,02,01,00,02,00,1D,12,
-1693295649771455,000003BA,false,Rx,0,8,7E,7E,36,2E,38,38,00,00,
-1693295649761130,000003BC,false,Rx,0,8,7E,7E,02,1A,00,5F,00,00,
-1693295649751488,000003BD,false,Rx,0,8,14,04,0D,00,00,00,00,00,
-1693295649741206,000003BE,false,Rx,0,8,00,00,00,80,00,00,00,00,
-1693295649680581,000003B8,false,Rx,0,8,00,02,01,00,02,00,1D,12,
-1693295649671408,000003BA,false,Rx,0,8,7E,7F,36,2E,38,38,00,00,
-1693295649661467,000003BC,false,Rx,0,8,7E,7F,02,1A,00,5F,00,00,
-1693295649651441,000003BD,false,Rx,0,8,14,04,0D,00,00,00,00,00,
-1693295649641159,000003BE,false,Rx,0,8,00,00,00,80,00,00,00,00,
-1693295649581003,000003B8,false,Rx,0,8,00,02,01,00,02,00,1D,12,
-1693295649571318,000003BA,false,Rx,0,8,7E,7F,36,2E,38,38,00,00,
-1693295649561335,000003BC,false,Rx,0,8,7E,7F,02,1A,00,5F,00,00,
-1693295649551437,000003BD,false,Rx,0,8,14,04,0D,00,00,00,00,00,
-1693295649541453,000003BE,false,Rx,0,8,00,00,00,80,00,00,00,00,
-1693295649481297,000003B8,false,Rx,0,8,00,02,01,00,02,00,1D,12,
-1693295649471442,000003BA,false,Rx,0,8,7E,7F,36,2E,38,38,00,00,
-1693295649461458,000003BC,false,Rx,0,8,7E,7F,02,1A,00,5F,00,00,
-1693295649451517,000003BD,false,Rx,0,8,14,04,0D,00,00,00,00,00,
-1693295649441534,000003BE,false,Rx,0,8,00,00,00,80,00,00,00,00,
-1693295649381433,000003B8,false,Rx,0,8,00,02,01,00,02,00,1D,12,
-1693295649371535,000003BA,false,Rx,0,8,7E,7E,36,2E,38,38,00,00,
-1693295649361552,000003BC,false,Rx,0,8,7E,7E,02,1A,00,5F,00,00,
-1693295649351568,000003BD,false,Rx,0,8,14,04,0D,00,00,00,00,00,
-1693295649341628,000003BE,false,Rx,0,8,00,00,00,80,00,00,00,00,
-1693295649281685,000003B8,false,Rx,0,8,00,02,01,00,02,00,1D,12,
-1693295649271659,000003BA,false,Rx,0,8,7E,7F,36,2E,38,38,00,00,
-1693295649261846,000003BC,false,Rx,0,8,7E,7F,02,1A,00,5F,00,00,
-1693295649251180,000003BD,false,Rx,0,8,14,04,0D,00,00,00,00,00,
-1693295649241709,000003BE,false,Rx,0,8,00,00,00,80,00,00,00,00,
-1693295649181851,000003B8,false,Rx,0,8,00,02,01,00,02,00,1D,12,
-1693295649171782,000003BA,false,Rx,0,8,7E,7F,36,2E,38,38,00,00,
-1693295649161884,000003BC,false,Rx,0,8,7E,7F,02,1A,00,5F,00,00,
-1693295649151432,000003BD,false,Rx,0,8,14,04,0D,00,00,00,00,00,
-1693295649141790,000003BE,false,Rx,0,8,00,00,00,80,00,00,00,00,
-1693295649081932,000003B8,false,Rx,0,8,00,02,01,00,02,00,1D,12,
-1693295649071863,000003BA,false,Rx,0,8,7E,7F,36,2E,38,38,00,00,
-1693295649061880,000003BC,false,Rx,0,8,7E,7F,02,1A,00,5F,00,00,
-1693295649051811,000003BD,false,Rx,0,8,14,04,0D,00,00,00,00,00,
-1693295649041956,000003BE,false,Rx,0,8,00,00,00,80,00,00,00,00,
-1693295648981970,000003B8,false,Rx,0,8,00,02,01,00,02,00,1D,12,
-1693295648972115,000003BA,false,Rx,0,8,7E,7F,36,2E,38,38,00,00,
-1693295648962003,000003BC,false,Rx,0,8,7E,7F,02,1A,00,5F,00,00,
-1693295648952191,000003BD,false,Rx,0,8,14,04,0D,00,00,00,00,00,
-1693295648942122,000003BE,false,Rx,0,8,00,00,00,80,00,00,00,00,
-1693295648882136,000003B8,false,Rx,0,8,00,02,01,00,02,00,1D,12,
-1693295648871641,000003BA,false,Rx,0,8,7E,7E,36,2E,38,38,00,00,
-1693295648862170,000003BC,false,Rx,0,8,7E,7E,02,1A,00,5F,00,00,
-1693295648852144,000003BD,false,Rx,0,8,14,04,0D,00,00,00,00,00,
-1693295648842160,000003BE,false,Rx,0,8,00,00,00,80,00,00,00,00,
-1693295648782217,000003B8,false,Rx,0,8,00,02,01,00,02,00,1D,12,
-1693295648771935,000003BA,false,Rx,0,8,7E,7F,36,2E,38,38,00,00,
-1693295648762293,000003BC,false,Rx,0,8,7E,7F,02,1A,00,5F,00,00,
-1693295648752267,000003BD,false,Rx,0,8,14,04,0D,00,00,00,00,00,
-1693295648742241,000003BE,false,Rx,0,8,00,00,00,80,00,00,00,00,
-1693295648682341,000003B8,false,Rx,0,8,00,02,01,00,02,00,1D,12,
-1693295648672443,000003BA,false,Rx,0,8,7E,7E,36,2E,38,38,00,00,
-1693295648662417,000003BC,false,Rx,0,8,7E,7E,02,1A,00,5F,00,00,
-1693295648652391,000003BD,false,Rx,0,8,14,04,0D,00,00,00,00,00,
-1693295648641895,000003BE,false,Rx,0,8,00,00,00,80,00,00,00,00,
-1693295648582379,000003B8,false,Rx,0,8,00,02,01,00,02,00,1D,12,
-1693295648572524,000003BA,false,Rx,0,8,7E,7F,36,2E,38,38,00,00,
-1693295648562498,000003BC,false,Rx,0,8,7E,7F,02,1A,00,5F,00,00,
-1693295648552429,000003BD,false,Rx,0,8,14,04,0D,00,00,00,00,00,
-1693295648542147,000003BE,false,Rx,0,8,00,00,00,80,00,00,00,00,
-1693295648482375,000003B8,false,Rx,0,8,00,02,01,00,02,00,1D,12,
-1693295648472477,000003BA,false,Rx,0,8,7E,7E,36,2E,38,38,00,00,
-1693295648462451,000003BC,false,Rx,0,8,7E,7E,02,1A,00,5F,00,00,
-1693295648452553,000003BD,false,Rx,0,8,14,04,0D,00,00,00,00,00,
-1693295648442399,000003BE,false,Rx,0,8,00,00,00,80,00,00,00,00,
-1693295648382523,000003B8,false,Rx,0,8,00,02,01,00,02,00,1D,12,
-1693295648372625,000003BA,false,Rx,0,8,7E,7F,36,2E,38,38,00,00,
-1693295648362002,000003BC,false,Rx,0,8,7E,7F,02,1A,00,5F,00,00,
-1693295648352787,000003BD,false,Rx,0,8,14,04,0D,00,00,00,00,00,
-1693295648342675,000003BE,false,Rx,0,8,00,00,00,80,00,00,00,00,
-1693295648282690,000003B8,false,Rx,0,8,00,02,01,00,02,00,1D,12,
-1693295648272834,000003BA,false,Rx,0,8,7E,7F,36,2E,38,38,00,00,
-1693295648262296,000003BC,false,Rx,0,8,7E,7F,02,1A,00,5F,00,00,
-1693295648252825,000003BD,false,Rx,0,8,14,04,0D,00,00,00,00,00,
-1693295648242841,000003BE,false,Rx,0,8,00,00,00,80,00,00,00,00,
-1693295648182898,000003B8,false,Rx,0,8,00,02,01,00,02,00,1D,12,
-1693295648173043,000003BA,false,Rx,0,8,7E,7F,36,2E,38,38,00,00,
-1693295648162548,000003BC,false,Rx,0,8,7E,7F,02,1A,00,5F,00,00,
-1693295648152948,000003BD,false,Rx,0,8,14,04,0D,00,00,00,00,00,
-1693295648142965,000003BE,false,Rx,0,8,00,00,00,80,00,00,00,00,
-1693295648083022,000003B8,false,Rx,0,8,00,02,01,00,02,00,1D,12,
-1693295648073081,000003BA,false,Rx,0,8,7E,7E,36,2E,38,38,00,00,
-1693295648062970,000003BC,false,Rx,0,8,7E,7E,02,1A,00,5F,00,00,
-1693295648053157,000003BD,false,Rx,0,8,14,04,0D,00,00,00,00,00,
-1693295648043131,000003BE,false,Rx,0,8,00,00,00,80,00,00,00,00,
-1693295647982463,000003B8,false,Rx,0,8,00,02,01,00,02,00,1D,12,
-1693295647973205,000003BA,false,Rx,0,8,7E,7F,36,2E,38,38,00,00,
-1693295647963264,000003BC,false,Rx,0,8,7E,7F,02,1A,00,5F,00,00,
-1693295647953238,000003BD,false,Rx,0,8,14,04,0D,00,00,00,00,00,
-1693295647943212,000003BE,false,Rx,0,8,00,00,00,80,00,00,00,00,
-1693295647882885,000003B8,false,Rx,0,8,00,02,01,00,02,00,1D,12,
-1693295647873414,000003BA,false,Rx,0,8,7E,7F,36,2E,38,38,00,00,
-1693295647863430,000003BC,false,Rx,0,8,7E,7F,02,1A,00,5F,00,00,
-1693295647853319,000003BD,false,Rx,0,8,14,04,0D,00,00,00,00,00,
-1693295647843378,000003BE,false,Rx,0,8,00,00,00,80,00,00,00,00,
-1693295647783222,000003B8,false,Rx,0,8,00,02,01,00,02,00,1D,12,
-1693295647773580,000003BA,false,Rx,0,8,7E,7F,36,2E,38,38,00,00,
-1693295647763511,000003BC,false,Rx,0,8,7E,7F,02,1A,00,5F,00,00,
-1693295647753443,000003BD,false,Rx,0,8,14,04,0D,00,00,00,00,00,
-1693295647743587,000003BE,false,Rx,0,8,00,00,00,80,00,00,00,00,
-1693295647683559,000003B8,false,Rx,0,8,00,02,01,00,02,00,1D,12,
-1693295647673618,000003BA,false,Rx,0,8,7E,7E,36,2E,38,38,00,00,
