Time Stamp,ID,Extended,Dir,Bus,LEN,D1,D2,D3,D4,D5,D6,D7,D8
-1693295655099027,000003B8,false,Rx,0,8,64,00,00,00,00,00,00,12,
-1693295655089129,000003BA,false,Rx,0,8,7E,7F,41,41,41,41,00,00,
-1693295655079145,000003BC,false,Rx,0,8,7E,7F,00,00,00,00,00,00,
-1693295655069247,000003BD,false,Rx,0,8,14,04,0D,00,00,00,00,00,
-1693295655059136,000003BE,false,Rx,0,8,00,00,00,81,00,00,00,00,
-1693295654999193,000003B8,false,Rx,0,8,64,00,00,00,00,00,00,12,
-1693295654989039,000003BA,false,Rx,0,8,7E,7F,41,41,41,41,00,00,
-1693295654979311,000003BC,false,Rx,0,8,7E,7F,00,00,00,00,00,00,
-1693295654969413,000003BD,false,Rx,0,8,14,04,0D,00,00,00,00,00,
-1693295654959302,000003BE,false,Rx,0,8,00,00,00,81,00,00,00,00,
-1693295654899286,000003B8,false,Rx,0,8,64,00,00,00,00,00,00,12,
-1693295654888919,000003BA,false,Rx,0,8,7E,7F,41,41,41,41,00,00,
-1693295654879448,000003BC,false,Rx,0,8,7E,7F,00,00,00,00,00,00,
-1693295654869507,000003BD,false,Rx,0,8,14,04,0D,00,00,00,00,00,
-1693295654859396,000003BE,false,Rx,0,8,00,00,00,81,00,00,00,00,
-1693295654799410,000003B8,false,Rx,0,8,64,00,00,00,00,00,00,12,
-1693295654788872,000003BA,false,Rx,0,8,7E,7F,41,41,41,41,00,00,
-1693295654779571,000003BC,false,Rx,0,8,7E,7F,00,00,00,00,00,00,
-1693295654769631,000003BD,false,Rx,0,8,14,04,0D,00,00,00,00,00,
-1693295654759519,000003BE,false,Rx,0,8,00,00,00,81,00,00,00,00,
-1693295654699576,000003B8,false,Rx,0,8,64,00,00,00,00,00,00,12,
-1693295654689678,000003BA,false,Rx,0,8,7E,7F,41,41,41,41,00,00,
-1693295654679695,000003BC,false,Rx,0,8,7E,7F,00,00,00,00,00,00,
-1693295654669583,000003BD,false,Rx,0,8,14,04,0D,00,00,00,00,00,
-1693295654659685,000003BE,false,Rx,0,8,00,00,00,81,00,00,00,00,
-1693295654599743,000003B8,false,Rx,0,8,64,00,00,00,00,00,00,12,
-1693295654589887,000003BA,false,Rx,0,8,7E,7F,41,41,41,41,00,00,
-1693295654579861,000003BC,false,Rx,0,8,7E,7F,00,00,00,00,00,00,
-1693295654569579,000003BD,false,Rx,0,8,14,04,0D,00,00,00,00,00,
-1693295654559852,000003BE,false,Rx,0,8,00,00,00,81,00,00,00,00,
-1693295654499951,000003B8,false,Rx,0,8,64,00,00,00,00,00,00,12,
-1693295654490053,000003BA,false,Rx,0,8,7E,7F,41,41,41,41,00,00,
-1693295654480070,000003BC,false,Rx,0,8,7E,7F,00,00,00,00,00,00,
-1693295654469575,000003BD,false,Rx,0,8,14,04,0D,00,00,00,00,00,
-1693295654460061,000003BE,false,Rx,0,8,00,00,00,81,00,00,00,00,
-1693295654400075,000003B8,false,Rx,0,8,64,00,00,00,00,00,00,12,
-1693295654390220,000003BA,false,Rx,0,8,7E,7F,41,41,41,41,00,00,
-1693295654380236,000003BC,false,Rx,0,8,7E,7F,00,00,00,00,00,00,
-1693295654369528,000003BD,false,Rx,0,8,14,04,0D,00,00,00,00,00,
-1693295654360184,000003BE,false,Rx,0,8,00,00,00,81,00,00,00,00,
-1693295654300199,000003B8,false,Rx,0,8,64,00,00,00,00,00,00,12,
-1693295654290343,000003BA,false,Rx,0,8,7E,7F,41,41,41,41,00,00,
-1693295654280360,000003BC,false,Rx,0,8,7E,7F,00,00,00,00,00,00,
-1693295654270248,000003BD,false,Rx,0,8,14,04,0D,00,00,00,00,00,
-1693295654260308,000003BE,false,Rx,0,8,00,00,00,81,00,00,00,00,
-1693295654199810,000003B8,false,Rx,0,8,64,00,00,00,00,00,38,12,
-1693295654190467,000003BA,false,Rx,0,8,7E,7F,41,41,41,41,00,00,
-1693295654180313,000003BC,false,Rx,0,8,7E,7F,00,00,00,00,00,00,
-1693295654170500,000003BD,false,Rx,0,8,14,04,0D,00,00,00,00,00,
-1693295654160346,000003BE,false,Rx,0,8,00,00,00,81,00,00,00,00,
-1693295654100446,000003B8,false,Rx,0,8,00,00,00,00,00,00,38,12,
-1693295654090505,000003BA,false,Rx,0,8,7E,7F,41,41,41,41,00,00,
-1693295654080650,000003BC,false,Rx,0,8,7E,7F,00,00,00,00,00,00,
-1693295654070112,000003BD,false,Rx,0,8,14,04,0D,00,00,00,00,00,
-1693295654060470,000003BE,false,Rx,0,8,00,00,00,81,00,00,00,00,
-1693295654000655,000003B8,false,Rx,0,8,00,00,00,00,00,00,38,12,
-1693295653990031,000003BA,false,Rx,0,8,7E,7F,41,41,41,41,00,00,
-1693295653980645,000003BC,false,Rx,0,8,7E,7F,00,00,00,00,00,00,
-1693295653970705,000003BD,false,Rx,0,8,14,04,0D,00,00,00,00,00,
-1693295653960678,000003BE,false,Rx,0,8,00,00,00,81,00,00,00,00,
-1693295653900620,000003B8,false,Rx,0,8,00,00,01,00,00,00,38,12,
-1693295653890765,000003BA,false,Rx,0,8,7E,7F,41,41,41,41,00,00,
-1693295653880824,000003BC,false,Rx,0,8,7E,7F,39,F3,00,3C,00,00,
-1693295653870841,000003BD,false,Rx,0,8,14,04,0D,00,00,00,00,00,
-1693295653860431,000003BE,false,Rx,0,8,00,00,00,81,00,00,00,00,
-1693295653800786,000003B8,false,Rx,0,8,00,00,01,00,00,00,38,12,
-1693295653790931,000003BA,false,Rx,0,8,7E,7F,41,41,41,41,00,00,
-1693295653780692,000003BC,false,Rx,0,8,7E,7F,39,F3,00,3C,00,00,
-1693295653770879,000003BD,false,Rx,0,8,14,04,0D,00,00,00,00,00,
-1693295653760853,000003BE,false,Rx,0,8,00,00,00,81,00,00,00,00,
-1693295653700611,000003B8,false,Rx,0,8,00,00,01,00,00,00,38,12,
-1693295653691012,000003BA,false,Rx,0,8,7E,7F,2F,25,2F,31,00,00,
-1693295653680901,000003BC,false,Rx,0,8,7E,7F,39,F3,00,3C,00,00,
-1693295653670192,000003BD,false,Rx,0,8,14,04,0D,00,00,00,00,00,
-1693295653661019,000003BE,false,Rx,0,8,00,00,00,81,00,00,00,00,
-1693295653600948,000003B8,false,Rx,0,8,00,00,01,00,00,00,38,12,
-1693295653591136,000003BA,false,Rx,0,8,7E,7F,2F,25,2F,31,00,00,
-1693295653581024,000003BC,false,Rx,0,8,7E,7F,39,F3,00,3C,00,00,
-1693295653570828,000003BD,false,Rx,0,8,14,04,0D,00,00,00,00,00,
-1693295653560929,000003BE,false,Rx,0,8,00,00,00,81,00,00,00,00,
-1693295653500901,000003B8,false,Rx,0,8,00,00,01,00,04,00,89,12,
-1693295653490577,000003BA,false,Rx,0,8,7E,7F,2F,25,2F,31,00,00,
-1693295653481062,000003BC,false,Rx,0,8,7E,7F,39,F3,00,3C,00,00,
-1693295653471207,000003BD,false,Rx,0,8,14,04,0D,00,00,00,00,00,
-1693295653461138,000003BE,false,Rx,0,8,00,00,00,81,00,00,00,00,
-1693295653401153,000003B8,false,Rx,0,8,00,00,01,00,04,00,89,12,
-1693295653391255,000003BA,false,Rx,0,8,7E,7F,2F,25,2F,31,00,00,
-1693295653381143,000003BC,false,Rx,0,8,7E,7F,39,DE,00,3C,00,00,
-1693295653371288,000003BD,false,Rx,0,8,14,04,0D,00,00,00,00,00,
-1693295653360835,000003BE,false,Rx,0,8,00,00,00,81,00,00,00,00,
-1693295653301319,000003B8,false,Rx,0,8,00,00,01,00,04,00,89,12,
-1693295653291293,000003BA,false,Rx,0,8,7E,7F,2F,25,2F,31,00,00,
-1693295653280670,000003BC,false,Rx,0,8,7E,7F,39,DE,00,3C,00,00,
-1693295653271454,000003BD,false,Rx,0,8,14,04,0D,00,00,00,00,00,
-1693295653261386,000003BE,false,Rx,0,8,00,00,00,81,00,00,00,00,
-1693295653201315,000003B8,false,Rx,0,8,00,00,01,00,04,00,89,12,
-1693295653191417,000003BA,false,Rx,0,8,7E,7F,33,29,33,34,00,00,
-1693295653181305,000003BC,false,Rx,0,8,7E,7F,39,DE,00,3C,00,00,
-1693295653171535,000003BD,false,Rx,0,8,14,04,0D,00,00,00,00,00,
-1693295653161466,000003BE,false,Rx,0,8,00,00,00,81,00,00,00,00,
-1693295653101268,000003B8,false,Rx,0,8,00,00,01,00,04,00,89,12,
-1693295653091497,000003BA,false,Rx,0,8,7E,7F,33,29,33,34,00,00,
-1693295653081599,000003BC,false,Rx,0,8,7E,7F,39,DE,00,3C,00,00,
-1693295653071659,000003BD,false,Rx,0,8,14,04,0D,00,00,00,00,00,
-1693295653061633,000003BE,false,Rx,0,8,00,00,00,81,00,00,00,00,
-1693295653001732,000003B8,false,Rx,0,8,00,00,01,00,04,00,89,12,
-1693295652991749,000003BA,false,Rx,0,8,7E,7F,33,29,33,34,00,00,
-1693295652981680,000003BC,false,Rx,0,8,7E,7F,39,DE,00,3C,00,00,
-1693295652971526,000003BD,false,Rx,0,8,14,04,0D,00,00,00,00,00,
-1693295652961842,000003BE,false,Rx,0,8,00,00,00,81,00,00,00,00,
-1693295652901709,000003B8,false,Rx,0,8,00,00,01,00,04,00,89,12,
-1693295652891299,000003BA,false,Rx,0,8,7E,7F,33,29,33,34,00,00,
-1693295652881870,000003BC,false,Rx,0,8,7E,7F,39,DE,00,3C,00,00,
-1693295652871887,000003BD,false,Rx,0,8,14,04,0D,00,00,00,00,00,
-1693295652861818,000003BE,false,Rx,0,8,00,00,00,81,00,00,00,00,
-1693295652801875,000003B8,false,Rx,0,8,00,01,01,00,04,00,89,12,
-1693295652792020,000003BA,false,Rx,0,8,7E,7F,33,29,33,34,00,00,
-1693295652782036,000003BC,false,Rx,0,8,7E,7F,39,CE,00,3C,00,00,
-1693295652771968,000003BD,false,Rx,0,8,14,04,0D,00,00,00,00,00,
-1693295652761344,000003BE,false,Rx,0,8,00,00,00,81,00,00,00,00,
-1693295652701956,000003B8,false,Rx,0,8,00,01,01,00,04,00,89,12,
-1693295652692101,000003BA,false,Rx,0,8,7E,7F,33,29,33,34,00,00,
-1693295652681435,000003BC,false,Rx,0,8,7E,7F,39,CE,00,3C,00,00,
-1693295652672134,000003BD,false,Rx,0,8,14,04,0D,00,00,00,00,00,
-1693295652662108,000003BE,false,Rx,0,8,00,00,00,80,00,00,00,00,
-1693295652602080,000003B8,false,Rx,0,8,00,01,01,00,04,00,89,12,
-1693295652592352,000003BA,false,Rx,0,8,7E,7F,36,2B,35,36,00,00,
-1693295652582369,000003BC,false,Rx,0,8,7E,7F,39,CE,00,3C,00,00,
-1693295652572300,000003BD,false,Rx,0,8,14,04,0D,00,00,00,00,00,
-1693295652562317,000003BE,false,Rx,0,8,00,00,00,80,00,00,00,00,
-1693295652502331,000003B8,false,Rx,0,8,00,01,01,00,04,00,89,12,
-1693295652492348,000003BA,false,Rx,0,8,7E,7F,36,2B,35,36,00,00,
-1693295652482493,000003BC,false,Rx,0,8,7E,7F,39,CE,00,3C,00,00,
-1693295652471912,000003BD,false,Rx,0,8,14,04,0D,00,00,00,00,00,
-1693295652462483,000003BE,false,Rx,0,8,00,00,00,80,00,00,00,00,
-1693295652402498,000003B8,false,Rx,0,8,00,01,01,00,04,00,89,12,
-1693295652391832,000003BA,false,Rx,0,8,7E,7F,36,2B,35,36,00,00,
-1693295652382573,000003BC,false,Rx,0,8,7E,7F,39,CE,00,3C,00,00,
-1693295652372633,000003BD,false,Rx,0,8,14,04,0D,00,00,00,00,00,
-1693295652362521,000003BE,false,Rx,0,8,00,00,00,80,00,00,00,00,
-1693295652302536,000003B8,false,Rx,0,8,00,02,01,00,03,00,1D,12,
-1693295652292382,000003BA,false,Rx,0,8,7E,7F,36,2B,35,36,00,00,
-1693295652282782,000003BC,false,Rx,0,8,7E,7F,39,C5,00,5F,00,00,
-1693295652272714,000003BD,false,Rx,0,8,14,04,0D,00,00,00,00,00,
-1693295652262730,000003BE,false,Rx,0,8,00,00,00,80,00,00,00,00,
-1693295652202659,000003B8,false,Rx,0,8,00,02,01,00,03,00,1D,12,
-1693295652192804,000003BA,false,Rx,0,8,7E,7F,37,2D,37,37,00,00,
-1693295652182778,000003BC,false,Rx,0,8,7E,7F,39,C5,00,5F,00,00,
-1693295652172923,000003BD,false,Rx,0,8,14,04,0D,00,00,00,00,00,
-1693295652162257,000003BE,false,Rx,0,8,00,00,00,80,00,00,00,00,
-1693295652102783,000003B8,false,Rx,0,8,00,02,01,00,02,00,1D,12,
-1693295652092757,000003BA,false,Rx,0,8,7E,7F,37,2D,37,37,00,00,
-1693295652082731,000003BC,false,Rx,0,8,7E,7F,39,C5,00,5F,00,00,
-1693295652072747,000003BD,false,Rx,0,8,14,04,0D,00,00,00,00,00,
-1693295652062807,000003BE,false,Rx,0,8,00,00,00,80,00,00,00,00,
-1693295652002779,000003B8,false,Rx,0,8,00,02,01,00,02,00,1D,12,
-1693295651992880,000003BA,false,Rx,0,8,7E,7F,37,2D,37,37,00,00,
-1693295651982641,000003BC,false,Rx,0,8,7E,7F,39,C3,00,5F,00,00,
-1693295651972871,000003BD,false,Rx,0,8,14,04,0D,00,00,00,00,00,
-1693295651962930,000003BE,false,Rx,0,8,00,00,00,80,00,00,00,00,
-1693295651902219,000003B8,false,Rx,0,8,00,02,01,00,02,00,1D,12,
-1693295651893046,000003BA,false,Rx,0,8,7E,7F,38,2D,37,38,00,00,
-1693295651883020,000003BC,false,Rx,0,8,7E,7F,39,C3,00,5F,00,00,
-1693295651872994,000003BD,false,Rx,0,8,14,04,0D,00,00,00,00,00,
-1693295651863096,000003BE,false,Rx,0,8,00,00,00,80,00,00,00,00,
-1693295651802812,000003B8,false,Rx,0,8,00,02,01,00,02,00,1D,12,
-1693295651793255,000003BA,false,Rx,0,8,7E,7F,38,2D,37,38,00,00,
-1693295651783229,000003BC,false,Rx,0,8,7E,7F,39,C3,00,5F,00,00,
-1693295651773288,000003BD,false,Rx,0,8,14,04,0D,00,00,00,00,00,
-1693295651763219,000003BE,false,Rx,0,8,00,00,00,80,00,00,00,00,
-1693295651703234,000003B8,false,Rx,0,8,00,02,01,00,02,00,1D,12,
-1693295651693251,000003BA,false,Rx,0,8,7E,7F,38,2D,37,38,00,00,
-1693295651683395,000003BC,false,Rx,0,8,7E,7F,39,C1,00,5F,00,00,
-1693295651672985,000003BD,false,Rx,0,8,14,04,0D,00,00,00,00,00,
-1693295651663343,000003BE,false,Rx,0,8,00,00,00,80,00,00,00,00,
-1693295651603315,000003B8,false,Rx,0,8,00,02,01,00,02,00,1D,12,
-1693295651592734,000003BA,false,Rx,0,8,7E,7F,39,2E,38,38,00,00,
-1693295651583476,000003BC,false,Rx,0,8,7E,7F,39,C1,00,5F,00,00,
-1693295651573493,000003BD,false,Rx,0,8,14,04,0D,00,00,00,00,00,
-1693295651563381,000003BE,false,Rx,0,8,00,00,00,80,00,00,00,00,
-1693295651503438,000003B8,false,Rx,0,8,00,02,01,00,02,00,1D,12,
-1693295651493242,000003BA,false,Rx,0,8,7E,7F,39,2E,38,38,00,00,
-1693295651483600,000003BC,false,Rx,0,8,7E,7F,39,C1,00,5F,00,00,
-1693295651473574,000003BD,false,Rx,0,8,14,04,0D,00,00,00,00,00,
-1693295651463548,000003BE,false,Rx,0,8,00,00,00,80,00,00,00,00,
-1693295651403519,000003B8,false,Rx,0,8,00,02,01,00,02,00,1D,12,
-1693295651393749,000003BA,false,Rx,0,8,7E,7F,39,2E,38,38,00,00,
-1693295651383723,000003BC,false,Rx,0,8,7E,7F,39,AF,00,5F,00,00,
-1693295651373825,000003BD,false,Rx,0,8,14,04,0D,00,00,00,00,00,
-1693295651363074,000003BE,false,Rx,0,8,00,00,00,80,00,00,00,00,
-1693295651303814,000003B8,false,Rx,0,8,00,02,01,00,02,00,1D,12,
-1693295651293830,000003BA,false,Rx,0,8,2D,2D,39,2E,38,38,00,00,
-1693295651283932,000003BC,false,Rx,0,8,2D,2D,39,AF,00,5F,00,00,
-1693295651273821,000003BD,false,Rx,0,8,14,04,0D,00,00,00,00,00,
-1693295651263325,000003BE,false,Rx,0,8,00,00,00,80,00,00,00,00,
-1693295651203809,000003B8,false,Rx,0,8,00,02,01,00,02,00,1D,12,
-1693295651193826,000003BA,false,Rx,0,8,01,01,39,2E,38,38,00,00,
-1693295651184056,000003BC,false,Rx,0,8,01,01,39,AF,00,5F,00,00,
-1693295651174072,000003BD,false,Rx,0,8,14,04,0D,00,00,00,00,00,
-1693295651163961,000003BE,false,Rx,0,8,00,00,00,80,00,00,00,00,
-1693295651104018,000003B8,false,Rx,0,8,00,02,01,00,02,00,1D,12,
-1693295651094163,000003BA,false,Rx,0,8,01,01,39,2E,38,38,00,00,
-1693295651083539,000003BC,false,Rx,0,8,01,01,39,AD,00,5F,00,00,
-1693295651074239,000003BD,false,Rx,0,8,14,04,0D,00,00,00,00,00,
-1693295651064085,000003BE,false,Rx,0,8,00,00,00,80,00,00,00,00,
-1693295651004184,000003B8,false,Rx,0,8,00,02,01,00,02,00,1D,12,
-1693295650994201,000003BA,false,Rx,0,8,01,01,3A,2E,38,39,00,00,
-1693295650984175,000003BC,false,Rx,0,8,01,01,39,AD,00,5F,00,00,
-1693295650974149,000003BD,false,Rx,0,8,14,04,0D,00,00,00,00,00,
-1693295650964080,000003BE,false,Rx,0,8,00,00,00,80,00,00,00,00,
-1693295650904022,000003B8,false,Rx,0,8,00,02,01,00,02,00,1D,12,
-1693295650894209,000003BA,false,Rx,0,8,01,01,3A,2E,38,39,00,00,
-1693295650884311,000003BC,false,Rx,0,8,01,01,39,AD,00,5F,00,00,
-1693295650873858,000003BD,false,Rx,0,8,14,04,0D,00,00,00,00,00,
-1693295650864302,000003BE,false,Rx,0,8,00,00,00,80,00,00,00,00,
-1693295650803889,000003B8,false,Rx,0,8,00,02,01,00,02,00,1D,12,
-1693295650794333,000003BA,false,Rx,0,8,01,01,3A,2F,39,39,00,00,
-1693295650784264,000003BC,false,Rx,0,8,01,01,39,AD,00,5F,00,00,
-1693295650774281,000003BD,false,Rx,0,8,14,04,0D,00,00,00,00,00,
-1693295650764383,000003BE,false,Rx,0,8,00,00,00,80,00,00,00,00,
-1693295650704354,000003B8,false,Rx,0,8,00,02,01,00,02,00,1D,12,
-1693295650694499,000003BA,false,Rx,0,8,01,01,3A,2F,39,39,00,00,
-1693295650684473,000003BC,false,Rx,0,8,01,01,39,AD,00,5F,00,00,
-1693295650674490,000003BD,false,Rx,0,8,14,04,0D,00,00,00,00,00,
-1693295650664293,000003BE,false,Rx,0,8,00,00,00,80,00,00,00,00,
-1693295650604563,000003B8,false,Rx,0,8,00,02,01,00,02,00,1D,12,
-1693295650594367,000003BA,false,Rx,0,8,01,01,3A,2F,39,39,00,00,
-1693295650584639,000003BC,false,Rx,0,8,01,01,39,A5,00,5F,00,00,
-1693295650574656,000003BD,false,Rx,0,8,14,04,0D,00,00,00,00,00,
-1693295650564630,000003BE,false,Rx,0,8,00,00,00,80,00,00,00,00,
-1693295650504644,000003B8,false,Rx,0,8,00,02,01,00,02,00,1D,12,
-1693295650494661,000003BA,false,Rx,0,8,01,01,3A,2F,39,39,00,00,
-1693295650484763,000003BC,false,Rx,0,8,01,01,39,A5,00,5F,00,00,
-1693295650474779,000003BD,false,Rx,0,8,14,04,0D,00,00,00,00,00,
-1693295650464753,000003BE,false,Rx,0,8,00,00,00,80,00,00,00,00,
-1693295650404725,000003B8,false,Rx,0,8,00,02,01,00,02,00,1D,12,
-1693295650394955,000003BA,false,Rx,0,8,01,01,3A,2F,39,39,00,00,
-1693295650384758,000003BC,false,Rx,0,8,01,01,39,A5,00,5F,00,00,
-1693295650374860,000003BD,false,Rx,0,8,14,04,0D,00,00,00,00,00,
-1693295650364834,000003BE,false,Rx,0,8,00,00,00,80,00,00,00,00,
-1693295650305019,000003B8,false,Rx,0,8,00,02,01,00,02,00,1D,12,
-1693295650295079,000003BA,false,Rx,0,8,01,01,3A,2F,39,39,00,00,
-1693295650285053,000003BC,false,Rx,0,8,01,01,39,98,00,5F,00,00,
-1693295650274643,000003BD,false,Rx,0,8,14,04,0D,00,00,00,00,00,
-1693295650265086,000003BE,false,Rx,0,8,00,00,00,80,00,00,00,00,
-1693295650204546,000003B8,false,Rx,0,8,00,02,01,00,02,00,1D,12,
-1693295650195245,000003BA,false,Rx,0,8,01,01,3A,2F,39,39,00,00,
-1693295650185261,000003BC,false,Rx,0,8,01,01,39,98,00,5F,00,00,
-1693295650175193,000003BD,false,Rx,0,8,14,04,0D,00,00,00,00,00,
-1693295650165209,000003BE,false,Rx,0,8,00,00,00,80,00,00,00,00,
-1693295650105053,000003B8,false,Rx,0,8,00,02,01,00,02,00,1D,12,
-1693295650095368,000003BA,false,Rx,0,8,01,01,3A,2F,39,39,00,00,
-1693295650085214,000003BC,false,Rx,0,8,01,01,39,98,00,5F,00,00,
-1693295650075359,000003BD,false,Rx,0,8,14,04,0D,00,00,00,00,00,
-1693295650065248,000003BE,false,Rx,0,8,00,00,00,80,00,00,00,00,
-1693295650005347,000003B8,false,Rx,0,8,00,02,01,00,02,00,1D,12,
-1693295649995449,000003BA,false,Rx,0,8,01,01,3A,2F,39,39,00,00,
-1693295649985381,000003BC,false,Rx,0,8,01,01,39,96,00,5F,00,00,
-1693295649975440,000003BD,false,Rx,0,8,14,04,0D,00,00,00,00,00,
-1693295649965329,000003BE,false,Rx,0,8,00,00,00,80,00,00,00,00,
-1693295649905313,000003B8,false,Rx,0,8,00,02,01,00,02,00,1D,12,
-1693295649895372,000003BA,false,Rx,0,8,01,01,3B,2F,39,39,00,00,
-1693295649885389,000003BC,false,Rx,0,8,01,01,39,96,00,5F,00,00,
-1693295649875277,000003BD,false,Rx,0,8,14,04,0D,00,00,00,00,00,
-1693295649864825,000003BE,false,Rx,0,8,00,00,00,80,00,00,00,00,
-1693295649805394,000003B8,false,Rx,0,8,00,02,01,00,02,00,1D,12,
-1693295649794941,000003BA,false,Rx,0,8,01,01,3B,2F,39,39,00,00,
-1693295649785427,000003BC,false,Rx,0,8,01,01,39,96,00,5F,00,00,
-1693295649775444,000003BD,false,Rx,0,8,14,04,0D,00,00,00,00,00,
-1693295649765332,000003BE,false,Rx,0,8,00,00,00,80,00,00,00,00,
-1693295649705603,000003B8,false,Rx,0,8,00,02,01,00,02,00,1D,12,
-1693295649695150,000003BA,false,Rx,0,8,01,01,3B,2F,39,39,00,00,
-1693295649685679,000003BC,false,Rx,0,8,01,01,39,96,00,5F,00,00,
-1693295649675653,000003BD,false,Rx,0,8,14,04,0D,00,00,00,00,00,
-1693295649665584,000003BE,false,Rx,0,8,00,00,00,80,00,00,00,00,
-1693295649605684,000003B8,false,Rx,0,8,00,02,01,00,02,00,1D,12,
-1693295649595487,000003BA,false,Rx,0,8,01,01,3B,2F,39,39,00,00,
-1693295649585802,000003BC,false,Rx,0,8,01,01,39,96,00,5F,00,00,
-1693295649575862,000003BD,false,Rx,0,8,14,04,0D,00,00,00,00,00,
-1693295649565793,000003BE,false,Rx,0,8,00,00,00,80,00,00,00,00,
-1693295649505807,000003B8,false,Rx,0,8,00,02,01,00,02,00,1D,12,
-1693295649495781,000003BA,false,Rx,0,8,01,01,3B,2F,39,39,00,00,
-1693295649485840,000003BC,false,Rx,0,8,01,01,39,96,00,5F,00,00,
-1693295649475814,000003BD,false,Rx,0,8,14,04,0D,00,00,00,00,00,
-1693295649465916,000003BE,false,Rx,0,8,00,00,00,80,00,00,00,00,
-1693295649405760,000003B8,false,Rx,0,8,00,02,01,00,02,00,1D,12,
-1693295649395905,000003BA,false,Rx,0,8,01,01,3B,2F,39,39,00,00,
-1693295649385964,000003BC,false,Rx,0,8,01,01,39,96,00,5F,00,00,
-1693295649375895,000003BD,false,Rx,0,8,14,04,0D,00,00,00,00,00,
-1693295649365827,000003BE,false,Rx,0,8,00,00,00,80,00,00,00,00,
-1693295649306012,000003B8,false,Rx,0,8,00,02,01,00,02,00,1D,12,
-1693295649295943,000003BA,false,Rx,0,8,01,01,3B,2F,39,39,00,00,
-1693295649286002,000003BC,false,Rx,0,8,01,01,39,96,00,5F,00,00,
-1693295649276019,000003BD,false,Rx,0,8,14,04,0D,00,00,00,00,00,
-1693295649266078,000003BE,false,Rx,0,8,00,00,00,80,00,00,00,00,
-1693295649206007,000003B8,false,Rx,0,8,00,02,01,00,02,00,1D,12,
-1693295649196195,000003BA,false,Rx,0,8,01,01,3B,2F,39,39,00,00,
-1693295649185742,000003BC,false,Rx,0,8,01,01,39,86,00,5F,00,00,
-1693295649176228,000003BD,false,Rx,0,8,14,04,0D,00,00,00,00,00,
-1693295649166202,000003BE,false,Rx,0,8,00,00,00,80,00,00,00,00,
-1693295649106259,000003B8,false,Rx,0,8,00,02,01,00,02,00,1D,12,
-1693295649096233,000003BA,false,Rx,0,8,01,01,3B,30,3A,3A,00,00,
-1693295649085993,000003BC,false,Rx,0,8,01,01,39,86,00,5F,00,00,
-1693295649076309,000003BD,false,Rx,0,8,14,04,0D,00,00,00,00,00,
-1693295649066240,000003BE,false,Rx,0,8,00,00,00,80,00,00,00,00,
-1693295649006212,000003B8,false,Rx,0,8,00,02,01,00,02,00,1D,12,
-1693295648996399,000003BA,false,Rx,0,8,7E,7F,3B,30,3A,3A,00,00,
-1693295648986373,000003BC,false,Rx,0,8,7E,7F,39,86,00,5F,00,00,
-1693295648976006,000003BD,false,Rx,0,8,14,04,0D,00,00,00,00,00,
-1693295648966321,000003BE,false,Rx,0,8,00,00,00,80,00,00,00,00,
-1693295648906563,000003B8,false,Rx,0,8,00,02,01,00,02,00,1D,12,
-1693295648896580,000003BA,false,Rx,0,8,7E,7F,3B,30,3A,3A,00,00,
-1693295648886511,000003BC,false,Rx,0,8,7E,7F,39,7E,00,5F,00,00,
-1693295648876400,000003BD,false,Rx,0,8,14,04,0D,00,00,00,00,00,
-1693295648866545,000003BE,false,Rx,0,8,00,00,00,80,00,00,00,00,
-1693295648806559,000003B8,false,Rx,0,8,00,02,01,00,02,00,1D,12,
-1693295648796789,000003BA,false,Rx,0,8,7E,7F,3B,30,3A,3A,00,00,
-1693295648786720,000003BC,false,Rx,0,8,7E,7F,39,7E,00,5F,00,00,
-1693295648776737,000003BD,false,Rx,0,8,14,04,0D,00,00,00,00,00,
-1693295648766711,000003BE,false,Rx,0,8,00,00,00,80,00,00,00,00,
-1693295648706853,000003B8,false,Rx,0,8,00,02,01,00,02,00,1D,12,
-1693295648696230,000003BA,false,Rx,0,8,7E,7F,3B,30,3A,3A,00,00,
-1693295648686972,000003BC,false,Rx,0,8,7E,7F,39,7E,00,5F,00,00,
-1693295648676818,000003BD,false,Rx,0,8,14,04,0D,00,00,00,00,00,
-1693295648666962,000003BE,false,Rx,0,8,00,00,00,80,00,00,00,00,
-1693295648606891,000003B8,false,Rx,0,8,00,02,01,00,02,00,1D,12,
-1693295648596609,000003BA,false,Rx,0,8,7E,7F,3B,30,3A,3A,00,00,
-1693295648587138,000003BC,false,Rx,0,8,7E,7F,39,7E,00,5F,00,00,
-1693295648577027,000003BD,false,Rx,0,8,14,04,0D,00,00,00,00,00,
-1693295648567086,000003BE,false,Rx,0,8,00,00,00,80,00,00,00,00,
-1693295648507143,000003B8,false,Rx,0,8,00,02,01,00,02,00,1D,12,
-1693295648496861,000003BA,false,Rx,0,8,7E,7F,3B,30,3A,3A,00,00,
-1693295648487176,000003BC,false,Rx,0,8,7E,7F,39,7E,00,5F,00,00,
-1693295648477278,000003BD,false,Rx,0,8,14,04,0D,00,00,00,00,00,
-1693295648467124,000003BE,false,Rx,0,8,00,00,00,80,00,00,00,00,
-1693295648407267,000003B8,false,Rx,0,8,00,02,01,00,02,00,1D,12,
-1693295648397027,000003BA,false,Rx,0,8,7E,7F,3B,30,3A,3A,00,00,
-1693295648387257,000003BC,false,Rx,0,8,7E,7F,39,7E,00,5F,00,00,
-1693295648377402,000003BD,false,Rx,0,8,14,04,0D,00,00,00,00,00,
-1693295648367333,000003BE,false,Rx,0,8,00,00,00,80,00,00,00,00,
-1693295648307305,000003B8,false,Rx,0,8,00,02,01,00,02,00,1D,12,
-1693295648297407,000003BA,false,Rx,0,8,7E,7F,3B,30,3A,3A,00,00,
-1693295648287167,000003BC,false,Rx,0,8,7E,7F,39,7E,00,5F,00,00,
-1693295648277184,000003BD,false,Rx,0,8,14,04,0D,00,00,00,00,00,
-1693295648266689,000003BE,false,Rx,0,8,00,00,00,80,00,00,00,00,
-1693295648207300,000003B8,false,Rx,0,8,00,02,01,00,02,00,1D,12,
-1693295648197445,000003BA,false,Rx,0,8,7E,7F,3B,30,3A,3A,00,00,
-1693295648187334,000003BC,false,Rx,0,8,7E,7F,39,7E,00,5F,00,00,
-1693295648177436,000003BD,false,Rx,0,8,14,04,0D,00,00,00,00,00,
-1693295648166940,000003BE,false,Rx,0,8,00,00,00,80,00,00,00,00,
-1693295648107552,000003B8,false,Rx,0,8,00,02,01,00,02,00,1D,12,
-1693295648097611,000003BA,false,Rx,0,8,7E,7F,3B,30,3A,3A,00,00,
-1693295648087585,000003BC,false,Rx,0,8,7E,7F,39,7D,00,5F,00,00,
-1693295648077517,000003BD,false,Rx,0,8,14,04,0D,00,00,00,00,00,
-1693295648067405,000003BE,false,Rx,0,8,00,00,00,80,00,00,00,00,
-1693295648007590,000003B8,false,Rx,0,8,00,02,01,00,02,00,1D,12,
-1693295647997564,000003BA,false,Rx,0,8,7E,7F,3B,30,3A,3A,00,00,
-1693295647987709,000003BC,false,Rx,0,8,7E,7F,39,7D,00,5F,00,00,
-1693295647977597,000003BD,false,Rx,0,8,14,04,0D,00,00,00,00,00,
-1693295647967529,000003BE,false,Rx,0,8,00,00,00,80,00,00,00,00,
-1693295647907470,000003B8,false,Rx,0,8,00,02,01,00,02,00,1D,12,
-1693295647897572,000003BA,false,Rx,0,8,7E,7F,3B,30,3A,3A,00,00,
-1693295647887034,000003BC,false,Rx,0,8,7E,7F,39,7D,00,5F,00,00,
-1693295647877606,000003BD,false,Rx,0,8,14,04,0D,00,00,00,00,00,
-1693295647867537,000003BE,false,Rx,0,8,00,00,00,80,00,00,00,00,
-1693295647807679,000003B8,false,Rx,0,8,00,02,01,00,02,00,1D,12,
-1693295647797653,000003BA,false,Rx,0,8,7E,7F,3B,30,3A,3A,00,00,
-1693295647787371,000003BC,false,Rx,0,8,7E,7F,39,6C,00,5F,00,00,
-1693295647777729,000003BD,false,Rx,0,8,14,04,0D,00,00,00,00,00,
-1693295647767789,000003BE,false,Rx,0,8,00,00,00,80,00,00,00,00,
-1693295647707718,000003B8,false,Rx,0,8,00,02,01,00,02,00,1D,12,
-1693295647697649,000003BA,false,Rx,0,8,7E,7F,3B,30,3A,3A,00,00,
-1693295647687751,000003BC,false,Rx,0,8,7E,7F,39,6C,00,5F,00,00,
-1693295647677725,000003BD,false,Rx,0,8,14,04,0D,00,00,00,00,00,
-1693295647667699,000003BE,false,Rx,0,8,00,00,00,80,00,00,00,00,
-1693295647607159,000003B8,false,Rx,0,8,00,02,01,00,02,00,1D,12,
-1693295647597773,000003BA,false,Rx,0,8,7E,7F,3B,30,3A,3A,00,00,
-1693295647587832,000003BC,false,Rx,0,8,7E,7F,39,6C,00,5F,00,00,
-1693295647577806,000003BD,false,Rx,0,8,14,04,0D,00,00,00,00,00,
-1693295647567780,000003BE,false,Rx,0,8,00,00,00,80,00,00,00,00,
-1693295647507666,000003B8,false,Rx,0,8,00,02,01,00,02,00,1D,12,
-1693295647497853,000003BA,false,Rx,0,8,7E,7F,3B,30,3A,3A,00,00,
-1693295647487913,000003BC,false,Rx,0,8,7E,7F,39,67,00,5F,00,00,
-1693295647477929,000003BD,false,Rx,0,8,14,04,0D,00,00,00,00,00,
-1693295647467818,000003BE,false,Rx,0,8,00,00,00,80,00,00,00,00,
-1693295647407918,000003B8,false,Rx,0,8,00,02,01,00,02,00,1D,12,
-1693295647397934,000003BA,false,Rx,0,8,7E,7F,3B,30,3A,3A,00,00,
-1693295647387994,000003BC,false,Rx,0,8,7E,7F,39,67,00,5F,00,00,
-1693295647377413,000003BD,false,Rx,0,8,14,04,0D,00,00,00,00,00,
-1693295647368070,000003BE,false,Rx,0,8,00,00,00,80,00,00,00,00,
-1693295647307871,000003B8,false,Rx,0,8,00,02,01,00,02,00,1D,12,
-1693295647297887,000003BA,false,Rx,0,8,7E,7F,3B,30,3A,3A,00,00,
-1693295647287989,000003BC,false,Rx,0,8,7E,7F,39,67,00,5F,00,00,
-1693295647277707,000003BD,false,Rx,0,8,14,04,0D,00,00,00,00,00,
-1693295647267980,000003BE,false,Rx,0,8,00,00,00,80,00,00,00,00,
-1693295647207994,000003B8,false,Rx,0,8,00,02,01,00,02,00,1D,12,
-1693295647198181,000003BA,false,Rx,0,8,7E,7F,3B,30,3A,3A,00,00,
-1693295647188113,000003BC,false,Rx,0,8,7E,7F,39,5D,00,5F,00,00,
-1693295647178001,000003BD,false,Rx,0,8,14,04,0D,00,00,00,00,00,
-1693295647168103,000003BE,false,Rx,0,8,00,00,00,80,00,00,00,00,
-1693295647108246,000003B8,false,Rx,0,8,00,02,01,00,02,00,1D,12,
-1693295647097580,000003BA,false,Rx,0,8,7E,7F,3B,30,3A,3A,00,00,
-1693295647088279,000003BC,false,Rx,0,8,7E,7F,39,5D,00,5F,00,00,
-1693295647078168,000003BD,false,Rx,0,8,14,04,0D,00,00,00,00,00,
-1693295647068227,000003BE,false,Rx,0,8,00,00,00,80,00,00,00,00,
-1693295647008327,000003B8,false,Rx,0,8,00,02,01,00,02,00,1D,12,
-1693295646997831,000003BA,false,Rx,0,8,7E,7F,3B,30,3A,3A,00,00,
-1693295646988360,000003BC,false,Rx,0,8,7E,7F,39,5D,00,5F,00,00,
-1693295646978462,000003BD,false,Rx,0,8,14,04,0D,00,00,00,00,00,
-1693295646968351,000003BE,false,Rx,0,8,00,00,00,80,00,00,00,00,
-1693295646908335,000003B8,false,Rx,0,8,00,02,01,00,02,00,1D,12,
-1693295646898224,000003BA,false,Rx,0,8,7E,7F,3B,30,3A,3A,00,00,
-1693295646888496,000003BC,false,Rx,0,8,7E,7F,39,51,00,5F,00,00,
-1693295646878555,000003BD,false,Rx,0,8,14,04,0D,00,00,00,00,00,
-1693295646868572,000003BE,false,Rx,0,8,00,00,00,80,00,00,00,00,
-1693295646808587,000003B8,false,Rx,0,8,00,02,01,00,02,00,1D,12,
-1693295646798432,000003BA,false,Rx,0,8,7E,7F,3B,30,3A,3A,00,00,
-1693295646788577,000003BC,false,Rx,0,8,7E,7F,39,51,00,5F,00,00,
-1693295646778594,000003BD,false,Rx,0,8,14,04,0D,00,00,00,00,00,
-1693295646768696,000003BE,false,Rx,0,8,00,00,00,80,00,00,00,00,
-1693295646708710,000003B8,false,Rx,0,8,00,02,01,00,02,00,1D,12,
-1693295646698684,000003BA,false,Rx,0,8,7E,7F,3B,30,3A,3A,00,00,
-1693295646688786,000003BC,false,Rx,0,8,7E,7F,39,4F,00,5F,00,00,
-1693295646678717,000003BD,false,Rx,0,8,14,04,0D,00,00,00,00,00,
-1693295646668051,000003BE,false,Rx,0,8,00,00,00,80,00,00,00,00,
-1693295646608834,000003B8,false,Rx,0,8,00,02,01,00,02,00,1D,12,
-1693295646598893,000003BA,false,Rx,0,8,08,08,3B,30,3A,3A,00,00,
-1693295646588952,000003BC,false,Rx,0,8,08,08,39,4F,00,5F,00,00,
-1693295646578969,000003BD,false,Rx,0,8,14,04,0D,00,00,00,00,00,
-1693295646568943,000003BE,false,Rx,0,8,00,00,00,80,00,00,00,00,
-1693295646508915,000003B8,false,Rx,0,8,00,02,01,00,02,00,1D,12,
-1693295646498718,000003BA,false,Rx,0,8,01,01,3B,30,3A,3A,00,00,
-1693295646489118,000003BC,false,Rx,0,8,01,01,39,4F,00,5F,00,00,
-1693295646479092,000003BD,false,Rx,0,8,14,04,0D,00,00,00,00,00,
-1693295646469024,000003BE,false,Rx,0,8,00,00,00,80,00,00,00,00,
-1693295646409166,000003B8,false,Rx,0,8,00,02,01,00,02,00,1D,12,
-1693295646399097,000003BA,false,Rx,0,8,01,01,3B,30,3A,3A,00,00,
-1693295646389157,000003BC,false,Rx,0,8,01,01,39,4F,00,5F,00,00,
-1693295646379301,000003BD,false,Rx,0,8,14,04,0D,00,00,00,00,00,
-1693295646369233,000003BE,false,Rx,0,8,00,00,00,80,00,00,00,00,
-1693295646309290,000003B8,false,Rx,0,8,00,02,01,00,02,00,1D,12,
-1693295646299264,000003BA,false,Rx,0,8,01,01,3B,30,3A,3A,00,00,
-1693295646289323,000003BC,false,Rx,0,8,01,01,39,4F,00,5F,00,00,
-1693295646279297,000003BD,false,Rx,0,8,14,04,0D,00,00,00,00,00,
-1693295646269399,000003BE,false,Rx,0,8,00,00,00,80,00,00,00,00,
-1693295646209285,000003B8,false,Rx,0,8,00,02,01,00,02,00,1D,12,
-1693295646199259,000003BA,false,Rx,0,8,01,01,3B,30,3A,3A,00,00,
-1693295646188807,000003BC,false,Rx,0,8,01,01,39,4F,00,5F,00,00,
-1693295646179293,000003BD,false,Rx,0,8,14,04,0D,00,00,00,00,00,
-1693295646169480,000003BE,false,Rx,0,8,00,00,00,80,00,00,00,00,
-1693295646109452,000003B8,false,Rx,0,8,00,02,01,00,02,00,1D,12,
-1693295646099596,000003BA,false,Rx,0,8,01,01,3B,30,3A,3A,00,00,
-1693295646089143,000003BC,false,Rx,0,8,01,01,39,4F,00,5F,00,00,
-1693295646079459,000003BD,false,Rx,0,8,14,04,0D,00,00,00,00,00,
-1693295646069518,000003BE,false,Rx,0,8,00,00,00,80,00,00,00,00,
-1693295646009404,000003B8,false,Rx,0,8,00,02,01,00,02,00,1D,12,
-1693295645999592,000003BA,false,Rx,0,8,01,01,3B,30,3A,3A,00,00,
-1693295645989523,000003BC,false,Rx,0,8,01,01,39,4F,00,5F,00,00,
-1693295645979582,000003BD,false,Rx,0,8,14,04,0D,00,00,00,00,00,
-1693295645969471,000003BE,false,Rx,0,8,00,00,00,80,00,00,00,00,
-1693295645909541,000003B8,false,Rx,0,8,00,02,01,00,02,00,1D,12,
-1693295645899685,000003BA,false,Rx,0,8,01,01,3B,30,3A,3A,00,00,
-1693295645889659,000003BC,false,Rx,0,8,01,01,39,4F,00,5F,00,00,
-1693295645879676,000003BD,false,Rx,0,8,14,04,0D,00,00,00,00,00,
-1693295645869693,000003BE,false,Rx,0,8,00,00,00,80,00,00,00,00,
-1693295645809750,000003B8,false,Rx,0,8,00,02,01,00,02,00,1D,12,
-1693295645799724,000003BA,false,Rx,0,8,01,01,3B,30,3A,3A,00,00,
-1693295645789783,000003BC,false,Rx,0,8,01,01,39,43,00,5F,00,00,
-1693295645779629,000003BD,false,Rx,0,8,14,04,0D,00,00,00,00,00,
-1693295645769645,000003BE,false,Rx,0,8,00,00,00,80,00,00,00,00,
-1693295645709660,000003B8,false,Rx,0,8,00,02,01,00,02,00,1D,12,
-1693295645699804,000003BA,false,Rx,0,8,01,01,3B,30,3A,3A,00,00,
-1693295645689693,000003BC,false,Rx,0,8,01,01,39,43,00,5F,00,00,
-1693295645679240,000003BD,false,Rx,0,8,14,04,0D,00,00,00,00,00,
-1693295645669726,000003BE,false,Rx,0,8,00,00,00,80,00,00,00,00,
-1693295645609357,000003B8,false,Rx,0,8,00,02,01,00,02,00,1D,12,
-1693295645599800,000003BA,false,Rx,0,8,01,01,3B,30,3A,3A,00,00,
-1693295645589902,000003BC,false,Rx,0,8,01,01,39,39,00,5F,00,00,
-1693295645579791,000003BD,false,Rx,0,8,14,04,0D,00,00,00,00,00,
-1693295645569850,000003BE,false,Rx,0,8,00,00,00,80,00,00,00,00,
-1693295645509651,000003B8,false,Rx,0,8,00,02,01,00,02,00,1D,12,
-1693295645499924,000003BA,false,Rx,0,8,01,01,3B,30,3A,3A,00,00,
-1693295645489898,000003BC,false,Rx,0,8,01,01,39,39,00,5F,00,00,
-1693295645479872,000003BD,false,Rx,0,8,14,04,0D,00,00,00,00,00,
-1693295645470016,000003BE,false,Rx,0,8,00,00,00,80,00,00,00,00,
-1693295645410073,000003B8,false,Rx,0,8,00,02,01,00,02,00,1D,12,
-1693295645400005,000003BA,false,Rx,0,8,01,01,3B,30,3A,3A,00,00,
-1693295645389979,000003BC,false,Rx,0,8,01,01,39,39,00,5F,00,00,
-1693295645380123,000003BD,false,Rx,0,8,14,04,0D,00,00,00,00,00,
-1693295645370012,000003BE,false,Rx,0,8,00,00,00,80,00,00,00,00,
-1693295645310154,000003B8,false,Rx,0,8,00,02,01,00,02,00,1D,12,
-1693295645300128,000003BA,false,Rx,0,8,01,01,3B,30,3A,3A,00,00,
-1693295645290230,000003BC,false,Rx,0,8,01,01,39,38,00,5F,00,00,
-1693295645280204,000003BD,false,Rx,0,8,14,04,0D,00,00,00,00,00,
-1693295645269751,000003BE,false,Rx,0,8,00,00,00,80,00,00,00,00,
-1693295645210278,000003B8,false,Rx,0,8,00,02,01,00,02,00,1D,12,
-1693295645200337,000003BA,false,Rx,0,8,01,01,3B,30,3A,3A,00,00,
-1693295645190268,000003BC,false,Rx,0,8,01,01,39,38,00,5F,00,00,
-1693295645180242,000003BD,false,Rx,0,8,14,04,0D,00,00,00,00,00,
-1693295645169960,000003BE,false,Rx,0,8,00,00,00,80,00,00,00,00,
-1693295645110273,000003B8,false,Rx,0,8,00,02,01,00,02,00,1D,12,
-1693295645099863,000003BA,false,Rx,0,8,01,01,3B,30,3A,3A,00,00,
-1693295645090520,000003BC,false,Rx,0,8,01,01,39,38,00,5F,00,00,
-1693295645080451,000003BD,false,Rx,0,8,14,04,0D,00,00,00,00,00,
-1693295645070425,000003BE,false,Rx,0,8,00,00,00,80,00,00,00,00,
-1693295645010269,000003B8,false,Rx,0,8,00,02,01,00,02,00,1D,12,
-1693295645000243,000003BA,false,Rx,0,8,01,01,3B,30,3A,3A,00,00,
-1693295644990473,000003BC,false,Rx,0,8,01,01,39,32,00,5F,00,00,
-1693295644980447,000003BD,false,Rx,0,8,14,04,0D,00,00,00,00,00,
-1693295644970378,000003BE,false,Rx,0,8,00,00,00,80,00,00,00,00,
-1693295644910420,000003B8,false,Rx,0,8,00,02,01,00,02,00,1D,12,
-1693295644900607,000003BA,false,Rx,0,8,01,01,3B,30,3A,3A,00,00,
-1693295644890496,000003BC,false,Rx,0,8,01,01,39,32,00,5F,00,00,
-1693295644880641,000003BD,false,Rx,0,8,14,04,0D,00,00,00,00,00,
-1693295644870487,000003BE,false,Rx,0,8,00,00,00,80,00,00,00,00,
-1693295644810629,000003B8,false,Rx,0,8,00,02,01,00,02,00,1D,12,
-1693295644800731,000003BA,false,Rx,0,8,01,01,3B,30,3A,3A,00,00,
-1693295644790620,000003BC,false,Rx,0,8,01,01,39,32,00,5F,00,00,
-1693295644780679,000003BD,false,Rx,0,8,14,04,0D,00,00,00,00,00,
-1693295644770738,000003BE,false,Rx,0,8,00,00,00,80,00,00,00,00,
-1693295644710795,000003B8,false,Rx,0,8,00,02,01,00,02,00,1D,12,
-1693295644700343,000003BA,false,Rx,0,8,72,72,3B,30,3A,3A,00,00,
-1693295644690829,000003BC,false,Rx,0,8,72,72,39,2A,00,5F,00,00,
-1693295644680845,000003BD,false,Rx,0,8,14,04,0D,00,00,00,00,00,
-1693295644670904,000003BE,false,Rx,0,8,00,00,00,80,00,00,00,00,
-1693295644610876,000003B8,false,Rx,0,8,00,02,01,00,02,00,1D,12,
-1693295644600680,000003BA,false,Rx,0,8,7E,7F,3B,30,3A,3A,00,00,
-1693295644590995,000003BC,false,Rx,0,8,7E,7F,39,2A,00,5F,00,00,
-1693295644581054,000003BD,false,Rx,0,8,14,04,0D,00,00,00,00,00,
-1693295644570943,000003BE,false,Rx,0,8,00,00,00,80,00,00,00,00,
-1693295644511085,000003B8,false,Rx,0,8,00,02,01,00,02,00,1D,12,
-1693295644501016,000003BA,false,Rx,0,8,7E,7F,3B,30,3A,3A,00,00,
-1693295644491161,000003BC,false,Rx,0,8,7E,7F,39,2A,00,5F,00,00,
-1693295644481092,000003BD,false,Rx,0,8,14,04,0D,00,00,00,00,00,
-1693295644470341,000003BE,false,Rx,0,8,00,00,00,80,00,00,00,00,
-1693295644410995,000003B8,false,Rx,0,8,00,02,01,00,02,00,1D,12,
-1693295644401140,000003BA,false,Rx,0,8,7E,7F,3B,30,3A,3A,00,00,
-1693295644391071,000003BC,false,Rx,0,8,7E,7F,39,22,00,5F,00,00,
-1693295644381088,000003BD,false,Rx,0,8,14,04,0D,00,00,00,00,00,
-1693295644370507,000003BE,false,Rx,0,8,00,00,00,80,00,00,00,00,
-1693295644310948,000003B8,false,Rx,0,8,00,02,01,00,02,00,1D,12,
-1693295644301050,000003BA,false,Rx,0,8,7E,7F,3B,30,3A,3A,00,00,
-1693295644291152,000003BC,false,Rx,0,8,7E,7F,39,22,00,5F,00,00,
-1693295644281169,000003BD,false,Rx,0,8,14,04,0D,00,00,00,00,00,
-1693295644270759,000003BE,false,Rx,0,8,00,00,00,80,00,00,00,00,
-1693295644211200,000003B8,false,Rx,0,8,00,02,01,00,02,00,1D,12,
-1693295644201216,000003BA,false,Rx,0,8,7E,7F,3B,30,3A,3A,00,00,
-1693295644191318,000003BC,false,Rx,0,8,7E,7F,39,18,00,5F,00,00,
-1693295644181335,000003BD,false,Rx,0,8,14,04,0D,00,00,00,00,00,
-1693295644171181,000003BE,false,Rx,0,8,00,00,00,80,00,00,00,00,
-1693295644111238,000003B8,false,Rx,0,8,00,02,01,00,02,00,1D,12,
-1693295644101383,000003BA,false,Rx,0,8,7E,7F,3B,30,3A,3A,00,00,
-1693295644090845,000003BC,false,Rx,0,8,7E,7F,39,18,00,5F,00,00,
-1693295644081416,000003BD,false,Rx,0,8,14,04,0D,00,00,00,00,00,
-1693295644071475,000003BE,false,Rx,0,8,00,00,00,80,00,00,00,00,
-1693295644011532,000003B8,false,Rx,0,8,00,02,01,00,02,00,1D,12,
-1693295644001506,000003BA,false,Rx,0,8,7E,7E,3B,30,3A,3A,00,00,
-1693295643991096,000003BC,false,Rx,0,8,7E,7E,39,18,00,5F,00,00,
-1693295643981540,000003BD,false,Rx,0,8,14,04,0D,00,00,00,00,00,
-1693295643971471,000003BE,false,Rx,0,8,00,00,00,80,00,00,00,00,
-1693295643911370,000003B8,false,Rx,0,8,00,02,01,00,02,00,1D,12,
-1693295643901387,000003BA,false,Rx,0,8,7E,7F,3B,30,3A,3A,00,00,
-1693295643891275,000003BC,false,Rx,0,8,7E,7F,39,0A,00,5F,00,00,
-1693295643881462,000003BD,false,Rx,0,8,14,04,0D,00,00,00,00,00,
-1693295643871564,000003BE,false,Rx,0,8,00,00,00,80,00,00,00,00,
-1693295643811579,000003B8,false,Rx,0,8,00,02,01,00,02,00,1D,12,
-1693295643801638,000003BA,false,Rx,0,8,7E,7E,3B,30,3A,3A,00,00,
-1693295643791612,000003BC,false,Rx,0,8,7E,7E,39,0A,00,5F,00,00,
-1693295643781586,000003BD,false,Rx,0,8,14,04,0D,00,00,00,00,00,
-1693295643771688,000003BE,false,Rx,0,8,00,00,00,80,00,00,00,00,
-1693295643710977,000003B8,false,Rx,0,8,00,02,01,00,02,00,1D,12,
-1693295643701548,000003BA,false,Rx,0,8,7E,7E,3B,30,3A,3A,00,00,
-1693295643691608,000003BC,false,Rx,0,8,7E,7E,39,0A,00,5F,00,00,
-1693295643681582,000003BD,false,Rx,0,8,14,04,0D,00,00,00,00,00,
-1693295643671513,000003BE,false,Rx,0,8,00,00,00,80,00,00,00,00,
-1693295643611399,000003B8,false,Rx,0,8,00,02,01,00,02,00,1D,12,
-1693295643601587,000003BA,false,Rx,0,8,7E,7F,3B,30,3A,3A,00,00,
-1693295643591646,000003BC,false,Rx,0,8,7E,7F,39,09,00,5F,00,00,
-1693295643581620,000003BD,false,Rx,0,8,14,04,0D,00,00,00,00,00,
-1693295643571594,000003BE,false,Rx,0,8,00,00,00,80,00,00,00,00,
-1693295643511651,000003B8,false,Rx,0,8,00,02,01,00,02,00,1D,12,
-1693295643501625,000003BA,false,Rx,0,8,7E,7F,3B,30,3A,3A,00,00,
-1693295643491727,000003BC,false,Rx,0,8,7E,7F,39,09,00,5F,00,00,
-1693295643481103,000003BD,false,Rx,0,8,14,04,0D,00,00,00,00,00,
-1693295643471675,000003BE,false,Rx,0,8,00,00,00,80,00,00,00,00,
-1693295643411774,000003B8,false,Rx,0,8,00,02,01,00,02,00,1D,12,
-1693295643401791,000003BA,false,Rx,0,8,7E,7F,3B,30,3A,3A,00,00,
-1693295643391850,000003BC,false,Rx,0,8,7E,7F,39,09,00,5F,00,00,
-1693295643381440,000003BD,false,Rx,0,8,14,04,0D,00,00,00,00,00,
-1693295643371756,000003BE,false,Rx,0,8,00,00,00,80,00,00,00,00,
-1693295643311727,000003B8,false,Rx,0,8,00,02,01,00,02,00,1D,12,
-1693295643301744,000003BA,false,Rx,0,8,7E,7F,3B,30,3A,3A,00,00,
-1693295643291803,000003BC,false,Rx,0,8,7E,7F,39,09,00,5F,00,00,
-1693295643281820,000003BD,false,Rx,0,8,14,04,0D,00,00,00,00,00,
-1693295643271666,000003BE,false,Rx,0,8,00,00,00,80,00,00,00,00,
-1693295643211851,000003B8,false,Rx,0,8,00,02,01,00,02,00,1D,12,
-1693295643201228,000003BA,false,Rx,0,8,7E,7F,3B,30,3A,3A,00,00,
-1693295643191842,000003BC,false,Rx,0,8,7E,7F,39,09,00,5F,00,00,
-1693295643181944,000003BD,false,Rx,0,8,14,04,0D,00,00,00,00,00,
-1693295643171875,000003BE,false,Rx,0,8,00,00,00,80,00,00,00,00,
-1693295643111761,000003B8,false,Rx,0,8,00,02,01,00,02,00,1D,12,
-1693295643101522,000003BA,false,Rx,0,8,7E,7F,3B,30,3A,3A,00,00,
-1693295643091880,000003BC,false,Rx,0,8,7E,7F,39,09,00,5F,00,00,
-1693295643081982,000003BD,false,Rx,0,8,14,04,0D,00,00,00,00,00,
-1693295643071956,000003BE,false,Rx,0,8,00,00,00,80,00,00,00,00,
-1693295643011927,000003B8,false,Rx,0,8,00,02,01,00,02,00,1D,12,
-1693295643001987,000003BA,false,Rx,0,8,7E,7F,3B,30,3A,3A,00,00,
-1693295642991918,000003BC,false,Rx,0,8,7E,7F,39,09,00,5F,00,00,
-1693295642982020,000003BD,false,Rx,0,8,14,04,0D,00,00,00,00,00,
-1693295642972079,000003BE,false,Rx,0,8,00,00,00,80,00,00,00,00,
-1693295642912064,000003B8,false,Rx,0,8,00,02,01,00,02,00,1D,12,
-1693295642902166,000003BA,false,Rx,0,8,7E,7F,3B,30,3A,3A,00,00,
-1693295642892310,000003BC,false,Rx,0,8,7E,7F,39,09,00,5F,00,00,
-1693295642882199,000003BD,false,Rx,0,8,14,04,0D,00,00,00,00,00,
-1693295642871576,000003BE,false,Rx,0,8,00,00,00,80,00,00,00,00,
-1693295642812187,000003B8,false,Rx,0,8,00,02,01,00,02,00,1D,12,
-1693295642802460,000003BA,false,Rx,0,8,7E,7E,3B,30,3A,3A,00,00,
-1693295642792263,000003BC,false,Rx,0,8,7E,7E,38,FE,00,5F,00,00,
-1693295642782322,000003BD,false,Rx,0,8,14,04,0D,00,00,00,00,00,
-1693295642771827,000003BE,false,Rx,0,8,00,00,00,80,00,00,00,00,
-1693295642712354,000003B8,false,Rx,0,8,00,02,01,00,02,00,1D,12,
-1693295642702413,000003BA,false,Rx,0,8,7E,7E,3B,30,3A,3A,00,00,
-1693295642692344,000003BC,false,Rx,0,8,7E,7E,38,FE,00,5F,00,00,
-1693295642682489,000003BD,false,Rx,0,8,14,04,0D,00,00,00,00,00,
-1693295642672505,000003BE,false,Rx,0,8,00,00,00,80,00,00,00,00,
-1693295642612520,000003B8,false,Rx,0,8,00,02,01,00,02,00,1D,12,
-1693295642602494,000003BA,false,Rx,0,8,01,01,3B,30,3A,3A,00,00,
-1693295642592297,000003BC,false,Rx,0,8,01,01,38,FE,00,5F,00,00,
-1693295642582570,000003BD,false,Rx,0,8,14,04,0D,00,00,00,00,00,
-1693295642572544,000003BE,false,Rx,0,8,00,00,00,80,00,00,00,00,
-1693295642512643,000003B8,false,Rx,0,8,00,02,01,00,02,00,1D,12,
-1693295642502660,000003BA,false,Rx,0,8,01,01,3B,30,3A,3A,00,00,
-1693295642492805,000003BC,false,Rx,0,8,01,01,38,F2,00,5F,00,00,
-1693295642482139,000003BD,false,Rx,0,8,14,04,0D,00,00,00,00,00,
-1693295642472795,000003BE,false,Rx,0,8,00,00,00,80,00,00,00,00,
-1693295642412127,000003B8,false,Rx,0,8,00,02,01,00,02,00,1D,12,
-1693295642402784,000003BA,false,Rx,0,8,01,01,3B,30,3A,3A,00,00,
-1693295642392886,000003BC,false,Rx,0,8,01,01,38,F2,00,5F,00,00,
-1693295642382475,000003BD,false,Rx,0,8,14,04,0D,00,00,00,00,00,
-1693295642372876,000003BE,false,Rx,0,8,00,00,00,80,00,00,00,00,
-1693295642312379,000003B8,false,Rx,0,8,00,02,01,00,02,00,1D,12,
-1693295642302950,000003BA,false,Rx,0,8,01,01,3B,30,3A,3A,00,00,
-1693295642292924,000003BC,false,Rx,0,8,01,01,38,F2,00,5F,00,00,
-1693295642282855,000003BD,false,Rx,0,8,14,04,0D,00,00,00,00,00,
-1693295642272957,000003BE,false,Rx,0,8,00,00,00,80,00,00,00,00,
-1693295642212630,000003B8,false,Rx,0,8,00,02,01,00,02,00,1D,12,
-1693295642203116,000003BA,false,Rx,0,8,01,01,3B,30,3A,3A,00,00,
-1693295642193047,000003BC,false,Rx,0,8,01,01,38,F2,00,5F,00,00,
-1693295642183021,000003BD,false,Rx,0,8,14,04,0D,00,00,00,00,00,
-1693295642173123,000003BE,false,Rx,0,8,00,00,00,80,00,00,00,00,
-1693295642113010,000003B8,false,Rx,0,8,00,02,01,00,02,00,1D,12,
-1693295642103282,000003BA,false,Rx,0,8,01,01,3B,30,3A,3A,00,00,
-1693295642093256,000003BC,false,Rx,0,8,01,01,38,F2,00,5F,00,00,
-1693295642083188,000003BD,false,Rx,0,8,14,04,0D,00,00,00,00,00,
-1693295642073204,000003BE,false,Rx,0,8,00,00,00,80,00,00,00,00,
-1693295642013048,000003B8,false,Rx,0,8,00,02,01,00,02,00,1D,12,
-1693295642003150,000003BA,false,Rx,0,8,01,01,3B,30,3A,3A,00,00,
-1693295641993252,000003BC,false,Rx,0,8,01,01,38,F2,00,5F,00,00,
-1693295641983268,000003BD,false,Rx,0,8,14,04,0D,00,00,00,00,00,
-1693295641972730,000003BE,false,Rx,0,8,00,00,00,80,00,00,00,00,
-1693295641913234,000003B8,false,Rx,0,8,00,02,01,00,02,00,1D,12,
-1693295641903336,000003BA,false,Rx,0,8,01,01,3B,30,3A,3A,00,00,
-1693295641893267,000003BC,false,Rx,0,8,01,01,38,F0,00,5F,00,00,
-1693295641883369,000003BD,false,Rx,0,8,14,04,0D,00,00,00,00,00,
-1693295641872874,000003BE,false,Rx,0,8,00,00,00,80,00,00,00,00,
-1693295641813315,000003B8,false,Rx,0,8,00,02,01,00,02,00,1D,12,
-1693295641802905,000003BA,false,Rx,0,8,01,01,3B,30,3A,3A,00,00,
-1693295641793348,000003BC,false,Rx,0,8,01,01,38,F0,00,5F,00,00,
-1693295641783279,000003BD,false,Rx,0,8,14,04,0D,00,00,00,00,00,
-1693295641773168,000003BE,false,Rx,0,8,00,00,00,80,00,00,00,00,
-1693295641713353,000003B8,false,Rx,0,8,00,02,01,00,02,00,1D,12,
-1693295641703284,000003BA,false,Rx,0,8,01,01,3B,30,3A,3A,00,00,
-1693295641693514,000003BC,false,Rx,0,8,01,01,38,E6,00,5F,00,00,
-1693295641683531,000003BD,false,Rx,0,8,14,04,0D,00,00,00,00,00,
-1693295641673547,000003BE,false,Rx,0,8,00,00,00,80,00,00,00,00,
-1693295641613562,000003B8,false,Rx,0,8,00,02,01,00,02,00,1D,12,
-1693295641603621,000003BA,false,Rx,0,8,01,01,3B,30,3A,3A,00,00,
-1693295641593638,000003BC,false,Rx,0,8,01,01,38,E6,00,5F,00,00,
-1693295641583441,000003BD,false,Rx,0,8,14,04,0D,00,00,00,00,00,
-1693295641573330,000003BE,false,Rx,0,8,00,00,00,80,00,00,00,00,
-1693295641513472,000003B8,false,Rx,0,8,00,02,01,00,02,00,1D,12,
-1693295641503574,000003BA,false,Rx,0,8,01,01,3B,30,3A,3A,00,00,
-1693295641493505,000003BC,false,Rx,0,8,01,01,38,E6,00,5F,00,00,
-1693295641483479,000003BD,false,Rx,0,8,14,04,0D,00,00,00,00,00,
-1693295641473581,000003BE,false,Rx,0,8,00,00,00,80,00,00,00,00,
-1693295641413553,000003B8,false,Rx,0,8,00,02,01,00,02,00,1D,12,
-1693295641403698,000003BA,false,Rx,0,8,01,01,3B,30,3A,3A,00,00,
-1693295641393160,000003BC,false,Rx,0,8,01,01,38,DA,00,5F,00,00,
-1693295641383603,000003BD,false,Rx,0,8,14,04,0D,00,00,00,00,00,
-1693295641373705,000003BE,false,Rx,0,8,00,00,00,80,00,00,00,00,
-1693295641313719,000003B8,false,Rx,0,8,00,02,01,00,02,00,1D,12,
-1693295641303779,000003BA,false,Rx,0,8,01,01,3B,30,3A,3A,00,00,
-1693295641293283,000003BC,false,Rx,0,8,01,01,38,DA,00,5F,00,00,
-1693295641283769,000003BD,false,Rx,0,8,14,04,0D,00,00,00,00,00,
-1693295641273914,000003BE,false,Rx,0,8,00,00,00,80,00,00,00,00,
-1693295641213672,000003B8,false,Rx,0,8,00,02,01,00,02,00,1D,12,
-1693295641203774,000003BA,false,Rx,0,8,01,01,3B,30,3A,3A,00,00,
-1693295641193748,000003BC,false,Rx,0,8,01,01,38,DA,00,5F,00,00,
-1693295641183807,000003BD,false,Rx,0,8,14,04,0D,00,00,00,00,00,
-1693295641173696,000003BE,false,Rx,0,8,00,00,00,80,00,00,00,00,
-1693295641113710,000003B8,false,Rx,0,8,00,02,01,00,02,00,1D,12,
-1693295641103855,000003BA,false,Rx,0,8,01,01,3B,30,3A,3A,00,00,
-1693295641093957,000003BC,false,Rx,0,8,01,01,38,DA,00,5F,00,00,
-1693295641083888,000003BD,false,Rx,0,8,14,04,0D,00,00,00,00,00,
-1693295641073862,000003BE,false,Rx,0,8,00,00,00,80,00,00,00,00,
-1693295641013877,000003B8,false,Rx,0,8,00,02,01,00,02,00,1D,12,
-1693295641003979,000003BA,false,Rx,0,8,1B,1B,3C,30,3A,3A,00,00,
-1693295640994038,000003BC,false,Rx,0,8,1B,1B,38,DA,00,5F,00,00,
-1693295640984140,000003BD,false,Rx,0,8,14,04,0D,00,00,00,00,00,
-1693295640973645,000003BE,false,Rx,0,8,00,00,00,80,00,00,00,00,
-1693295640914098,000003B8,false,Rx,0,8,00,02,01,00,02,00,1D,12,
-1693295640904072,000003BA,false,Rx,0,8,7E,7F,3C,30,3A,3A,00,00,
-1693295640894217,000003BC,false,Rx,0,8,7E,7F,38,DA,00,5F,00,00,
-1693295640884148,000003BD,false,Rx,0,8,14,04,0D,00,00,00,00,00,
-1693295640873866,000003BE,false,Rx,0,8,00,00,00,80,00,00,00,00,
-1693295640814094,000003B8,false,Rx,0,8,00,02,01,00,02,00,1D,12,
-1693295640804238,000003BA,false,Rx,0,8,7E,7F,3C,30,3A,3A,00,00,
-1693295640794212,000003BC,false,Rx,0,8,7E,7F,38,D9,00,5F,00,00,
-1693295640784357,000003BD,false,Rx,0,8,14,04,0D,00,00,00,00,00,
-1693295640774246,000003BE,false,Rx,0,8,00,00,00,80,00,00,00,00,
-1693295640714345,000003B8,false,Rx,0,8,00,02,01,00,02,00,1D,12,
-1693295640704490,000003BA,false,Rx,0,8,7E,7F,3C,30,3A,3A,00,00,
-1693295640694464,000003BC,false,Rx,0,8,7E,7F,38,D9,00,5F,00,00,
-1693295640684395,000003BD,false,Rx,0,8,14,04,0D,00,00,00,00,00,
-1693295640674412,000003BE,false,Rx,0,8,00,00,00,80,00,00,00,00,
-1693295640614554,000003B8,false,Rx,0,8,00,02,01,00,02,00,1D,12,
-1693295640604528,000003BA,false,Rx,0,8,7E,7F,3C,30,3A,3A,00,00,
-1693295640594033,000003BC,false,Rx,0,8,7E,7F,38,D9,00,5F,00,00,
-1693295640584562,000003BD,false,Rx,0,8,14,04,0D,00,00,00,00,00,
-1693295640574450,000003BE,false,Rx,0,8,00,00,00,80,00,00,00,00,
-1693295640514465,000003B8,false,Rx,0,8,00,02,01,00,02,00,1D,12,
-1693295640504609,000003BA,false,Rx,0,8,7E,7F,3C,30,3A,3A,00,00,
-1693295640494370,000003BC,false,Rx,0,8,7E,7F,38,D9,00,5F,00,00,
-1693295640484472,000003BD,false,Rx,0,8,14,04,0D,00,00,00,00,00,
-1693295640474574,000003BE,false,Rx,0,8,00,00,00,80,00,00,00,00,
-1693295640414631,000003B8,false,Rx,0,8,00,02,01,00,02,00,1D,12,
-1693295640404733,000003BA,false,Rx,0,8,7E,7F,3C,30,3A,3A,00,00,
-1693295640394579,000003BC,false,Rx,0,8,7E,7F,38,D9,00,5F,00,00,
-1693295640384723,000003BD,false,Rx,0,8,14,04,0D,00,00,00,00,00,
-1693295640374740,000003BE,false,Rx,0,8,00,00,00,80,00,00,00,00,
-1693295640314114,000003B8,false,Rx,0,8,00,02,01,00,02,00,1D,12,
-1693295640304856,000003BA,false,Rx,0,8,7E,7F,3C,30,3A,3A,00,00,
-1693295640294916,000003BC,false,Rx,0,8,7E,7F,38,D9,00,5F,00,00,
-1693295640284890,000003BD,false,Rx,0,8,14,04,0D,00,00,00,00,00,
-1693295640274906,000003BE,false,Rx,0,8,00,00,00,80,00,00,00,00,
-1693295640214537,000003B8,false,Rx,0,8,00,02,01,00,02,00,1D,12,
-1693295640204895,000003BA,false,Rx,0,8,7E,7F,3C,30,3A,3A,00,00,
-1693295640195082,000003BC,false,Rx,0,8,7E,7F,38,C9,00,5F,00,00,
-1693295640184971,000003BD,false,Rx,0,8,14,04,0D,00,00,00,00,00,
-1693295640174902,000003BE,false,Rx,0,8,00,00,00,80,00,00,00,00,
-1693295640114788,000003B8,false,Rx,0,8,00,02,01,00,02,00,1D,12,
-1693295640105146,000003BA,false,Rx,0,8,7E,7F,3C,30,3A,3A,00,00,
-1693295640094949,000003BC,false,Rx,0,8,7E,7F,38,C9,00,5F,00,00,
-1693295640085051,000003BD,false,Rx,0,8,14,04,0D,00,00,00,00,00,
-1693295640074940,000003BE,false,Rx,0,8,00,00,00,80,00,00,00,00,
-1693295640015125,000003B8,false,Rx,0,8,00,02,01,00,02,00,1D,12,
-1693295640005184,000003BA,false,Rx,0,8,7E,7F,3C,30,3A,3A,00,00,
-1693295639995158,000003BC,false,Rx,0,8,7E,7F,38,C3,00,5F,00,00,
-1693295639985175,000003BD,false,Rx,0,8,14,04,0D,00,00,00,00,00,
-1693295639975064,000003BE,false,Rx,0,8,00,00,00,80,00,00,00,00,
-1693295639915049,000003B8,false,Rx,0,8,00,02,01,00,02,00,1D,12,
-1693295639905236,000003BA,false,Rx,0,8,7E,7F,3C,30,3A,3A,00,00,
-1693295639895210,000003BC,false,Rx,0,8,7E,7F,38,C3,00,5F,00,00,
-1693295639884715,000003BD,false,Rx,0,8,14,04,0D,00,00,00,00,00,
-1693295639875244,000003BE,false,Rx,0,8,00,00,00,80,00,00,00,00,
-1693295639815301,000003B8,false,Rx,0,8,00,02,01,00,02,00,1D,12,
-1693295639805403,000003BA,false,Rx,0,8,7E,7F,3C,30,3A,3A,00,00,
-1693295639795462,000003BC,false,Rx,0,8,7E,7F,38,C3,00,5F,00,00,
-1693295639785052,000003BD,false,Rx,0,8,14,04,0D,00,00,00,00,00,
-1693295639775367,000003BE,false,Rx,0,8,00,00,00,80,00,00,00,00,
-1693295639715467,000003B8,false,Rx,0,8,00,02,01,00,02,00,1D,12,
-1693295639705611,000003BA,false,Rx,0,8,7E,7F,3C,30,3A,3A,00,00,
-1693295639695585,000003BC,false,Rx,0,8,7E,7F,38,BF,00,5F,00,00,
-1693295639685559,000003BD,false,Rx,0,8,14,04,0D,00,00,00,00,00,
-1693295639675491,000003BE,false,Rx,0,8,00,00,00,80,00,00,00,00,
-1693295639615590,000003B8,false,Rx,0,8,00,02,01,00,02,00,1D,12,
-1693295639604924,000003BA,false,Rx,0,8,7E,7E,3C,30,3A,3A,00,00,
-1693295639595624,000003BC,false,Rx,0,8,7E,7E,38,BF,00,5F,00,00,
-1693295639585598,000003BD,false,Rx,0,8,14,04,0D,00,00,00,00,00,
-1693295639575742,000003BE,false,Rx,0,8,00,00,00,80,00,00,00,00,
-1693295639515714,000003B8,false,Rx,0,8,00,02,01,00,02,00,1D,12,
-1693295639505347,000003BA,false,Rx,0,8,7E,7F,3C,30,3A,3A,00,00,
-1693295639495875,000003BC,false,Rx,0,8,7E,7F,38,BF,00,5F,00,00,
-1693295639485849,000003BD,false,Rx,0,8,14,04,0D,00,00,00,00,00,
-1693295639475823,000003BE,false,Rx,0,8,00,00,00,80,00,00,00,00,
-1693295639415752,000003B8,false,Rx,0,8,00,02,01,00,02,00,1D,12,
-1693295639405684,000003BA,false,Rx,0,8,7E,7F,3C,30,3A,3A,00,00,
-1693295639396041,000003BC,false,Rx,0,8,7E,7F,38,AE,00,5F,00,00,
-1693295639385973,000003BD,false,Rx,0,8,14,04,0D,00,00,00,00,00,
-1693295639375947,000003BE,false,Rx,0,8,00,00,00,80,00,00,00,00,
-1693295639315918,000003B8,false,Rx,0,8,00,02,01,00,02,00,1D,12,
-1693295639306063,000003BA,false,Rx,0,8,7E,7F,3C,30,3A,3A,00,00,
-1693295639296037,000003BC,false,Rx,0,8,7E,7F,38,AE,00,5F,00,00,
-1693295639286011,000003BD,false,Rx,0,8,14,04,0D,00,00,00,00,00,
-1693295639275473,000003BE,false,Rx,0,8,00,00,00,80,00,00,00,00,
-1693295639216042,000003B8,false,Rx,0,8,00,02,01,00,02,00,1D,12,
-1693295639206144,000003BA,false,Rx,0,8,7E,7F,3C,30,3A,3A,00,00,
-1693295639196118,000003BC,false,Rx,0,8,7E,7F,38,AE,00,5F,00,00,
-1693295639186263,000003BD,false,Rx,0,8,14,04,0D,00,00,00,00,00,
-1693295639175725,000003BE,false,Rx,0,8,00,00,00,80,00,00,00,00,
-1693295639116294,000003B8,false,Rx,0,8,00,02,01,00,02,00,1D,12,
-1693295639106396,000003BA,false,Rx,0,8,7E,7F,3C,30,3A,3A,00,00,
-1693295639096370,000003BC,false,Rx,0,8,7E,7F,38,AB,00,5F,00,00,
-1693295639086301,000003BD,false,Rx,0,8,14,04,0D,00,00,00,00,00,
-1693295639076104,000003BE,false,Rx,0,8,00,00,00,80,00,00,00,00,
-1693295639016332,000003B8,false,Rx,0,8,00,02,01,00,02,00,1D,12,
-1693295639006434,000003BA,false,Rx,0,8,7E,7F,3C,30,3A,3A,00,00,
-1693295638996408,000003BC,false,Rx,0,8,7E,7F,38,AB,00,5F,00,00,
-1693295638986510,000003BD,false,Rx,0,8,14,04,0D,00,00,00,00,00,
-1693295638976356,000003BE,false,Rx,0,8,00,00,00,80,00,00,00,00,
-1693295638916358,000003B8,false,Rx,0,8,00,02,01,00,02,00,1D,12,
-1693295638906503,000003BA,false,Rx,0,8,7E,7F,3C,30,3A,3A,00,00,
-1693295638896008,000003BC,false,Rx,0,8,7E,7F,38,AB,00,5F,00,00,
-1693295638886366,000003BD,false,Rx,0,8,14,04,0D,00,00,00,00,00,
-1693295638876468,000003BE,false,Rx,0,8,00,00,00,80,00,00,00,00,
-1693295638816525,000003B8,false,Rx,0,8,00,02,01,00,02,00,1D,12,
-1693295638806499,000003BA,false,Rx,0,8,7E,7F,3C,30,3A,3A,00,00,
-1693295638796387,000003BC,false,Rx,0,8,7E,7F,38,AB,00,5F,00,00,
-1693295638786532,000003BD,false,Rx,0,8,14,04,0D,00,00,00,00,00,
-1693295638776463,000003BE,false,Rx,0,8,00,00,00,80,00,00,00,00,
-1693295638715923,000003B8,false,Rx,0,8,00,02,01,00,02,00,1D,12,
-1693295638706452,000003BA,false,Rx,0,8,7E,7F,3C,30,3A,3A,00,00,
-1693295638696511,000003BC,false,Rx,0,8,7E,7F,38,AB,00,5F,00,00,
-1693295638686527,000003BD,false,Rx,0,8,14,04,0D,00,00,00,00,00,
-1693295638676459,000003BE,false,Rx,0,8,00,00,00,80,00,00,00,00,
-1693295638616132,000003B8,false,Rx,0,8,00,02,01,00,02,00,1D,12,
-1693295638606660,000003BA,false,Rx,0,8,7E,7F,3C,30,3A,3A,00,00,
-1693295638596762,000003BC,false,Rx,0,8,7E,7F,38,AB,00,5F,00,00,
-1693295638586608,000003BD,false,Rx,0,8,14,04,0D,00,00,00,00,00,
-1693295638576668,000003BE,false,Rx,0,8,00,00,00,80,00,00,00,00,
-1693295638516511,000003B8,false,Rx,0,8,00,02,01,00,02,00,1D,12,
-1693295638506827,000003BA,false,Rx,0,8,7E,7F,3C,30,3A,3A,00,00,
-1693295638496843,000003BC,false,Rx,0,8,7E,7F,38,AB,00,5F,00,00,
-1693295638486903,000003BD,false,Rx,0,8,14,04,0D,00,00,00,00,00,
-1693295638476791,000003BE,false,Rx,0,8,00,00,00,80,00,00,00,00,
-1693295638416763,000003B8,false,Rx,0,8,00,02,01,00,02,00,1D,12,
-1693295638406950,000003BA,false,Rx,0,8,7E,7F,3C,30,3A,3A,00,00,
-1693295638396924,000003BC,false,Rx,0,8,7E,7F,38,AB,00,5F,00,00,
-1693295638386898,000003BD,false,Rx,0,8,14,04,0D,00,00,00,00,00,
-1693295638376958,000003BE,false,Rx,0,8,00,00,00,80,00,00,00,00,
-1693295638316801,000003B8,false,Rx,0,8,00,02,01,00,02,00,1D,12,
-1693295638306946,000003BA,false,Rx,0,8,7E,7F,3C,30,3A,3A,00,00,
-1693295638297005,000003BC,false,Rx,0,8,7E,7F,38,A5,00,5F,00,00,
-1693295638286339,000003BD,false,Rx,0,8,14,04,0D,00,00,00,00,00,
-1693295638276868,000003BE,false,Rx,0,8,00,00,00,80,00,00,00,00,
-1693295638217010,000003B8,false,Rx,0,8,00,02,01,00,02,00,1D,12,
-1693295638207112,000003BA,false,Rx,0,8,7E,7F,3C,30,3A,3A,00,00,
-1693295638197001,000003BC,false,Rx,0,8,7E,7F,38,A5,00,5F,00,00,
-1693295638186761,000003BD,false,Rx,0,8,14,04,0D,00,00,00,00,00,
-1693295638177077,000003BE,false,Rx,0,8,00,00,00,80,00,00,00,00,
-1693295638117134,000003B8,false,Rx,0,8,00,02,01,00,02,00,1D,12,
-1693295638107150,000003BA,false,Rx,0,8,7E,7F,3C,30,3A,3A,00,00,
-1693295638097210,000003BC,false,Rx,0,8,7E,7F,38,A5,00,5F,00,00,
-1693295638086928,000003BD,false,Rx,0,8,14,04,0D,00,00,00,00,00,
-1693295638077286,000003BE,false,Rx,0,8,00,00,00,80,00,00,00,00,
-1693295638017215,000003B8,false,Rx,0,8,00,02,01,00,02,00,1D,12,
-1693295638007359,000003BA,false,Rx,0,8,7E,7F,3C,30,3A,3A,00,00,
-1693295637997291,000003BC,false,Rx,0,8,7E,7F,38,95,00,5F,00,00,
-1693295637987393,000003BD,false,Rx,0,8,14,04,0D,00,00,00,00,00,
-1693295637977366,000003BE,false,Rx,0,8,00,00,00,80,00,00,00,00,
-1693295637917394,000003B8,false,Rx,0,8,00,02,01,00,02,00,1D,12,
-1693295637906770,000003BA,false,Rx,0,8,7E,7F,3C,30,3A,3A,00,00,
-1693295637897512,000003BC,false,Rx,0,8,7E,7F,38,95,00,5F,00,00,
-1693295637887443,000003BD,false,Rx,0,8,14,04,0D,00,00,00,00,00,
-1693295637877417,000003BE,false,Rx,0,8,00,00,00,80,00,00,00,00,
-1693295637817432,000003B8,false,Rx,0,8,00,02,01,00,02,00,1D,12,
-1693295637807192,000003BA,false,Rx,0,8,7E,7F,3C,30,3A,3A,00,00,
-1693295637797550,000003BC,false,Rx,0,8,7E,7F,38,95,00,5F,00,00,
-1693295637787652,000003BD,false,Rx,0,8,14,04,0D,00,00,00,00,00,
-1693295637777669,000003BE,false,Rx,0,8,00,00,00,80,00,00,00,00,
-1693295637717513,000003B8,false,Rx,0,8,00,02,01,00,02,00,1D,12,
-1693295637707487,000003BA,false,Rx,0,8,7E,7F,3C,30,3A,3A,00,00,
-1693295637697631,000003BC,false,Rx,0,8,7E,7F,38,94,00,5F,00,00,
-1693295637687733,000003BD,false,Rx,0,8,14,04,0D,00,00,00,00,00,
-1693295637677707,000003BE,false,Rx,0,8,00,00,00,80,00,00,00,00,
-1693295637617636,000003B8,false,Rx,0,8,00,02,01,00,02,00,1D,12,
-1693295637607781,000003BA,false,Rx,0,8,7E,7F,3C,30,3A,3A,00,00,
-1693295637597755,000003BC,false,Rx,0,8,7E,7F,38,94,00,5F,00,00,
-1693295637587899,000003BD,false,Rx,0,8,14,04,0D,00,00,00,00,00,
-1693295637577191,000003BE,false,Rx,0,8,00,00,00,80,00,00,00,00,
-1693295637517888,000003B8,false,Rx,0,8,00,02,01,00,02,00,1D,12,
