Time Stamp,ID,Extended,Dir,Bus,LEN,D1,D2,D3,D4,D5,D6,D7,D8
-1693295647031315,000003B8,false,Rx,0,8,64,00,00,00,00,00,00,12,
-1693295647021417,000003BA,false,Rx,0,8,7E,7E,41,41,41,41,00,00,
-1693295647011434,000003BC,false,Rx,0,8,7E,7E,00,00,00,00,00,00,
-1693295647001493,000003BD,false,Rx,0,8,14,04,0D,00,00,00,00,00,
-1693295646991382,000003BE,false,Rx,0,8,00,00,00,81,00,00,00,00,
-1693295646931439,000003B8,false,Rx,0,8,64,00,00,00,00,00,00,12,
-1693295646921285,000003BA,false,Rx,0,8,7E,7E,41,41,41,41,00,00,
-1693295646911557,000003BC,false,Rx,0,8,7E,7E,00,00,00,00,00,00,
-1693295646901659,000003BD,false,Rx,0,8,14,04,0D,00,00,00,00,00,
-1693295646891548,000003BE,false,Rx,0,8,00,00,00,81,00,00,00,00,
-1693295646831605,000003B8,false,Rx,0,8,64,00,00,00,00,00,00,12,
-1693295646821238,000003BA,false,Rx,0,8,7E,7E,41,41,41,41,00,00,
-1693295646811723,000003BC,false,Rx,0,8,7E,7E,00,00,00,00,00,00,
-1693295646801825,000003BD,false,Rx,0,8,14,04,0D,00,00,00,00,00,
-1693295646791714,000003BE,false,Rx,0,8,00,00,00,81,00,00,00,00,
-1693295646731728,000003B8,false,Rx,0,8,64,00,00,00,00,00,00,12,
-1693295646721190,000003BA,false,Rx,0,8,7E,7E,41,41,41,41,00,00,
-1693295646711847,000003BC,false,Rx,0,8,7E,7E,00,00,00,00,00,00,
-1693295646701949,000003BD,false,Rx,0,8,14,04,0D,00,00,00,00,00,
-1693295646691838,000003BE,false,Rx,0,8,00,00,00,81,00,00,00,00,
-1693295646631852,000003B8,false,Rx,0,8,64,00,00,00,00,00,00,12,
-1693295646621997,000003BA,false,Rx,0,8,7E,7E,41,41,41,41,00,00,
-1693295646611971,000003BC,false,Rx,0,8,7E,7E,00,00,00,00,00,00,
-1693295646601902,000003BD,false,Rx,0,8,14,04,0D,00,00,00,00,00,
-1693295646591961,000003BE,false,Rx,0,8,00,00,00,81,00,00,00,00,
-1693295646532018,000003B8,false,Rx,0,8,64,00,00,00,00,00,00,12,
-1693295646522163,000003BA,false,Rx,0,8,7E,7F,41,41,41,41,00,00,
-1693295646512179,000003BC,false,Rx,0,8,7E,7F,00,00,00,00,00,00,
-1693295646501897,000003BD,false,Rx,0,8,14,04,0D,00,00,00,00,00,
-1693295646492170,000003BE,false,Rx,0,8,00,00,00,81,00,00,00,00,
-1693295646432227,000003B8,false,Rx,0,8,64,00,00,00,00,00,00,12,
-1693295646422329,000003BA,false,Rx,0,8,7E,7F,41,41,41,41,00,00,
-1693295646412346,000003BC,false,Rx,0,8,7E,7F,00,00,00,00,00,00,
-1693295646401850,000003BD,false,Rx,0,8,14,04,0D,00,00,00,00,00,
-1693295646392336,000003BE,false,Rx,0,8,00,00,00,81,00,00,00,00,
-1693295646332393,000003B8,false,Rx,0,8,64,00,00,00,00,00,00,12,
-1693295646322495,000003BA,false,Rx,0,8,7E,7F,41,41,41,41,00,00,
-1693295646312512,000003BC,false,Rx,0,8,7E,7F,00,00,00,00,00,00,
-1693295646301846,000003BD,false,Rx,0,8,14,04,0D,00,00,00,00,00,
-1693295646292503,000003BE,false,Rx,0,8,00,00,00,81,00,00,00,00,
-1693295646232517,000003B8,false,Rx,0,8,64,00,00,00,00,00,00,12,
-1693295646222662,000003BA,false,Rx,0,8,7E,7E,41,41,41,41,00,00,
-1693295646212636,000003BC,false,Rx,0,8,7E,7E,00,00,00,00,00,00,
-1693295646202567,000003BD,false,Rx,0,8,14,04,0D,00,00,00,00,00,
-1693295646192626,000003BE,false,Rx,0,8,00,00,00,81,00,00,00,00,
-1693295646132043,000003B8,false,Rx,0,8,64,00,00,00,00,00,38,12,
-1693295646122785,000003BA,false,Rx,0,8,7E,7F,41,41,41,41,00,00,
-1693295646112674,000003BC,false,Rx,0,8,7E,7F,00,00,00,00,00,00,
-1693295646102818,000003BD,false,Rx,0,8,14,04,0D,00,00,00,00,00,
-1693295646092707,000003BE,false,Rx,0,8,00,00,00,81,00,00,00,00,
-1693295646032819,000003B8,false,Rx,0,8,00,00,00,00,00,00,38,12,
-1693295646022879,000003BA,false,Rx,0,8,7E,7E,41,41,41,41,00,00,
-1693295646012810,000003BC,false,Rx,0,8,7E,7E,00,00,00,00,00,00,
-1693295646002443,000003BD,false,Rx,0,8,14,04,0D,00,00,00,00,00,
-1693295645992801,000003BE,false,Rx,0,8,00,00,00,81,00,00,00,00,
-1693295645932815,000003B8,false,Rx,0,8,00,00,00,00,00,00,38,12,
-1693295645922405,000003BA,false,Rx,0,8,7E,7E,41,41,41,41,00,00,
-1693295645913019,000003BC,false,Rx,0,8,7E,7E,00,00,00,00,00,00,
-1693295645903078,000003BD,false,Rx,0,8,14,04,0D,00,00,00,00,00,
-1693295645893052,000003BE,false,Rx,0,8,00,00,00,81,00,00,00,00,
-1693295645833024,000003B8,false,Rx,0,8,00,00,01,00,00,00,38,12,
-1693295645823169,000003BA,false,Rx,0,8,7E,7E,41,41,41,41,00,00,
-1693295645813015,000003BC,false,Rx,0,8,7E,7E,01,D4,00,3C,00,00,
-1693295645803202,000003BD,false,Rx,0,8,14,04,0D,00,00,00,00,00,
-1693295645792749,000003BE,false,Rx,0,8,00,00,00,81,00,00,00,00,
-1693295645733148,000003B8,false,Rx,0,8,00,00,01,00,00,00,38,12,
-1693295645723164,000003BA,false,Rx,0,8,7E,7E,41,41,41,41,00,00,
-1693295645713138,000003BC,false,Rx,0,8,7E,7E,01,D4,00,3C,00,00,
-1693295645703368,000003BD,false,Rx,0,8,14,04,0D,00,00,00,00,00,
-1693295645693299,000003BE,false,Rx,0,8,00,00,00,81,00,00,00,00,
-1693295645633058,000003B8,false,Rx,0,8,00,00,01,00,00,00,38,12,
-1693295645623458,000003BA,false,Rx,0,8,7E,7E,2D,25,2F,31,00,00,
-1693295645613347,000003BC,false,Rx,0,8,7E,7E,01,D4,00,3C,00,00,
-1693295645603492,000003BD,false,Rx,0,8,14,04,0D,00,00,00,00,00,
-1693295645593466,000003BE,false,Rx,0,8,00,00,00,81,00,00,00,00,
-1693295645533437,000003B8,false,Rx,0,8,00,00,01,00,00,00,38,12,
-1693295645523625,000003BA,false,Rx,0,8,7E,7E,2D,25,2F,31,00,00,
-1693295645513556,000003BC,false,Rx,0,8,7E,7E,01,D4,00,3C,00,00,
-1693295645503317,000003BD,false,Rx,0,8,14,04,0D,00,00,00,00,00,
-1693295645493504,000003BE,false,Rx,0,8,00,00,00,81,00,00,00,00,
-1693295645433433,000003B8,false,Rx,0,8,00,00,01,00,04,00,89,12,
-1693295645423151,000003BA,false,Rx,0,8,7E,7E,2D,25,2F,31,00,00,
-1693295645413637,000003BC,false,Rx,0,8,7E,7E,01,D4,00,3C,00,00,
-1693295645403568,000003BD,false,Rx,0,8,14,04,0D,00,00,00,00,00,
-1693295645393542,000003BE,false,Rx,0,8,00,00,00,81,00,00,00,00,
-1693295645333556,000003B8,false,Rx,0,8,00,00,01,00,04,00,89,12,
-1693295645323658,000003BA,false,Rx,0,8,7E,7E,2D,25,2F,31,00,00,
-1693295645313547,000003BC,false,Rx,0,8,7E,7E,01,D2,00,3C,00,00,
-1693295645303692,000003BD,false,Rx,0,8,14,04,0D,00,00,00,00,00,
-1693295645293452,000003BE,false,Rx,0,8,00,00,00,81,00,00,00,00,
-1693295645233723,000003B8,false,Rx,0,8,00,00,01,00,04,00,89,12,
-1693295645223697,000003BA,false,Rx,0,8,7E,7E,2D,25,2F,31,00,00,
-1693295645213244,000003BC,false,Rx,0,8,7E,7E,01,D2,00,3C,00,00,
-1693295645203815,000003BD,false,Rx,0,8,14,04,0D,00,00,00,00,00,
-1693295645193789,000003BE,false,Rx,0,8,00,00,00,81,00,00,00,00,
-1693295645133036,000003B8,false,Rx,0,8,00,00,01,00,04,00,89,12,
-1693295645123906,000003BA,false,Rx,0,8,7E,7E,30,28,32,34,00,00,
-1693295645113837,000003BC,false,Rx,0,8,7E,7E,01,D2,00,3C,00,00,
-1693295645103854,000003BD,false,Rx,0,8,14,04,0D,00,00,00,00,00,
-1693295645093827,000003BE,false,Rx,0,8,00,00,00,81,00,00,00,00,
-1693295645033769,000003B8,false,Rx,0,8,00,00,01,00,04,00,89,12,
-1693295645023999,000003BA,false,Rx,0,8,7E,7F,30,28,32,34,00,00,
-1693295645013930,000003BC,false,Rx,0,8,7E,7F,01,D2,00,3C,00,00,
-1693295645003307,000003BD,false,Rx,0,8,14,04,0D,00,00,00,00,00,
-1693295644993921,000003BE,false,Rx,0,8,00,00,00,81,00,00,00,00,
-1693295644933978,000003B8,false,Rx,0,8,00,00,01,00,04,00,89,12,
-1693295644924037,000003BA,false,Rx,0,8,7E,7E,30,28,32,34,00,00,
-1693295644914139,000003BC,false,Rx,0,8,7E,7E,01,D2,00,3C,00,00,
-1693295644903943,000003BD,false,Rx,0,8,14,04,0D,00,00,00,00,00,
-1693295644894087,000003BE,false,Rx,0,8,00,00,00,81,00,00,00,00,
-1693295644834144,000003B8,false,Rx,0,8,00,00,01,00,04,00,89,12,
-1693295644823734,000003BA,false,Rx,0,8,7E,7E,30,28,32,34,00,00,
-1693295644814348,000003BC,false,Rx,0,8,7E,7E,01,D2,00,3C,00,00,
-1693295644804365,000003BD,false,Rx,0,8,14,04,0D,00,00,00,00,00,
-1693295644794296,000003BE,false,Rx,0,8,00,00,00,81,00,00,00,00,
-1693295644734311,000003B8,false,Rx,0,8,00,01,01,00,04,00,89,12,
-1693295644724285,000003BA,false,Rx,0,8,7E,7F,30,28,32,34,00,00,
-1693295644714301,000003BC,false,Rx,0,8,7E,7F,01,D0,00,3C,00,00,
-1693295644704403,000003BD,false,Rx,0,8,14,04,0D,00,00,00,00,00,
-1693295644693822,000003BE,false,Rx,0,8,00,00,00,81,00,00,00,00,
-1693295644634264,000003B8,false,Rx,0,8,00,01,01,00,04,00,89,12,
-1693295644624365,000003BA,false,Rx,0,8,7E,7F,30,28,32,34,00,00,
-1693295644613870,000003BC,false,Rx,0,8,7E,7F,01,D0,00,3C,00,00,
-1693295644604441,000003BD,false,Rx,0,8,14,04,0D,00,00,00,00,00,
-1693295644594415,000003BE,false,Rx,0,8,00,00,00,80,00,00,00,00,
-1693295644533747,000003B8,false,Rx,0,8,00,01,01,00,04,00,89,12,
-1693295644524489,000003BA,false,Rx,0,8,7E,7E,32,2A,34,35,00,00,
-1693295644514634,000003BC,false,Rx,0,8,7E,7E,01,D0,00,3C,00,00,
-1693295644504608,000003BD,false,Rx,0,8,14,04,0D,00,00,00,00,00,
-1693295644494582,000003BE,false,Rx,0,8,00,00,00,80,00,00,00,00,
-1693295644434681,000003B8,false,Rx,0,8,00,01,01,00,04,00,89,12,
-1693295644424698,000003BA,false,Rx,0,8,7E,7E,32,2A,34,35,00,00,
-1693295644414629,000003BC,false,Rx,0,8,7E,7E,01,D0,00,3C,00,00,
-1693295644404475,000003BD,false,Rx,0,8,14,04,0D,00,00,00,00,00,
-1693295644394620,000003BE,false,Rx,0,8,00,00,00,80,00,00,00,00,
-1693295644334634,000003B8,false,Rx,0,8,00,01,01,00,04,00,89,12,
-1693295644324352,000003BA,false,Rx,0,8,7E,7F,32,2A,34,35,00,00,
-1693295644314753,000003BC,false,Rx,0,8,7E,7F,01,D0,00,3C,00,00,
-1693295644304855,000003BD,false,Rx,0,8,14,04,0D,00,00,00,00,00,
-1693295644294914,000003BE,false,Rx,0,8,00,00,00,80,00,00,00,00,
-1693295644234886,000003B8,false,Rx,0,8,00,02,01,00,03,00,1D,12,
-1693295644224902,000003BA,false,Rx,0,8,7E,7F,32,2A,34,35,00,00,
-1693295644214876,000003BC,false,Rx,0,8,7E,7F,01,C5,00,5F,00,00,
-1693295644204893,000003BD,false,Rx,0,8,14,04,0D,00,00,00,00,00,
-1693295644194184,000003BE,false,Rx,0,8,00,00,00,80,00,00,00,00,
-1693295644134967,000003B8,false,Rx,0,8,00,02,01,00,03,00,1D,12,
-1693295644124983,000003BA,false,Rx,0,8,7E,7F,34,2C,36,36,00,00,
-1693295644114915,000003BC,false,Rx,0,8,7E,7F,01,C5,00,5F,00,00,
-1693295644105102,000003BD,false,Rx,0,8,14,04,0D,00,00,00,00,00,
-1693295644094820,000003BE,false,Rx,0,8,00,00,00,80,00,00,00,00,
-1693295644035221,000003B8,false,Rx,0,8,00,02,01,00,02,00,1D,12,
-1693295644025152,000003BA,false,Rx,0,8,7E,7E,34,2C,36,36,00,00,
-1693295644015340,000003BC,false,Rx,0,8,7E,7E,01,C5,00,5F,00,00,
-1693295644005314,000003BD,false,Rx,0,8,14,04,0D,00,00,00,00,00,
-1693295643995202,000003BE,false,Rx,0,8,00,00,00,80,00,00,00,00,
-1693295643935217,000003B8,false,Rx,0,8,00,02,01,00,02,00,1D,12,
-1693295643925276,000003BA,false,Rx,0,8,7E,7F,34,2C,36,36,00,00,
-1693295643915207,000003BC,false,Rx,0,8,7E,7F,01,C1,00,5F,00,00,
-1693295643905224,000003BD,false,Rx,0,8,14,04,0D,00,00,00,00,00,
-1693295643895326,000003BE,false,Rx,0,8,00,00,00,80,00,00,00,00,
-1693295643834743,000003B8,false,Rx,0,8,00,02,01,00,02,00,1D,12,
-1693295643825143,000003BA,false,Rx,0,8,7E,7F,34,2C,36,37,00,00,
-1693295643815288,000003BC,false,Rx,0,8,7E,7F,01,C1,00,5F,00,00,
-1693295643805134,000003BD,false,Rx,0,8,14,04,0D,00,00,00,00,00,
-1693295643795236,000003BE,false,Rx,0,8,00,00,00,80,00,00,00,00,
-1693295643735208,000003B8,false,Rx,0,8,00,02,01,00,02,00,1D,12,
-1693295643725438,000003BA,false,Rx,0,8,7E,7F,34,2C,36,37,00,00,
-1693295643715369,000003BC,false,Rx,0,8,7E,7F,01,C1,00,5F,00,00,
-1693295643704916,000003BD,false,Rx,0,8,14,04,0D,00,00,00,00,00,
-1693295643695317,000003BE,false,Rx,0,8,00,00,00,80,00,00,00,00,
-1693295643635417,000003B8,false,Rx,0,8,00,02,01,00,02,00,1D,12,
-1693295643625433,000003BA,false,Rx,0,8,7E,7E,34,2C,36,37,00,00,
-1693295643615578,000003BC,false,Rx,0,8,7E,7E,01,BE,00,5F,00,00,
-1693295643605509,000003BD,false,Rx,0,8,14,04,0D,00,00,00,00,00,
-1693295643595526,000003BE,false,Rx,0,8,00,00,00,80,00,00,00,00,
-1693295643535498,000003B8,false,Rx,0,8,00,02,01,00,02,00,1D,12,
-1693295643525301,000003BA,false,Rx,0,8,7E,7F,35,2D,37,37,00,00,
-1693295643515659,000003BC,false,Rx,0,8,7E,7F,01,BE,00,5F,00,00,
-1693295643505590,000003BD,false,Rx,0,8,14,04,0D,00,00,00,00,00,
-1693295643495521,000003BE,false,Rx,0,8,00,00,00,80,00,00,00,00,
-1693295643435749,000003B8,false,Rx,0,8,00,02,01,00,02,00,1D,12,
-1693295643425766,000003BA,false,Rx,0,8,7E,7F,35,2D,37,37,00,00,
-1693295643415740,000003BC,false,Rx,0,8,7E,7F,01,BE,00,5F,00,00,
-1693295643405714,000003BD,false,Rx,0,8,14,04,0D,00,00,00,00,00,
-1693295643395261,000003BE,false,Rx,0,8,00,00,00,80,00,00,00,00,
-1693295643335745,000003B8,false,Rx,0,8,00,02,01,00,02,00,1D,12,
-1693295643325761,000003BA,false,Rx,0,8,7E,7E,35,2D,37,37,00,00,
-1693295643315053,000003BC,false,Rx,0,8,7E,7E,01,BD,00,5F,00,00,
-1693295643305795,000003BD,false,Rx,0,8,14,04,0D,00,00,00,00,00,
-1693295643295641,000003BE,false,Rx,0,8,00,00,00,80,00,00,00,00,
-1693295643235698,000003B8,false,Rx,0,8,00,02,01,00,02,00,1D,12,
-1693295643225885,000003BA,false,Rx,0,8,7E,7E,35,2D,37,37,00,00,
-1693295643215646,000003BC,false,Rx,0,8,7E,7E,01,BD,00,5F,00,00,
-1693295643205833,000003BD,false,Rx,0,8,14,04,0D,00,00,00,00,00,
-1693295643195849,000003BE,false,Rx,0,8,00,00,00,80,00,00,00,00,
-1693295643135309,000003B8,false,Rx,0,8,00,02,01,00,02,00,1D,12,
-1693295643125752,000003BA,false,Rx,0,8,7E,7E,35,2D,37,37,00,00,
-1693295643115854,000003BC,false,Rx,0,8,7E,7E,01,BD,00,5F,00,00,
-1693295643105828,000003BD,false,Rx,0,8,14,04,0D,00,00,00,00,00,
-1693295643095888,000003BE,false,Rx,0,8,00,00,00,80,00,00,00,00,
-1693295643035965,000003B8,false,Rx,0,8,00,02,01,00,02,00,1D,12,
-1693295643026024,000003BA,false,Rx,0,8,7E,7F,35,2D,37,37,00,00,
-1693295643016041,000003BC,false,Rx,0,8,7E,7F,01,BD,00,5F,00,00,
-1693295643005972,000003BD,false,Rx,0,8,14,04,0D,00,00,00,00,00,
-1693295642995989,000003BE,false,Rx,0,8,00,00,00,80,00,00,00,00,
-1693295642936003,000003B8,false,Rx,0,8,00,02,01,00,02,00,1D,12,
-1693295642926190,000003BA,false,Rx,0,8,7E,7E,35,2D,37,38,00,00,
-1693295642916164,000003BC,false,Rx,0,8,7E,7E,01,BD,00,5F,00,00,
-1693295642905882,000003BD,false,Rx,0,8,14,04,0D,00,00,00,00,00,
-1693295642896070,000003BE,false,Rx,0,8,00,00,00,80,00,00,00,00,
-1693295642836169,000003B8,false,Rx,0,8,00,02,01,00,02,00,1D,12,
-1693295642825674,000003BA,false,Rx,0,8,7E,7F,35,2D,37,38,00,00,
-1693295642816203,000003BC,false,Rx,0,8,7E,7F,01,BD,00,5F,00,00,
-1693295642806262,000003BD,false,Rx,0,8,14,04,0D,00,00,00,00,00,
-1693295642796236,000003BE,false,Rx,0,8,00,00,00,80,00,00,00,00,
-1693295642736250,000003B8,false,Rx,0,8,00,02,01,00,02,00,1D,12,
-1693295642726181,000003BA,false,Rx,0,8,7E,7F,36,2D,37,38,00,00,
-1693295642716411,000003BC,false,Rx,0,8,7E,7F,01,BD,00,5F,00,00,
-1693295642706385,000003BD,false,Rx,0,8,14,04,0D,00,00,00,00,00,
-1693295642696402,000003BE,false,Rx,0,8,00,00,00,80,00,00,00,00,
-1693295642636416,000003B8,false,Rx,0,8,00,02,01,00,02,00,1D,12,
-1693295642626348,000003BA,false,Rx,0,8,7E,7F,36,2D,37,38,00,00,
-1693295642616407,000003BC,false,Rx,0,8,7E,7F,01,BD,00,5F,00,00,
-1693295642606338,000003BD,false,Rx,0,8,14,04,0D,00,00,00,00,00,
-1693295642596227,000003BE,false,Rx,0,8,00,00,00,80,00,00,00,00,
-1693295642536455,000003B8,false,Rx,0,8,00,02,01,00,02,00,1D,12,
-1693295642526514,000003BA,false,Rx,0,8,7E,7F,36,2D,37,38,00,00,
-1693295642515848,000003BC,false,Rx,0,8,7E,7F,01,BD,00,5F,00,00,
-1693295642506462,000003BD,false,Rx,0,8,14,04,0D,00,00,00,00,00,
-1693295642496521,000003BE,false,Rx,0,8,00,00,00,80,00,00,00,00,
-1693295642436450,000003B8,false,Rx,0,8,00,02,01,00,02,00,1D,12,
-1693295642426510,000003BA,false,Rx,0,8,7E,7F,36,2E,38,38,00,00,
-1693295642416569,000003BC,false,Rx,0,8,7E,7F,01,BD,00,5F,00,00,
-1693295642406585,000003BD,false,Rx,0,8,14,04,0D,00,00,00,00,00,
-1693295642396517,000003BE,false,Rx,0,8,00,00,00,80,00,00,00,00,
-1693295642336403,000003B8,false,Rx,0,8,00,02,01,00,03,39,77,12,
-1693295642326590,000003BA,false,Rx,0,8,7E,7E,36,2E,38,38,00,00,
-1693295642316735,000003BC,false,Rx,0,8,7E,7E,01,BD,00,5F,00,00,
-1693295642306752,000003BD,false,Rx,0,8,14,04,0D,00,00,00,00,00,
-1693295642296640,000003BE,false,Rx,0,8,00,00,00,80,00,00,00,00,
-1693295642236825,000003B8,false,Rx,0,8,00,02,01,00,03,39,77,12,
-1693295642226757,000003BA,false,Rx,0,8,7E,7E,36,2E,38,38,00,00,
-1693295642216901,000003BC,false,Rx,0,8,7E,7E,01,BD,00,5F,00,00,
-1693295642206449,000003BD,false,Rx,0,8,14,04,0D,00,00,00,00,00,
-1693295642196807,000003BE,false,Rx,0,8,00,00,00,80,00,00,00,00,
-1693295642136693,000003B8,false,Rx,0,8,00,02,01,00,03,39,77,12,
-1693295642126923,000003BA,false,Rx,0,8,7E,7E,36,2E,38,38,00,00,
-1693295642116854,000003BC,false,Rx,0,8,7E,7E,01,BD,00,5F,00,00,
-1693295642106828,000003BD,false,Rx,0,8,14,04,0D,00,00,00,00,00,
-1693295642096845,000003BE,false,Rx,0,8,00,00,00,80,00,00,00,00,
-1693295642036789,000003B8,false,Rx,0,8,00,02,01,00,03,4A,E0,12,
-1693295642026592,000003BA,false,Rx,0,8,7E,7F,36,2E,38,38,00,00,
-1693295642016950,000003BC,false,Rx,0,8,7E,7F,01,BD,00,5F,00,00,
-1693295642007052,000003BD,false,Rx,0,8,14,04,0D,00,00,00,00,00,
-1693295641996983,000003BE,false,Rx,0,8,00,00,00,80,00,00,00,00,
-1693295641936912,000003B8,false,Rx,0,8,00,02,01,00,03,4A,E0,12,
-1693295641926843,000003BA,false,Rx,0,8,7E,7F,36,2E,38,38,00,00,
-1693295641917031,000003BC,false,Rx,0,8,7E,7F,01,BD,00,5F,00,00,
-1693295641906962,000003BD,false,Rx,0,8,14,04,0D,00,00,00,00,00,
-1693295641896253,000003BE,false,Rx,0,8,00,00,00,80,00,00,00,00,
-1693295641837036,000003B8,false,Rx,0,8,00,02,01,00,03,4A,E0,12,
-1693295641827010,000003BA,false,Rx,0,8,7E,7E,37,2E,38,38,00,00,
-1693295641817197,000003BC,false,Rx,0,8,7E,7E,01,BD,00,5F,00,00,
-1693295641807043,000003BD,false,Rx,0,8,14,04,0D,00,00,00,00,00,
-1693295641796505,000003BE,false,Rx,0,8,00,00,00,80,00,00,00,00,
-1693295641737202,000003B8,false,Rx,0,8,00,02,01,00,03,4C,D0,12,
-1693295641727176,000003BA,false,Rx,0,8,7E,7F,37,2E,38,38,00,00,
-1693295641717193,000003BC,false,Rx,0,8,7E,7F,01,BD,00,5F,00,00,
-1693295641707252,000003BD,false,Rx,0,8,14,04,0D,00,00,00,00,00,
-1693295641696714,000003BE,false,Rx,0,8,00,00,00,80,00,00,00,00,
-1693295641637240,000003B8,false,Rx,0,8,00,02,01,00,03,4C,D0,12,
-1693295641627427,000003BA,false,Rx,0,8,7E,7E,37,2E,38,38,00,00,
-1693295641617359,000003BC,false,Rx,0,8,7E,7E,01,BD,00,5F,00,00,
-1693295641607418,000003BD,false,Rx,0,8,14,04,0D,00,00,00,00,00,
-1693295641596923,000003BE,false,Rx,0,8,00,00,00,80,00,00,00,00,
-1693295641537321,000003B8,false,Rx,0,8,00,02,01,00,03,4C,D0,12,
-1693295641527508,000003BA,false,Rx,0,8,7E,7F,37,2E,38,38,00,00,
-1693295641517482,000003BC,false,Rx,0,8,7E,7F,01,BD,00,5F,00,00,
-1693295641507542,000003BD,false,Rx,0,8,14,04,0D,00,00,00,00,00,
-1693295641497217,000003BE,false,Rx,0,8,00,00,00,80,00,00,00,00,
-1693295641437530,000003B8,false,Rx,0,8,00,02,01,00,03,4D,0A,12,
-1693295641427632,000003BA,false,Rx,0,8,7E,7F,37,2E,38,38,00,00,
-1693295641416795,000003BC,false,Rx,0,8,7E,7F,01,BD,00,5F,00,00,
-1693295641407623,000003BD,false,Rx,0,8,14,04,0D,00,00,00,00,00,
-1693295641397639,000003BE,false,Rx,0,8,00,00,00,80,00,00,00,00,
-1693295641337739,000003B8,false,Rx,0,8,00,02,01,00,03,4D,0A,12,
-1693295641327841,000003BA,false,Rx,0,8,7E,7E,37,2E,38,38,00,00,
-1693295641317303,000003BC,false,Rx,0,8,7E,7E,01,BD,00,5F,00,00,
-1693295641307703,000003BD,false,Rx,0,8,14,04,0D,00,00,00,00,00,
-1693295641297592,000003BE,false,Rx,0,8,00,00,00,80,00,00,00,00,
-1693295641237862,000003B8,false,Rx,0,8,00,02,01,00,03,4D,0A,12,
-1693295641227964,000003BA,false,Rx,0,8,7E,7E,37,2E,38,38,00,00,
-1693295641217512,000003BC,false,Rx,0,8,7E,7E,01,BD,00,5F,00,00,
-1693295641207912,000003BD,false,Rx,0,8,14,04,0D,00,00,00,00,00,
-1693295641197844,000003BE,false,Rx,0,8,00,00,00,80,00,00,00,00,
-1693295641137943,000003B8,false,Rx,0,8,00,02,01,00,03,4D,0A,12,
-1693295641127875,000003BA,false,Rx,0,8,7E,7F,37,2E,38,38,00,00,
-1693295641117849,000003BC,false,Rx,0,8,7E,7F,01,BD,00,5F,00,00,
-1693295641107865,000003BD,false,Rx,0,8,14,04,0D,00,00,00,00,00,
-1693295641097967,000003BE,false,Rx,0,8,00,00,00,80,00,00,00,00,
-1693295641037312,000003B8,false,Rx,0,8,00,02,01,00,03,4D,0A,12,
-1693295641027968,000003BA,false,Rx,0,8,7E,7F,37,2E,38,38,00,00,
-1693295641018070,000003BC,false,Rx,0,8,7E,7F,01,BD,00,5F,00,00,
-1693295641008044,000003BD,false,Rx,0,8,14,04,0D,00,00,00,00,00,
-1693295640998146,000003BE,false,Rx,0,8,00,00,00,80,00,00,00,00,
-1693295640937521,000003B8,false,Rx,0,8,00,02,01,00,03,4D,0A,12,
-1693295640928177,000003BA,false,Rx,0,8,7E,7E,37,2E,38,38,00,00,
-1693295640918236,000003BC,false,Rx,0,8,7E,7E,01,BD,00,5F,00,00,
-1693295640908253,000003BD,false,Rx,0,8,14,04,0D,00,00,00,00,00,
-1693295640898184,000003BE,false,Rx,0,8,00,00,00,80,00,00,00,00,
-1693295640838113,000003B8,false,Rx,0,8,00,02,01,00,03,4D,0A,12,
-1693295640828301,000003BA,false,Rx,0,8,7E,7E,37,2E,38,38,00,00,
-1693295640818360,000003BC,false,Rx,0,8,7E,7E,01,BD,00,5F,00,00,
-1693295640808377,000003BD,false,Rx,0,8,14,04,0D,00,00,00,00,00,
-1693295640798308,000003BE,false,Rx,0,8,00,00,00,80,00,00,00,00,
-1693295640738408,000003B8,false,Rx,0,8,00,02,01,00,03,4D,0A,12,
-1693295640728510,000003BA,false,Rx,0,8,7E,7E,37,2E,38,38,00,00,
-1693295640718398,000003BC,false,Rx,0,8,7E,7E,01,BD,00,5F,00,00,
-1693295640707818,000003BD,false,Rx,0,8,14,04,0D,00,00,00,00,00,
-1693295640698517,000003BE,false,Rx,0,8,00,00,00,80,00,00,00,00,
-1693295640638403,000003B8,false,Rx,0,8,00,02,01,00,03,4D,0A,12,
-1693295640628420,000003BA,false,Rx,0,8,7E,7E,37,2E,38,38,00,00,
-1693295640618479,000003BC,false,Rx,0,8,7E,7E,01,BD,00,5F,00,00,
-1693295640608027,000003BD,false,Rx,0,8,14,04,0D,00,00,00,00,00,
-1693295640598555,000003BE,false,Rx,0,8,00,00,00,80,00,00,00,00,
-1693295640538612,000003B8,false,Rx,0,8,00,02,01,00,03,4D,0A,12,
-1693295640528586,000003BA,false,Rx,0,8,7E,7E,37,2E,38,38,00,00,
-1693295640518688,000003BC,false,Rx,0,8,7E,7E,01,BD,00,5F,00,00,
-1693295640508491,000003BD,false,Rx,0,8,14,04,0D,00,00,00,00,00,
-1693295640498636,000003BE,false,Rx,0,8,00,00,00,80,00,00,00,00,
-1693295640438650,000003B8,false,Rx,0,8,00,02,01,00,03,4D,0A,12,
-1693295640428838,000003BA,false,Rx,0,8,7E,7E,37,2E,38,38,00,00,
-1693295640418769,000003BC,false,Rx,0,8,7E,7E,01,BD,00,5F,00,00,
-1693295640408700,000003BD,false,Rx,0,8,14,04,0D,00,00,00,00,00,
-1693295640398717,000003BE,false,Rx,0,8,00,00,00,80,00,00,00,00,
-1693295640338859,000003B8,false,Rx,0,8,00,02,01,00,03,4D,0A,12,
-1693295640328193,000003BA,false,Rx,0,8,7E,7F,37,2E,38,38,00,00,
-1693295640318935,000003BC,false,Rx,0,8,7E,7F,01,BD,00,5F,00,00,
-1693295640308867,000003BD,false,Rx,0,8,14,04,0D,00,00,00,00,00,
-1693295640298969,000003BE,false,Rx,0,8,00,00,00,80,00,00,00,00,
-1693295640238812,000003B8,false,Rx,0,8,00,02,01,00,03,4D,0A,12,
-1693295640228530,000003BA,false,Rx,0,8,7E,7E,37,2E,38,38,00,00,
-1693295640218888,000003BC,false,Rx,0,8,7E,7E,01,BD,00,5F,00,00,
-1693295640208862,000003BD,false,Rx,0,8,14,04,0D,00,00,00,00,00,
-1693295640199007,000003BE,false,Rx,0,8,00,00,00,80,00,00,00,00,
-1693295640138936,000003B8,false,Rx,0,8,00,02,01,00,03,4D,0A,12,
-1693295640128910,000003BA,false,Rx,0,8,7E,7F,37,2E,38,38,00,00,
-1693295640119054,000003BC,false,Rx,0,8,7E,7F,01,BD,00,5F,00,00,
-1693295640109156,000003BD,false,Rx,0,8,14,04,0D,00,00,00,00,00,
-1693295640099088,000003BE,false,Rx,0,8,00,00,00,80,00,00,00,00,
-1693295640039029,000003B8,false,Rx,0,8,00,02,01,00,03,4D,0A,12,
-1693295640029174,000003BA,false,Rx,0,8,7E,7F,37,2E,38,38,00,00,
-1693295640019105,000003BC,false,Rx,0,8,7E,7F,01,BD,00,5F,00,00,
-1693295640009207,000003BD,false,Rx,0,8,14,04,0D,00,00,00,00,00,
-1693295639999181,000003BE,false,Rx,0,8,00,00,00,80,00,00,00,00,
-1693295639939153,000003B8,false,Rx,0,8,00,02,01,00,03,4D,0A,12,
-1693295639929255,000003BA,false,Rx,0,8,7E,7E,37,2E,38,38,00,00,
-1693295639919400,000003BC,false,Rx,0,8,7E,7E,01,BD,00,5F,00,00,
-1693295639909331,000003BD,false,Rx,0,8,14,04,0D,00,00,00,00,00,
-1693295639898921,000003BE,false,Rx,0,8,00,00,00,80,00,00,00,00,
-1693295639839362,000003B8,false,Rx,0,8,00,02,01,00,03,4D,0A,12,
-1693295639829464,000003BA,false,Rx,0,8,7E,7E,37,2E,38,38,00,00,
-1693295639819395,000003BC,false,Rx,0,8,7E,7E,01,BD,00,5F,00,00,
-1693295639809369,000003BD,false,Rx,0,8,14,04,0D,00,00,00,00,00,
-1693295639799130,000003BE,false,Rx,0,8,00,00,00,80,00,00,00,00,
-1693295639739400,000003B8,false,Rx,0,8,00,02,01,00,03,4D,0A,12,
-1693295639729630,000003BA,false,Rx,0,8,7E,7E,37,2E,38,38,00,00,
-1693295639719519,000003BC,false,Rx,0,8,7E,7E,01,BD,00,5F,00,00,
-1693295639709535,000003BD,false,Rx,0,8,14,04,0D,00,00,00,00,00,
-1693295639699424,000003BE,false,Rx,0,8,00,00,00,80,00,00,00,00,
-1693295639639566,000003B8,false,Rx,0,8,00,02,01,00,03,4D,0A,12,
-1693295639629626,000003BA,false,Rx,0,8,7E,7E,37,2E,38,38,00,00,
-1693295639619002,000003BC,false,Rx,0,8,7E,7E,01,BD,00,5F,00,00,
-1693295639609744,000003BD,false,Rx,0,8,14,04,0D,00,00,00,00,00,
-1693295639599590,000003BE,false,Rx,0,8,00,00,00,80,00,00,00,00,
-1693295639539647,000003B8,false,Rx,0,8,00,02,01,00,03,4D,0A,12,
-1693295639529835,000003BA,false,Rx,0,8,7E,7F,37,2E,38,38,00,00,
-1693295639519211,000003BC,false,Rx,0,8,7E,7F,01,BD,00,5F,00,00,
-1693295639509782,000003BD,false,Rx,0,8,14,04,0D,00,00,00,00,00,
-1693295639499842,000003BE,false,Rx,0,8,00,00,00,80,00,00,00,00,
-1693295639439856,000003B8,false,Rx,0,8,00,02,01,00,03,4D,0A,12,
-1693295639429873,000003BA,false,Rx,0,8,7E,7E,37,2E,38,38,00,00,
-1693295639419804,000003BC,false,Rx,0,8,7E,7E,01,BD,00,5F,00,00,
-1693295639409949,000003BD,false,Rx,0,8,14,04,0D,00,00,00,00,00,
-1693295639400008,000003BE,false,Rx,0,8,00,00,00,80,00,00,00,00,
-1693295639339340,000003B8,false,Rx,0,8,00,02,01,00,03,4D,0A,12,
-1693295639330124,000003BA,false,Rx,0,8,7E,7E,37,2E,38,38,00,00,
-1693295639320056,000003BC,false,Rx,0,8,7E,7E,01,BD,00,5F,00,00,
-1693295639310072,000003BD,false,Rx,0,8,14,04,0D,00,00,00,00,00,
-1693295639300132,000003BE,false,Rx,0,8,00,00,00,80,00,00,00,00,
-1693295639239591,000003B8,false,Rx,0,8,00,02,01,00,03,4D,0A,12,
-1693295639230163,000003BA,false,Rx,0,8,7E,7E,37,2E,38,38,00,00,
-1693295639220265,000003BC,false,Rx,0,8,7E,7E,01,BD,00,5F,00,00,
-1693295639210281,000003BD,false,Rx,0,8,14,04,0D,00,00,00,00,00,
-1693295639200127,000003BE,false,Rx,0,8,00,00,00,80,00,00,00,00,
-1693295639139886,000003B8,false,Rx,0,8,00,02,01,00,03,4D,0A,12,
-1693295639130286,000003BA,false,Rx,0,8,7E,7E,37,2E,38,38,00,00,
-1693295639120388,000003BC,false,Rx,0,8,7E,7E,01,BD,00,5F,00,00,
-1693295639110405,000003BD,false,Rx,0,8,14,04,0D,00,00,00,00,00,
-1693295639100464,000003BE,false,Rx,0,8,00,00,00,80,00,00,00,00,
-1693295639040235,000003B8,false,Rx,0,8,00,02,01,00,03,4D,0A,12,
-1693295639030422,000003BA,false,Rx,0,8,7E,7E,38,2E,38,38,00,00,
-1693295639020524,000003BC,false,Rx,0,8,7E,7E,01,BD,00,5F,00,00,
-1693295639010498,000003BD,false,Rx,0,8,14,04,0D,00,00,00,00,00,
-1693295639000430,000003BE,false,Rx,0,8,00,00,00,80,00,00,00,00,
-1693295638940529,000003B8,false,Rx,0,8,00,02,01,00,03,4D,0A,12,
-1693295638930503,000003BA,false,Rx,0,8,7E,7E,38,2E,38,38,00,00,
-1693295638920648,000003BC,false,Rx,0,8,7E,7E,01,BD,00,5F,00,00,
-1693295638909982,000003BD,false,Rx,0,8,14,04,0D,00,00,00,00,00,
-1693295638900553,000003BE,false,Rx,0,8,00,00,00,80,00,00,00,00,
-1693295638840568,000003B8,false,Rx,0,8,00,02,01,00,03,4D,0A,12,
-1693295638830755,000003BA,false,Rx,0,8,7E,7E,38,2E,38,38,00,00,
-1693295638820729,000003BC,false,Rx,0,8,7E,7E,01,BD,00,7E,00,00,
-1693295638810490,000003BD,false,Rx,0,8,14,04,0D,00,00,00,00,00,
-1693295638800762,000003BE,false,Rx,0,8,00,00,00,80,00,00,00,00,
-1693295638740734,000003B8,false,Rx,0,8,00,02,01,00,03,4D,0A,12,
-1693295638730921,000003BA,false,Rx,0,8,7E,7E,38,2E,38,38,00,00,
-1693295638720895,000003BC,false,Rx,0,8,7E,7E,01,BD,00,7E,00,00,
-1693295638710784,000003BD,false,Rx,0,8,14,04,0D,00,00,00,00,00,
-1693295638700886,000003BE,false,Rx,0,8,00,00,00,80,00,00,00,00,
-1693295638640900,000003B8,false,Rx,0,8,00,02,01,00,03,4D,0A,12,
-1693295638630319,000003BA,false,Rx,0,8,7E,7F,38,2E,38,38,00,00,
-1693295638621019,000003BC,false,Rx,0,8,7E,7F,01,BD,00,7E,00,00,
-1693295638611121,000003BD,false,Rx,0,8,14,04,0D,00,00,00,00,00,
-1693295638601095,000003BE,false,Rx,0,8,00,00,00,80,00,00,00,00,
-1693295638541109,000003B8,false,Rx,0,8,00,02,11,00,03,4D,0A,12,
-1693295638530656,000003BA,false,Rx,0,8,7E,7F,38,2E,38,38,00,00,
-1693295638521228,000003BC,false,Rx,0,8,7E,7F,06,4C,06,A9,00,00,
-1693295638511116,000003BD,false,Rx,0,8,14,04,0D,00,00,00,00,00,
-1693295638501048,000003BE,false,Rx,0,8,00,00,00,80,00,00,00,00,
-1693295638441105,000003B8,false,Rx,0,8,00,02,11,00,03,4D,0A,12,
-1693295638430993,000003BA,false,Rx,0,8,7E,7E,38,2E,38,38,00,00,
-1693295638421095,000003BC,false,Rx,0,8,7E,7E,06,4C,06,A9,00,00,
-1693295638411240,000003BD,false,Rx,0,8,14,04,0D,00,00,00,00,00,
-1693295638401086,000003BE,false,Rx,0,8,00,00,00,80,00,00,00,00,
-1693295638341143,000003B8,false,Rx,0,8,00,02,11,00,03,4D,0A,12,
-1693295638331245,000003BA,false,Rx,0,8,7E,7E,38,2E,38,38,00,00,
-1693295638321176,000003BC,false,Rx,0,8,7E,7E,0B,19,0A,93,00,00,
-1693295638311193,000003BD,false,Rx,0,8,14,04,0D,00,00,00,00,00,
-1693295638301295,000003BE,false,Rx,0,8,00,00,00,80,00,00,00,00,
-1693295638241309,000003B8,false,Rx,0,8,00,02,1B,00,03,4D,0A,12,
-1693295638231411,000003BA,false,Rx,0,8,7E,7E,38,2E,38,38,00,00,
-1693295638221342,000003BC,false,Rx,0,8,7E,7E,0B,19,0A,93,00,00,
-1693295638211316,000003BD,false,Rx,0,8,14,04,0D,00,00,00,00,00,
-1693295638200821,000003BE,false,Rx,0,8,00,00,00,80,00,00,00,00,
-1693295638141475,000003B8,false,Rx,0,8,00,02,1B,00,03,4D,0A,12,
-1693295638131535,000003BA,false,Rx,0,8,7E,7E,38,2E,38,38,00,00,
-1693295638121594,000003BC,false,Rx,0,8,7E,7E,0B,19,0A,93,00,00,
-1693295638111483,000003BD,false,Rx,0,8,14,04,0D,00,00,00,00,00,
-1693295638101158,000003BE,false,Rx,0,8,00,00,00,80,00,00,00,00,
-1693295638041492,000003B8,false,Rx,0,8,00,02,21,00,03,4D,0A,12,
-1693295638031552,000003BA,false,Rx,0,8,7E,7E,38,2E,38,38,00,00,
-1693295638021526,000003BC,false,Rx,0,8,7E,7E,0D,CE,0C,D4,00,00,
-1693295638011627,000003BD,false,Rx,0,8,14,04,0D,00,00,00,00,00,
-1693295638001516,000003BE,false,Rx,0,8,00,00,00,80,00,00,00,00,
-1693295637941573,000003B8,false,Rx,0,8,00,02,21,00,03,4D,0A,12,
-1693295637931632,000003BA,false,Rx,0,8,7E,7E,38,2E,38,38,00,00,
-1693295637921052,000003BC,false,Rx,0,8,7E,7E,0D,CE,0C,D4,00,00,
-1693295637911623,000003BD,false,Rx,0,8,14,04,0D,00,00,00,00,00,
-1693295637901725,000003BE,false,Rx,0,8,00,00,00,80,00,00,00,00,
-1693295637841569,000003B8,false,Rx,0,8,00,02,21,00,03,4D,0A,12,
-1693295637831671,000003BA,false,Rx,0,8,7E,7E,38,2E,38,38,00,00,
-1693295637821389,000003BC,false,Rx,0,8,7E,7E,0D,CE,0C,D4,00,00,
-1693295637811789,000003BD,false,Rx,0,8,14,04,0D,00,00,00,00,00,
-1693295637801721,000003BE,false,Rx,0,8,00,00,00,80,00,00,00,00,
-1693295637741180,000003B8,false,Rx,0,8,00,02,25,00,03,4D,0A,12,
-1693295637731837,000003BA,false,Rx,0,8,7E,7E,38,2E,38,38,00,00,
-1693295637721726,000003BC,false,Rx,0,8,7E,7E,10,83,0E,7D,00,00,
-1693295637711913,000003BD,false,Rx,0,8,14,04,0D,00,00,00,00,00,
-1693295637701844,000003BE,false,Rx,0,8,00,00,00,80,00,00,00,00,
-1693295637641944,000003B8,false,Rx,0,8,00,02,25,00,03,4D,0A,12,
-1693295637632046,000003BA,false,Rx,0,8,7E,7E,38,2E,38,38,00,00,
-1693295637622020,000003BC,false,Rx,0,8,7E,7E,10,83,0E,7D,00,00,
-1693295637612079,000003BD,false,Rx,0,8,14,04,0D,00,00,00,00,00,
-1693295637601285,000003BE,false,Rx,0,8,00,00,00,80,00,00,00,00,
-1693295637541556,000003B8,false,Rx,0,8,00,02,25,00,03,4D,0A,12,
-1693295637532041,000003BA,false,Rx,0,8,7E,7E,38,2E,38,38,00,00,
-1693295637522058,000003BC,false,Rx,0,8,7E,7E,10,83,0E,7D,00,00,
-1693295637511904,000003BD,false,Rx,0,8,14,04,0D,00,00,00,00,00,
-1693295637502134,000003BE,false,Rx,0,8,00,00,00,80,00,00,00,00,
-1693295637442020,000003B8,false,Rx,0,8,00,02,28,00,03,4D,0A,12,
-1693295637432250,000003BA,false,Rx,0,8,7E,7E,38,2E,38,38,00,00,
-1693295637422224,000003BC,false,Rx,0,8,7E,7E,12,83,0F,AD,00,00,
-1693295637412156,000003BD,false,Rx,0,8,14,04,0D,00,00,00,00,00,
-1693295637402172,000003BE,false,Rx,0,8,00,00,00,80,00,00,00,00,
-1693295637342101,000003B8,false,Rx,0,8,00,02,28,00,03,4D,0A,12,
-1693295637332289,000003BA,false,Rx,0,8,7E,7E,38,2E,38,38,00,00,
-1693295637321964,000003BC,false,Rx,0,8,7E,7E,12,83,0F,AD,00,00,
-1693295637312237,000003BD,false,Rx,0,8,14,04,0D,00,00,00,00,00,
-1693295637302338,000003BE,false,Rx,0,8,00,00,00,80,00,00,00,00,
-1693295637242353,000003B8,false,Rx,0,8,00,02,28,00,03,4D,0A,12,
-1693295637232412,000003BA,false,Rx,0,8,7E,7E,38,2E,38,38,00,00,
-1693295637222386,000003BC,false,Rx,0,8,7E,7E,12,83,0F,AD,00,00,
-1693295637212403,000003BD,false,Rx,0,8,14,04,0D,00,00,00,00,00,
-1693295637202334,000003BE,false,Rx,0,8,00,00,00,80,00,00,00,00,
-1693295637142348,000003B8,false,Rx,0,8,00,02,2A,00,03,4D,0A,12,
-1693295637132024,000003BA,false,Rx,0,8,7E,7E,38,2E,38,38,00,00,
-1693295637122595,000003BC,false,Rx,0,8,7E,7E,13,B5,10,82,00,00,
-1693295637112612,000003BD,false,Rx,0,8,14,04,0D,00,00,00,00,00,
-1693295637101988,000003BE,false,Rx,0,8,00,00,00,80,00,00,00,00,
-1693295637042409,000003B8,false,Rx,0,8,00,02,2A,00,03,4D,0A,12,
-1693295637032511,000003BA,false,Rx,0,8,7E,7E,38,2E,38,38,00,00,
-1693295637022656,000003BC,false,Rx,0,8,7E,7E,13,B5,10,82,00,00,
-1693295637012587,000003BD,false,Rx,0,8,14,04,0D,00,00,00,00,00,
-1693295637002604,000003BE,false,Rx,0,8,00,00,00,80,00,00,00,00,
-1693295636942661,000003B8,false,Rx,0,8,00,02,2A,00,03,4D,0A,12,
-1693295636932678,000003BA,false,Rx,0,8,7E,7E,38,2E,38,38,00,00,
-1693295636922609,000003BC,false,Rx,0,8,7E,7E,14,BB,10,FB,00,00,
-1693295636911986,000003BD,false,Rx,0,8,14,04,0D,00,00,00,00,00,
-1693295636902685,000003BE,false,Rx,0,8,00,00,00,80,00,00,00,00,
-1693295636842699,000003B8,false,Rx,0,8,00,02,2B,00,03,4D,0A,12,
-1693295636832801,000003BA,false,Rx,0,8,7E,7F,38,2E,38,38,00,00,
-1693295636822604,000003BC,false,Rx,0,8,7E,7F,14,BB,10,FB,00,00,
-1693295636812877,000003BD,false,Rx,0,8,14,04,0D,00,00,00,00,00,
-1693295636802595,000003BE,false,Rx,0,8,00,00,00,80,00,00,00,00,
-1693295636742737,000003B8,false,Rx,0,8,00,02,2B,00,03,4D,0A,12,
-1693295636732882,000003BA,false,Rx,0,8,7E,7F,38,2E,38,38,00,00,
-1693295636722856,000003BC,false,Rx,0,8,7E,7F,14,BB,10,FB,00,00,
-1693295636712873,000003BD,false,Rx,0,8,14,04,0D,00,00,00,00,00,
-1693295636702889,000003BE,false,Rx,0,8,00,00,00,80,00,00,00,00,
-1693295636642946,000003B8,false,Rx,0,8,00,02,2B,00,03,4D,0A,A2,
-1693295636633006,000003BA,false,Rx,0,8,7E,7F,38,2E,38,38,00,00,
-1693295636623022,000003BC,false,Rx,0,8,7E,7F,15,D4,11,57,00,00,
-1693295636613039,000003BD,false,Rx,0,8,14,04,0D,00,00,00,00,00,
-1693295636602373,000003BE,false,Rx,0,8,00,00,00,80,00,00,00,00,
-1693295636542473,000003B8,false,Rx,0,8,00,02,2C,00,03,4D,0A,A2,
-1693295636533172,000003BA,false,Rx,0,8,7E,7F,38,2E,38,38,00,00,
-1693295636523146,000003BC,false,Rx,0,8,7E,7F,15,D4,11,57,00,00,
-1693295636512565,000003BD,false,Rx,0,8,14,04,0D,00,00,00,00,00,
-1693295636503136,000003BE,false,Rx,0,8,00,00,00,80,00,00,00,00,
-1693295636443194,000003B8,false,Rx,0,8,00,02,2C,00,03,4D,0A,A2,
-1693295636433295,000003BA,false,Rx,0,8,7E,7F,38,2E,38,38,00,00,
-1693295636422928,000003BC,false,Rx,0,8,7E,7F,15,D4,11,57,00,00,
-1693295636413371,000003BD,false,Rx,0,8,14,04,0D,00,00,00,00,00,
-1693295636403345,000003BE,false,Rx,0,8,00,00,00,80,00,00,00,00,
-1693295636342976,000003B8,false,Rx,0,8,00,02,2D,00,03,4D,0A,A2,
-1693295636333120,000003BA,false,Rx,0,8,7E,7F,38,2E,38,38,00,00,
-1693295636323350,000003BC,false,Rx,0,8,7E,7F,16,6E,11,93,00,00,
-1693295636313367,000003BD,false,Rx,0,8,14,04,0D,00,00,00,00,00,
-1693295636303298,000003BE,false,Rx,0,8,00,00,00,80,00,00,00,00,
-1693295636243441,000003B8,false,Rx,0,8,00,02,2D,00,03,4D,0A,A2,
-1693295636233500,000003BA,false,Rx,0,8,7E,7F,38,2E,38,38,00,00,
-1693295636223474,000003BC,false,Rx,0,8,7E,7F,16,6E,11,93,00,00,
-1693295636213619,000003BD,false,Rx,0,8,14,04,0D,00,00,00,00,00,
-1693295636203464,000003BE,false,Rx,0,8,00,00,00,80,00,00,00,00,
-1693295636143479,000003B8,false,Rx,0,8,00,02,2D,00,03,4D,0A,A2,
-1693295636133709,000003BA,false,Rx,0,8,7E,7E,38,2E,38,38,00,00,
-1693295636123640,000003BC,false,Rx,0,8,7E,7E,16,6E,11,93,00,00,
-1693295636113742,000003BD,false,Rx,0,8,14,04,0D,00,00,00,00,00,
-1693295636103716,000003BE,false,Rx,0,8,00,00,00,80,00,00,00,00,
-1693295636043700,000003B8,false,Rx,0,8,00,02,19,00,03,4D,0A,A2,
-1693295636033845,000003BA,false,Rx,0,8,7E,7E,38,2E,38,38,00,00,
-1693295636023136,000003BC,false,Rx,0,8,7E,7E,16,F5,09,A0,00,00,
-1693295636013793,000003BD,false,Rx,0,8,14,04,0D,00,00,00,00,00,
-1693295636003852,000003BE,false,Rx,0,8,00,00,00,80,00,00,00,00,
-1693295635943909,000003B8,false,Rx,0,8,00,02,19,00,03,4D,0A,A2,
-1693295635933926,000003BA,false,Rx,0,8,7E,7E,38,2E,38,38,00,00,
-1693295635924028,000003BC,false,Rx,0,8,7E,7E,16,F5,09,A0,00,00,
-1693295635913746,000003BD,false,Rx,0,8,14,04,0D,00,00,00,00,00,
-1693295635903891,000003BE,false,Rx,0,8,00,00,00,80,00,00,00,00,
-1693295635843862,000003B8,false,Rx,0,8,00,02,19,00,03,4D,0A,12,
-1693295635834050,000003BA,false,Rx,0,8,7E,7E,38,2E,38,38,00,00,
-1693295635823981,000003BC,false,Rx,0,8,7E,7E,16,F5,09,A0,00,00,
-1693295635814040,000003BD,false,Rx,0,8,14,04,0D,00,00,00,00,00,
-1693295635803971,000003BE,false,Rx,0,8,00,00,00,80,00,00,00,00,
-1693295635743986,000003B8,false,Rx,0,8,00,02,2B,00,03,4D,0A,12,
-1693295635733576,000003BA,false,Rx,0,8,7E,7E,38,2E,38,38,00,00,
-1693295635724104,000003BC,false,Rx,0,8,7E,7E,17,3C,10,FB,00,00,
-1693295635714206,000003BD,false,Rx,0,8,14,04,0D,00,00,00,00,00,
-1693295635704138,000003BE,false,Rx,0,8,00,00,00,80,00,00,00,00,
-1693295635644195,000003B8,false,Rx,0,8,00,02,2B,00,03,4D,0A,12,
-1693295635634297,000003BA,false,Rx,0,8,7E,7E,38,2E,38,38,00,00,
-1693295635624228,000003BC,false,Rx,0,8,7E,7E,17,3C,10,FB,00,00,
-1693295635614287,000003BD,false,Rx,0,8,14,04,0D,00,00,00,00,00,
-1693295635604261,000003BE,false,Rx,0,8,00,00,00,80,00,00,00,00,
-1693295635544318,000003B8,false,Rx,0,8,00,02,2B,00,03,4D,0A,12,
-1693295635534378,000003BA,false,Rx,0,8,7E,7E,38,2E,38,38,00,00,
-1693295635523797,000003BC,false,Rx,0,8,7E,7E,17,3C,10,FB,00,00,
-1693295635514411,000003BD,false,Rx,0,8,14,04,0D,00,00,00,00,00,
-1693295635504257,000003BE,false,Rx,0,8,00,00,00,80,00,00,00,00,
-1693295635444314,000003B8,false,Rx,0,8,00,02,2E,00,03,4D,0A,12,
-1693295635434459,000003BA,false,Rx,0,8,7E,7E,38,2E,38,38,00,00,
-1693295635424518,000003BC,false,Rx,0,8,7E,7E,17,8C,12,0D,00,00,
-1693295635414492,000003BD,false,Rx,0,8,14,04,0D,00,00,00,00,00,
-1693295635404380,000003BE,false,Rx,0,8,00,00,00,80,00,00,00,00,
-1693295635344566,000003B8,false,Rx,0,8,00,02,2E,00,03,4D,0A,12,
-1693295635334625,000003BA,false,Rx,0,8,7E,7F,38,2E,38,38,00,00,
-1693295635324385,000003BC,false,Rx,0,8,7E,7F,17,8C,12,0D,00,00,
-1693295635314615,000003BD,false,Rx,0,8,14,04,0D,00,00,00,00,00,
-1693295635304675,000003BE,false,Rx,0,8,00,00,00,80,00,00,00,00,
-1693295635244305,000003B8,false,Rx,0,8,00,02,2E,00,03,4D,0A,12,
-1693295635234791,000003BA,false,Rx,0,8,7E,7F,38,2E,38,38,00,00,
-1693295635224722,000003BC,false,Rx,0,8,7E,7F,17,F0,12,2B,00,00,
-1693295635214312,000003BD,false,Rx,0,8,14,04,0D,00,00,00,00,00,
-1693295635204756,000003BE,false,Rx,0,8,00,00,00,80,00,00,00,00,
-1693295635144727,000003B8,false,Rx,0,8,00,02,2F,00,03,4D,0A,12,
-1693295635134915,000003BA,false,Rx,0,8,7E,7F,38,2E,38,38,00,00,
-1693295635124974,000003BC,false,Rx,0,8,7E,7F,17,F0,12,2B,00,00,
-1693295635114820,000003BD,false,Rx,0,8,14,04,0D,00,00,00,00,00,
-1693295635104836,000003BE,false,Rx,0,8,00,00,00,80,00,00,00,00,
-1693295635044821,000003B8,false,Rx,0,8,00,02,2F,00,03,4D,0A,12,
-1693295635035051,000003BA,false,Rx,0,8,7E,7F,38,2E,38,38,00,00,
-1693295635024300,000003BC,false,Rx,0,8,7E,7F,17,F0,12,2B,00,00,
-1693295635014956,000003BD,false,Rx,0,8,14,04,0D,00,00,00,00,00,
-1693295635005101,000003BE,false,Rx,0,8,00,00,00,80,00,00,00,00,
-1693295634944987,000003B8,false,Rx,0,8,00,02,2F,00,03,4D,0A,12,
-1693295634935089,000003BA,false,Rx,0,8,7E,7F,38,2E,38,38,00,00,
-1693295634925063,000003BC,false,Rx,0,8,7E,7F,18,33,12,4A,00,00,
-1693295634915080,000003BD,false,Rx,0,8,14,04,0D,00,00,00,00,00,
-1693295634905096,000003BE,false,Rx,0,8,00,00,00,80,00,00,00,00,
-1693295634845111,000003B8,false,Rx,0,8,00,02,2F,00,03,4D,0A,12,
-1693295634835213,000003BA,false,Rx,0,8,7E,7F,38,2E,38,38,00,00,
-1693295634825229,000003BC,false,Rx,0,8,7E,7F,18,33,12,4A,00,00,
-1693295634815246,000003BD,false,Rx,0,8,14,04,0D,00,00,00,00,00,
-1693295634804665,000003BE,false,Rx,0,8,00,00,00,80,00,00,00,00,
-1693295634745106,000003B8,false,Rx,0,8,00,02,2F,00,03,4D,0A,12,
-1693295634735294,000003BA,false,Rx,0,8,7E,7F,38,2E,38,38,00,00,
-1693295634725310,000003BC,false,Rx,0,8,7E,7F,18,33,12,4A,00,00,
-1693295634715327,000003BD,false,Rx,0,8,14,04,0D,00,00,00,00,00,
-1693295634705215,000003BE,false,Rx,0,8,00,00,00,80,00,00,00,00,
-1693295634645358,000003B8,false,Rx,0,8,00,02,25,00,03,4D,0A,A2,
-1693295634635374,000003BA,false,Rx,0,8,7E,7F,38,2E,38,38,00,00,
-1693295634625476,000003BC,false,Rx,0,8,7E,7F,18,80,0E,5F,00,00,
-1693295634615365,000003BD,false,Rx,0,8,14,04,0D,00,00,00,00,00,
-1693295634605339,000003BE,false,Rx,0,8,00,00,00,80,00,00,00,00,
-1693295634545439,000003B8,false,Rx,0,8,00,02,25,00,03,4D,0A,A2,
-1693295634535626,000003BA,false,Rx,0,8,7E,7E,38,2E,38,38,00,00,
-1693295634524875,000003BC,false,Rx,0,8,7E,7E,18,80,0E,5F,00,00,
-1693295634515531,000003BD,false,Rx,0,8,14,04,0D,00,00,00,00,00,
-1693295634505633,000003BE,false,Rx,0,8,00,00,00,80,00,00,00,00,
-1693295634445648,000003B8,false,Rx,0,8,00,02,25,00,03,4D,0A,A2,
-1693295634435110,000003BA,false,Rx,0,8,7E,7E,38,2E,38,38,00,00,
-1693295634425724,000003BC,false,Rx,0,8,7E,7E,18,80,0E,5F,00,00,
-1693295634415740,000003BD,false,Rx,0,8,14,04,0D,00,00,00,00,00,
-1693295634405330,000003BE,false,Rx,0,8,00,00,00,80,00,00,00,00,
-1693295634345515,000003B8,false,Rx,0,8,00,02,26,00,03,4D,0A,A2,
-1693295634335788,000003BA,false,Rx,0,8,7E,7E,38,2E,38,38,00,00,
-1693295634325762,000003BC,false,Rx,0,8,7E,7E,18,9F,0E,BA,00,00,
-1693295634315736,000003BD,false,Rx,0,8,14,04,0D,00,00,00,00,00,
-1693295634305752,000003BE,false,Rx,0,8,00,00,00,80,00,00,00,00,
-1693295634245810,000003B8,false,Rx,0,8,00,02,26,00,03,4D,0A,12,
-1693295634235911,000003BA,false,Rx,0,8,7E,7E,38,2E,38,38,00,00,
-1693295634225288,000003BC,false,Rx,0,8,7E,7E,18,9F,0E,BA,00,00,
-1693295634215817,000003BD,false,Rx,0,8,14,04,0D,00,00,00,00,00,
-1693295634205876,000003BE,false,Rx,0,8,00,00,00,80,00,00,00,00,
-1693295634145762,000003B8,false,Rx,0,8,00,02,26,00,03,4D,0A,12,
-1693295634135907,000003BA,false,Rx,0,8,7E,7E,38,2E,38,38,00,00,
-1693295634125625,000003BC,false,Rx,0,8,7E,7E,18,9F,0E,BA,00,00,
-1693295634115812,000003BD,false,Rx,0,8,14,04,0D,00,00,00,00,00,
-1693295634105744,000003BE,false,Rx,0,8,00,00,00,80,00,00,00,00,
-1693295634045088,000003B8,false,Rx,0,8,00,02,2E,00,03,4D,0A,12,
-1693295634035873,000003BA,false,Rx,0,8,7E,7E,38,2E,38,38,00,00,
-1693295634025761,000003BC,false,Rx,0,8,7E,7E,18,B6,11,EE,00,00,
-1693295634015906,000003BD,false,Rx,0,8,14,04,0D,00,00,00,00,00,
-1693295634005795,000003BE,false,Rx,0,8,00,00,00,80,00,00,00,00,
-1693295633945809,000003B8,false,Rx,0,8,00,02,2E,00,03,4D,0A,12,
-1693295633935996,000003BA,false,Rx,0,8,7E,7E,38,2E,38,38,00,00,
-1693295633926013,000003BC,false,Rx,0,8,7E,7E,18,B6,11,EE,00,00,
-1693295633915987,000003BD,false,Rx,0,8,14,04,0D,00,00,00,00,00,
-1693295633905875,000003BE,false,Rx,0,8,00,00,00,80,00,00,00,00,
-1693295633845933,000003B8,false,Rx,0,8,00,02,2E,00,03,4D,0A,12,
-1693295633835352,000003BA,false,Rx,0,8,7E,7E,38,2E,38,38,00,00,
-1693295633826094,000003BC,false,Rx,0,8,7E,7E,18,D7,12,86,00,00,
-1693295633816025,000003BD,false,Rx,0,8,14,04,0D,00,00,00,00,00,
-1693295633805530,000003BE,false,Rx,0,8,00,00,00,80,00,00,00,00,
-1693295633745971,000003B8,false,Rx,0,8,00,02,2F,00,03,4D,0A,12,
-1693295633736158,000003BA,false,Rx,0,8,7E,7F,38,2E,38,38,00,00,
-1693295633726260,000003BC,false,Rx,0,8,7E,7F,18,D7,12,86,00,00,
-1693295633715935,000003BD,false,Rx,0,8,14,04,0D,00,00,00,00,00,
-1693295633706336,000003BE,false,Rx,0,8,00,00,00,80,00,00,00,00,
-1693295633646180,000003B8,false,Rx,0,8,00,02,2F,00,03,4D,0A,12,
-1693295633636324,000003BA,false,Rx,0,8,7E,7F,38,2E,38,38,00,00,
-1693295633626384,000003BC,false,Rx,0,8,7E,7F,18,D7,12,86,00,00,
-1693295633616272,000003BD,false,Rx,0,8,14,04,0D,00,00,00,00,00,
-1693295633606459,000003BE,false,Rx,0,8,00,00,00,80,00,00,00,00,
-1693295633546261,000003B8,false,Rx,0,8,00,02,2F,00,03,4D,0A,12,
-1693295633536491,000003BA,false,Rx,0,8,7E,7F,38,2E,38,38,00,00,
-1693295633525953,000003BC,false,Rx,0,8,7E,7F,18,E6,12,86,00,00,
-1693295633516396,000003BD,false,Rx,0,8,14,04,0D,00,00,00,00,00,
-1693295633506327,000003BE,false,Rx,0,8,00,00,00,80,00,00,00,00,
-1693295633446299,000003B8,false,Rx,0,8,00,02,2F,00,03,4D,0A,12,
-1693295633436401,000003BA,false,Rx,0,8,7E,7F,38,2E,38,38,00,00,
-1693295633426460,000003BC,false,Rx,0,8,7E,7F,18,E6,12,86,00,00,
-1693295633416434,000003BD,false,Rx,0,8,14,04,0D,00,00,00,00,00,
-1693295633406451,000003BE,false,Rx,0,8,00,00,00,80,00,00,00,00,
-1693295633346380,000003B8,false,Rx,0,8,00,02,2F,00,03,4D,0A,12,
-1693295633335799,000003BA,false,Rx,0,8,7E,7F,38,2E,38,38,00,00,
-1693295633326456,000003BC,false,Rx,0,8,7E,7F,18,E6,12,86,00,00,
-1693295633316472,000003BD,false,Rx,0,8,14,04,0D,00,00,00,00,00,
-1693295633306062,000003BE,false,Rx,0,8,00,00,00,80,00,00,00,00,
-1693295633246589,000003B8,false,Rx,0,8,00,02,2F,00,03,4D,0A,12,
-1693295633236605,000003BA,false,Rx,0,8,7E,7F,38,2E,38,38,00,00,
-1693295633226622,000003BC,false,Rx,0,8,7E,7F,19,05,12,86,00,00,
-1693295633216639,000003BD,false,Rx,0,8,14,04,0D,00,00,00,00,00,
-1693295633206655,000003BE,false,Rx,0,8,00,00,00,80,00,00,00,00,
-1693295633146670,000003B8,false,Rx,0,8,00,02,2F,00,03,4D,0A,12,
-1693295633136686,000003BA,false,Rx,0,8,7E,7F,38,2E,38,38,00,00,
-1693295633126660,000003BC,false,Rx,0,8,7E,7F,19,05,12,86,00,00,
-1693295633116165,000003BD,false,Rx,0,8,14,04,0D,00,00,00,00,00,
-1693295633106779,000003BE,false,Rx,0,8,00,00,00,80,00,00,00,00,
-1693295633046678,000003B8,false,Rx,0,8,00,02,2F,00,03,4D,0A,12,
-1693295633036865,000003BA,false,Rx,0,8,7E,7F,38,2E,38,38,00,00,
-1693295633026711,000003BC,false,Rx,0,8,7E,7F,19,05,12,86,00,00,
-1693295633016856,000003BD,false,Rx,0,8,14,04,0D,00,00,00,00,00,
-1693295633006830,000003BE,false,Rx,0,8,00,00,00,80,00,00,00,00,
-1693295632946929,000003B8,false,Rx,0,8,00,02,10,00,03,4D,0A,A2,
-1693295632936946,000003BA,false,Rx,0,8,7E,7E,38,2E,38,38,00,00,
-1693295632927005,000003BC,false,Rx,0,8,7E,7E,19,37,06,6C,00,00,
-1693295632916937,000003BD,false,Rx,0,8,14,04,0D,00,00,00,00,00,
-1693295632906953,000003BE,false,Rx,0,8,00,00,00,80,00,00,00,00,
-1693295632847096,000003B8,false,Rx,0,8,00,02,10,00,03,4D,0A,A2,
-1693295632837112,000003BA,false,Rx,0,8,7E,7E,38,2E,38,38,00,00,
-1693295632827044,000003BC,false,Rx,0,8,7E,7E,19,37,06,6C,00,00,
-1693295632816975,000003BD,false,Rx,0,8,14,04,0D,00,00,00,00,00,
-1693295632807119,000003BE,false,Rx,0,8,00,00,00,80,00,00,00,00,
-1693295632747091,000003B8,false,Rx,0,8,00,02,10,00,03,4D,0A,12,
-1693295632736425,000003BA,false,Rx,0,8,7E,7E,38,2E,38,38,00,00,
-1693295632727167,000003BC,false,Rx,0,8,7E,7E,19,37,06,6C,00,00,
-1693295632717098,000003BD,false,Rx,0,8,14,04,0D,00,00,00,00,00,
-1693295632707072,000003BE,false,Rx,0,8,00,00,00,80,00,00,00,00,
-1693295632647129,000003B8,false,Rx,0,8,00,02,2B,00,03,4D,0A,12,
-1693295632636890,000003BA,false,Rx,0,8,7E,7E,38,2E,38,38,00,00,
-1693295632627248,000003BC,false,Rx,0,8,7E,7E,19,44,10,FB,00,00,
-1693295632617137,000003BD,false,Rx,0,8,14,04,0D,00,00,00,00,00,
-1693295632607239,000003BE,false,Rx,0,8,00,00,00,80,00,00,00,00,
-1693295632546528,000003B8,false,Rx,0,8,00,02,2B,00,03,4D,0A,12,
-1693295632537398,000003BA,false,Rx,0,8,7E,7E,38,2E,38,38,00,00,
-1693295632527414,000003BC,false,Rx,0,8,7E,7E,19,44,10,FB,00,00,
-1693295632516791,000003BD,false,Rx,0,8,14,04,0D,00,00,00,00,00,
-1693295632507362,000003BE,false,Rx,0,8,00,00,00,80,00,00,00,00,
-1693295632447462,000003B8,false,Rx,0,8,00,02,2B,00,03,4D,0A,12,
-1693295632437479,000003BA,false,Rx,0,8,7E,7E,38,2E,38,38,00,00,
-1693295632427410,000003BC,false,Rx,0,8,7E,7E,19,44,10,FB,00,00,
-1693295632417512,000003BD,false,Rx,0,8,14,04,0D,00,00,00,00,00,
-1693295632407443,000003BE,false,Rx,0,8,00,00,00,80,00,00,00,00,
-1693295632347628,000003B8,false,Rx,0,8,00,02,2F,00,03,4D,0A,12,
-1693295632337602,000003BA,false,Rx,0,8,7E,7E,38,2E,38,38,00,00,
-1693295632327661,000003BC,false,Rx,0,8,7E,7E,19,44,12,68,00,00,
-1693295632317678,000003BD,false,Rx,0,8,14,04,0D,00,00,00,00,00,
-1693295632307695,000003BE,false,Rx,0,8,00,00,00,80,00,00,00,00,
-1693295632247794,000003B8,false,Rx,0,8,00,02,2F,00,03,4D,0A,12,
-1693295632237384,000003BA,false,Rx,0,8,7E,7E,38,2E,38,38,00,00,
-1693295632227657,000003BC,false,Rx,0,8,7E,7E,19,44,12,68,00,00,
-1693295632217546,000003BD,false,Rx,0,8,14,04,0D,00,00,00,00,00,
-1693295632207306,000003BE,false,Rx,0,8,00,00,00,80,00,00,00,00,
-1693295632147662,000003B8,false,Rx,0,8,00,02,2F,00,03,4D,0A,12,
-1693295632137721,000003BA,false,Rx,0,8,7E,7F,38,2E,38,38,00,00,
-1693295632127738,000003BC,false,Rx,0,8,7E,7F,19,44,12,86,00,00,
-1693295632117669,000003BD,false,Rx,0,8,14,04,0D,00,00,00,00,00,
-1693295632107600,000003BE,false,Rx,0,8,00,00,00,80,00,00,00,00,
-1693295632047414,000003B8,false,Rx,0,8,00,02,2F,00,03,4D,0A,12,
-1693295632037900,000003BA,false,Rx,0,8,7E,7F,38,2E,38,38,00,00,
-1693295632027959,000003BC,false,Rx,0,8,7E,7F,19,44,12,86,00,00,
-1693295632017379,000003BD,false,Rx,0,8,14,04,0D,00,00,00,00,00,
-1693295632007779,000003BE,false,Rx,0,8,00,00,00,80,00,00,00,00,
-1693295631947922,000003B8,false,Rx,0,8,00,02,2F,00,03,4D,0A,12,
-1693295631938024,000003BA,false,Rx,0,8,7E,7F,38,2E,38,38,00,00,
-1693295631927955,000003BC,false,Rx,0,8,7E,7F,19,44,12,86,00,00,
-1693295631918057,000003BD,false,Rx,0,8,14,04,0D,00,00,00,00,00,
-1693295631908031,000003BE,false,Rx,0,8,00,00,00,80,00,00,00,00,
-1693295631847960,000003B8,false,Rx,0,8,00,02,30,00,03,4D,0A,12,
-1693295631838105,000003BA,false,Rx,0,8,7E,7F,38,2E,38,38,00,00,
-1693295631828207,000003BC,false,Rx,0,8,7E,7F,19,44,12,A5,00,00,
-1693295631818223,000003BD,false,Rx,0,8,14,04,0D,00,00,00,00,00,
-1693295631808197,000003BE,false,Rx,0,8,00,00,00,80,00,00,00,00,
-1693295631748084,000003B8,false,Rx,0,8,00,02,30,00,03,4D,0A,12,
-1693295631738015,000003BA,false,Rx,0,8,7E,7F,38,2E,38,38,00,00,
-1693295631728288,000003BC,false,Rx,0,8,7E,7F,19,44,12,A5,00,00,
-1693295631718304,000003BD,false,Rx,0,8,14,04,0D,00,00,00,00,00,
-1693295631708321,000003BE,false,Rx,0,8,00,00,00,80,00,00,00,00,
-1693295631648122,000003B8,false,Rx,0,8,00,02,30,00,03,4D,0A,12,
-1693295631638224,000003BA,false,Rx,0,8,7E,7F,38,2E,38,38,00,00,
-1693295631628368,000003BC,false,Rx,0,8,7E,7F,19,44,12,A5,00,00,
-1693295631618385,000003BD,false,Rx,0,8,14,04,0D,00,00,00,00,00,
-1693295631607634,000003BE,false,Rx,0,8,00,00,00,80,00,00,00,00,
-1693295631547776,000003B8,false,Rx,0,8,00,02,2C,00,03,4D,0A,A2,
-1693295631538390,000003BA,false,Rx,0,8,7E,7F,38,2E,38,38,00,00,
-1693295631528364,000003BC,false,Rx,0,8,7E,7F,19,52,11,38,00,00,
-1693295631517911,000003BD,false,Rx,0,8,14,04,0D,00,00,00,00,00,
-1693295631508355,000003BE,false,Rx,0,8,00,00,00,80,00,00,00,00,
-1693295631448156,000003B8,false,Rx,0,8,00,02,2C,00,03,4D,0A,A2,
-1693295631438343,000003BA,false,Rx,0,8,7E,7E,38,2E,38,38,00,00,
-1693295631428146,000003BC,false,Rx,0,8,7E,7E,19,52,11,38,00,00,
-1693295631418376,000003BD,false,Rx,0,8,14,04,0D,00,00,00,00,00,
-1693295631408393,000003BE,false,Rx,0,8,00,00,00,80,00,00,00,00,
-1693295631348322,000003B8,false,Rx,0,8,00,02,2C,00,03,4D,0A,A2,
-1693295631338296,000003BA,false,Rx,0,8,7E,7E,38,2E,38,38,00,00,
-1693295631328398,000003BC,false,Rx,0,8,7E,7E,19,52,11,38,00,00,
-1693295631318372,000003BD,false,Rx,0,8,14,04,0D,00,00,00,00,00,
-1693295631308260,000003BE,false,Rx,0,8,00,00,00,80,00,00,00,00,
-1693295631248403,000003B8,false,Rx,0,8,00,02,21,00,03,4D,0A,A2,
-1693295631238505,000003BA,false,Rx,0,8,7E,7F,38,2E,38,38,00,00,
-1693295631228479,000003BC,false,Rx,0,8,7E,7F,19,73,0C,F3,00,00,
-1693295631218495,000003BD,false,Rx,0,8,14,04,0D,00,00,00,00,00,
-1693295631207872,000003BE,false,Rx,0,8,00,00,00,80,00,00,00,00,
-1693295631148569,000003B8,false,Rx,0,8,00,02,21,00,03,4D,0A,12,
-1693295631138543,000003BA,false,Rx,0,8,7E,7F,38,2E,38,38,00,00,
-1693295631128602,000003BC,false,Rx,0,8,7E,7F,19,73,0C,F3,00,00,
-1693295631118534,000003BD,false,Rx,0,8,14,04,0D,00,00,00,00,00,
-1693295631108593,000003BE,false,Rx,0,8,00,00,00,80,00,00,00,00,
-1693295631047980,000003B8,false,Rx,0,8,00,02,21,00,03,4D,0A,12,
-1693295631038765,000003BA,false,Rx,0,8,7E,7F,38,2E,38,38,00,00,
-1693295631028824,000003BC,false,Rx,0,8,7E,7F,19,73,0C,F3,00,00,
-1693295631018755,000003BD,false,Rx,0,8,14,04,0D,00,00,00,00,00,
-1693295631008687,000003BE,false,Rx,0,8,00,00,00,80,00,00,00,00,
-1693295630948402,000003B8,false,Rx,0,8,00,02,2E,00,03,4D,0A,12,
-1693295630938760,000003BA,false,Rx,0,8,7E,7E,38,2E,38,38,00,00,
-1693295630928777,000003BC,false,Rx,0,8,7E,7E,19,73,12,0D,00,00,
-1693295630918580,000003BD,false,Rx,0,8,14,04,0D,00,00,00,00,00,
-1693295630908639,000003BE,false,Rx,0,8,00,00,00,80,00,00,00,00,
-1693295630848697,000003B8,false,Rx,0,8,00,02,2E,00,03,4D,0A,12,
-1693295630838670,000003BA,false,Rx,0,8,7E,7F,38,2E,38,38,00,00,
-1693295630828303,000003BC,false,Rx,0,8,7E,7F,19,73,12,0D,00,00,
-1693295630818704,000003BD,false,Rx,0,8,14,04,0D,00,00,00,00,00,
-1693295630808763,000003BE,false,Rx,0,8,00,00,00,80,00,00,00,00,
-1693295630748777,000003B8,false,Rx,0,8,00,02,2E,00,03,4D,0A,12,
-1693295630738794,000003BA,false,Rx,0,8,7E,7F,38,2E,38,38,00,00,
-1693295630728896,000003BC,false,Rx,0,8,7E,7F,19,73,12,0D,00,00,
-1693295630718913,000003BD,false,Rx,0,8,14,04,0D,00,00,00,00,00,
-1693295630708887,000003BE,false,Rx,0,8,00,00,00,80,00,00,00,00,
-1693295630648944,000003B8,false,Rx,0,8,00,02,2E,00,03,4D,0A,12,
-1693295630638790,000003BA,false,Rx,0,8,7E,7F,38,2E,38,38,00,00,
-1693295630629020,000003BC,false,Rx,0,8,7E,7F,19,73,12,0D,00,00,
-1693295630619079,000003BD,false,Rx,0,8,14,04,0D,00,00,00,00,00,
-1693295630609053,000003BE,false,Rx,0,8,00,00,00,80,00,00,00,00,
-1693295630549025,000003B8,false,Rx,0,8,00,02,2E,00,03,4D,0A,12,
-1693295630538359,000003BA,false,Rx,0,8,7E,7F,38,2E,38,38,00,00,
-1693295630529058,000003BC,false,Rx,0,8,7E,7F,19,73,12,86,00,00,
-1693295630519074,000003BD,false,Rx,0,8,14,04,0D,00,00,00,00,00,
-1693295630508494,000003BE,false,Rx,0,8,00,00,00,80,00,00,00,00,
-1693295630449020,000003B8,false,Rx,0,8,00,02,2F,00,03,4D,0A,12,
-1693295630439037,000003BA,false,Rx,0,8,7E,7F,38,2E,38,38,00,00,
-1693295630428925,000003BC,false,Rx,0,8,7E,7F,19,73,12,86,00,00,
-1693295630418899,000003BD,false,Rx,0,8,14,04,0D,00,00,00,00,00,
-1693295630408959,000003BE,false,Rx,0,8,00,00,00,80,00,00,00,00,
-1693295630348290,000003B8,false,Rx,0,8,00,02,2F,00,03,4D,0A,12,
-1693295630339032,000003BA,false,Rx,0,8,7E,7F,38,2E,38,38,00,00,
-1693295630329006,000003BC,false,Rx,0,8,7E,7F,19,73,12,86,00,00,
-1693295630318426,000003BD,false,Rx,0,8,14,04,0D,00,00,00,00,00,
-1693295630309040,000003BE,false,Rx,0,8,00,00,00,80,00,00,00,00,
-1693295630249054,000003B8,false,Rx,0,8,00,02,30,00,03,4D,0A,12,
-1693295630239156,000003BA,false,Rx,0,8,7E,7F,38,2E,38,38,00,00,
-1693295630229087,000003BC,false,Rx,0,8,7E,7F,19,73,12,A5,00,00,
-1693295630219189,000003BD,false,Rx,0,8,14,04,0D,00,00,00,00,00,
-1693295630209163,000003BE,false,Rx,0,8,00,00,00,80,00,00,00,00,
-1693295630149135,000003B8,false,Rx,0,8,00,02,30,00,03,4D,0A,12,
-1693295630139280,000003BA,false,Rx,0,8,7E,7F,38,2E,38,38,00,00,
-1693295630129339,000003BC,false,Rx,0,8,7E,7F,19,73,12,A5,00,00,
-1693295630119227,000003BD,false,Rx,0,8,14,04,0D,00,00,00,00,00,
-1693295630109159,000003BE,false,Rx,0,8,00,00,00,80,00,00,00,00,
-1693295630049314,000003B8,false,Rx,0,8,00,02,30,00,03,4D,0A,12,
-1693295630038904,000003BA,false,Rx,0,8,7E,7F,38,2E,38,38,00,00,
-1693295630029347,000003BC,false,Rx,0,8,7E,7F,19,73,12,A5,00,00,
-1693295630019364,000003BD,false,Rx,0,8,14,04,0D,00,00,00,00,00,
-1693295630009167,000003BE,false,Rx,0,8,00,00,00,80,00,00,00,00,
-1693295629949224,000003B8,false,Rx,0,8,00,02,24,00,03,4D,0A,12,
-1693295629939497,000003BA,false,Rx,0,8,7E,7F,38,2E,38,38,00,00,
-1693295629929471,000003BC,false,Rx,0,8,7E,7F,19,87,0D,E6,00,00,
-1693295629919487,000003BD,false,Rx,0,8,14,04,0D,00,00,00,00,00,
-1693295629909504,000003BE,false,Rx,0,8,00,00,00,80,00,00,00,00,
-1693295629849476,000003B8,false,Rx,0,8,00,02,24,00,03,4D,0A,A2,
-1693295629839620,000003BA,false,Rx,0,8,7E,7F,38,2E,38,38,00,00,
-1693295629829594,000003BC,false,Rx,0,8,7E,7F,19,87,0D,E6,00,00,
-1693295629819653,000003BD,false,Rx,0,8,14,04,0D,00,00,00,00,00,
-1693295629809585,000003BE,false,Rx,0,8,00,00,00,80,00,00,00,00,
-1693295629749557,000003B8,false,Rx,0,8,00,02,24,00,03,4D,0A,A2,
-1693295629739573,000003BA,false,Rx,0,8,7E,7F,38,2E,38,38,00,00,
-1693295629728992,000003BC,false,Rx,0,8,7E,7F,19,87,0D,E6,00,00,
-1693295629719606,000003BD,false,Rx,0,8,14,04,0D,00,00,00,00,00,
-1693295629709623,000003BE,false,Rx,0,8,00,00,00,80,00,00,00,00,
-1693295629649765,000003B8,false,Rx,0,8,00,02,25,00,03,4D,0A,A2,
-1693295629639355,000003BA,false,Rx,0,8,7E,7E,38,2E,38,38,00,00,
-1693295629629841,000003BC,false,Rx,0,8,7E,7E,19,A1,0E,9C,00,00,
-1693295629619815,000003BD,false,Rx,0,8,14,04,0D,00,00,00,00,00,
-1693295629609533,000003BE,false,Rx,0,8,00,00,00,80,00,00,00,00,
-1693295629549121,000003B8,false,Rx,0,8,00,02,25,00,03,4D,0A,12,
-1693295629539692,000003BA,false,Rx,0,8,7E,7F,38,2E,38,38,00,00,
-1693295629529837,000003BC,false,Rx,0,8,7E,7F,19,A1,0E,9C,00,00,
-1693295629519768,000003BD,false,Rx,0,8,14,04,0D,00,00,00,00,00,
-1693295629509785,000003BE,false,Rx,0,8,00,00,00,80,00,00,00,00,
-1693295629449415,000003B8,false,Rx,0,8,00,02,25,00,03,4D,0A,12,
-1693295629439859,000003BA,false,Rx,0,8,7E,7F,38,2E,38,38,00,00,
-1693295629429918,000003BC,false,Rx,0,8,7E,7F,19,A1,0E,9C,00,00,
-1693295629419721,000003BD,false,Rx,0,8,14,04,0D,00,00,00,00,00,
-1693295629409823,000003BE,false,Rx,0,8,00,00,00,80,00,00,00,00,
-1693295629349795,000003B8,false,Rx,0,8,00,02,2E,00,03,4D,0A,12,
-1693295629339854,000003BA,false,Rx,0,8,7E,7F,38,2E,38,38,00,00,
-1693295629329913,000003BC,false,Rx,0,8,7E,7F,19,A2,12,0D,00,00,
-1693295629319205,000003BD,false,Rx,0,8,14,04,0D,00,00,00,00,00,
-1693295629309989,000003BE,false,Rx,0,8,00,00,00,80,00,00,00,00,
-1693295629250004,000003B8,false,Rx,0,8,00,02,2E,00,03,4D,0A,12,
-1693295629240020,000003BA,false,Rx,0,8,7E,7F,38,2E,38,38,00,00,
-1693295629229354,000003BC,false,Rx,0,8,7E,7F,19,A2,12,0D,00,00,
-1693295629220096,000003BD,false,Rx,0,8,14,04,0D,00,00,00,00,00,
-1693295629210113,000003BE,false,Rx,0,8,00,00,00,80,00,00,00,00,
-1693295629150170,000003B8,false,Rx,0,8,00,02,2E,00,03,4D,0A,12,
-1693295629140101,000003BA,false,Rx,0,8,7E,7E,38,2E,38,38,00,00,
-1693295629130161,000003BC,false,Rx,0,8,7E,7E,19,90,12,86,00,00,
-1693295629120092,000003BD,false,Rx,0,8,14,04,0D,00,00,00,00,00,
-1693295629110237,000003BE,false,Rx,0,8,00,00,00,80,00,00,00,00,
-1693295629050144,000003B8,false,Rx,0,8,00,02,2F,00,03,4D,0A,12,
-1693295629040374,000003BA,false,Rx,0,8,7E,7F,38,2E,38,38,00,00,
-1693295629030262,000003BC,false,Rx,0,8,7E,7F,19,90,12,86,00,00,
-1693295629020279,000003BD,false,Rx,0,8,14,04,0D,00,00,00,00,00,
-1693295629010295,000003BE,false,Rx,0,8,00,00,00,80,00,00,00,00,
-1693295628949969,000003B8,false,Rx,0,8,00,02,2F,00,03,4D,0A,12,
-1693295628940369,000003BA,false,Rx,0,8,7E,7F,38,2E,38,38,00,00,
-1693295628930471,000003BC,false,Rx,0,8,7E,7F,19,90,12,86,00,00,
-1693295628920104,000003BD,false,Rx,0,8,14,04,0D,00,00,00,00,00,
-1693295628910504,000003BE,false,Rx,0,8,00,00,00,80,00,00,00,00,
-1693295628850391,000003B8,false,Rx,0,8,00,02,30,00,03,4D,0A,12,
-1693295628840450,000003BA,false,Rx,0,8,7E,7F,38,2E,38,38,00,00,
-1693295628830467,000003BC,false,Rx,0,8,7E,7F,19,8B,12,A5,00,00,
-1693295628820569,000003BD,false,Rx,0,8,14,04,0D,00,00,00,00,00,
-1693295628810500,000003BE,false,Rx,0,8,00,00,00,80,00,00,00,00,
-1693295628750472,000003B8,false,Rx,0,8,00,02,30,00,03,4D,0A,12,
-1693295628740574,000003BA,false,Rx,0,8,7E,7F,38,2E,38,38,00,00,
-1693295628730121,000003BC,false,Rx,0,8,7E,7F,19,8B,12,A5,00,00,
-1693295628720607,000003BD,false,Rx,0,8,14,04,0D,00,00,00,00,00,
-1693295628710453,000003BE,false,Rx,0,8,00,00,00,80,00,00,00,00,
-1693295628650339,000003B8,false,Rx,0,8,00,02,30,00,03,4D,0A,12,
-1693295628640484,000003BA,false,Rx,0,8,7E,7F,38,2E,38,38,00,00,
-1693295628630543,000003BC,false,Rx,0,8,7E,7F,19,8B,12,A5,00,00,
-1693295628620432,000003BD,false,Rx,0,8,14,04,0D,00,00,00,00,00,
-1693295628610363,000003BE,false,Rx,0,8,00,00,00,80,00,00,00,00,
-1693295628550420,000003B8,false,Rx,0,8,00,02,1A,00,03,4D,0A,12,
-1693295628540181,000003BA,false,Rx,0,8,7E,7E,38,2E,38,38,00,00,
-1693295628530624,000003BC,false,Rx,0,8,7E,7E,19,8B,0A,56,00,00,
-1693295628520641,000003BD,false,Rx,0,8,14,04,0D,00,00,00,00,00,
-1693295628510444,000003BE,false,Rx,0,8,00,00,00,80,00,00,00,00,
-1693295628450629,000003B8,false,Rx,0,8,00,02,1A,00,03,4D,0A,12,
-1693295628440774,000003BA,false,Rx,0,8,7E,7E,38,2E,38,38,00,00,
-1693295628430748,000003BC,false,Rx,0,8,7E,7E,19,8B,0A,56,00,00,
-1693295628420764,000003BD,false,Rx,0,8,14,04,0D,00,00,00,00,00,
-1693295628410824,000003BE,false,Rx,0,8,00,00,00,80,00,00,00,00,
-1693295628350070,000003B8,false,Rx,0,8,00,02,1A,00,03,4D,0A,12,
-1693295628340897,000003BA,false,Rx,0,8,7E,7F,38,2E,38,38,00,00,
-1693295628330914,000003BC,false,Rx,0,8,7E,7F,19,8B,0A,56,00,00,
-1693295628320376,000003BD,false,Rx,0,8,14,04,0D,00,00,00,00,00,
-1693295628310819,000003BE,false,Rx,0,8,00,00,00,80,00,00,00,00,
-1693295628250919,000003B8,false,Rx,0,8,00,02,08,00,03,4D,0A,A2,
-1693295628240936,000003BA,false,Rx,0,8,7E,7E,38,2E,38,38,00,00,
-1693295628230696,000003BC,false,Rx,0,8,7E,7E,19,8B,03,1A,00,00,
-1693295628220969,000003BD,false,Rx,0,8,14,04,0D,00,00,00,00,00,
-1693295628210943,000003BE,false,Rx,0,8,00,00,00,80,00,00,00,00,
-1693295628151042,000003B8,false,Rx,0,8,00,02,08,00,03,4D,0A,A2,
-1693295628140590,000003BA,false,Rx,0,8,7E,7E,38,2E,38,38,00,00,
-1693295628131161,000003BC,false,Rx,0,8,7E,7E,19,8B,03,1A,00,00,
-1693295628121050,000003BD,false,Rx,0,8,14,04,0D,00,00,00,00,00,
-1693295628111152,000003BE,false,Rx,0,8,00,00,00,80,00,00,00,00,
-1693295628051051,000003B8,false,Rx,0,8,00,02,08,00,03,4D,0A,12,
-1693295628040769,000003BA,false,Rx,0,8,7E,7E,38,2E,38,38,00,00,
-1693295628031169,000003BC,false,Rx,0,8,7E,7E,19,8B,03,1A,00,00,
-1693295628021271,000003BD,false,Rx,0,8,14,04,0D,00,00,00,00,00,
-1693295628011245,000003BE,false,Rx,0,8,00,00,00,80,00,00,00,00,
-1693295627951260,000003B8,false,Rx,0,8,00,02,03,00,03,4D,0A,12,
-1693295627941234,000003BA,false,Rx,0,8,7E,7E,38,2E,38,38,00,00,
-1693295627931378,000003BC,false,Rx,0,8,7E,7E,19,80,01,34,00,00,
-1693295627921267,000003BD,false,Rx,0,8,14,04,0D,00,00,00,00,00,
-1693295627911411,000003BE,false,Rx,0,8,00,00,00,80,00,00,00,00,
-1693295627851383,000003B8,false,Rx,0,8,00,02,03,00,03,4D,0A,12,
-1693295627841528,000003BA,false,Rx,0,8,7E,7E,38,2E,38,38,00,00,
-1693295627831459,000003BC,false,Rx,0,8,7E,7E,19,80,01,34,00,00,
-1693295627821518,000003BD,false,Rx,0,8,14,04,0D,00,00,00,00,00,
-1693295627811492,000003BE,false,Rx,0,8,00,00,00,80,00,00,00,00,
-1693295627751421,000003B8,false,Rx,0,8,00,02,03,00,03,4D,0A,12,
-1693295627741651,000003BA,false,Rx,0,8,7E,7F,38,2E,38,38,00,00,
-1693295627731625,000003BC,false,Rx,0,8,7E,7F,19,81,00,9C,00,00,
-1693295627721642,000003BD,false,Rx,0,8,14,04,0D,00,00,00,00,00,
-1693295627711019,000003BE,false,Rx,0,8,00,00,00,80,00,00,00,00,
-1693295627651588,000003B8,false,Rx,0,8,00,02,02,00,03,4D,0A,12,
-1693295627641604,000003BA,false,Rx,0,8,7E,7E,38,2E,38,38,00,00,
-1693295627631706,000003BC,false,Rx,0,8,7E,7E,19,81,00,9C,00,00,
-1693295627621766,000003BD,false,Rx,0,8,14,04,0D,00,00,00,00,00,
-1693295627611441,000003BE,false,Rx,0,8,00,00,00,80,00,00,00,00,
-1693295627551711,000003B8,false,Rx,0,8,00,02,02,00,03,4D,0A,12,
-1693295627541941,000003BA,false,Rx,0,8,7E,7E,38,2E,38,38,00,00,
-1693295627531830,000003BC,false,Rx,0,8,7E,7E,19,81,00,9C,00,00,
-1693295627521804,000003BD,false,Rx,0,8,14,04,0D,00,00,00,00,00,
-1693295627511650,000003BE,false,Rx,0,8,00,00,00,80,00,00,00,00,
-1693295627451963,000003B8,false,Rx,0,8,00,02,02,00,03,4D,0A,12,
-1693295627442065,000003BA,false,Rx,0,8,7E,7E,38,2E,38,38,00,00,
-1693295627431356,000003BC,false,Rx,0,8,7E,7E,19,74,00,7E,00,00,
-1693295627422013,000003BD,false,Rx,0,8,14,04,0D,00,00,00,00,00,
-1693295627411901,000003BE,false,Rx,0,8,00,00,00,80,00,00,00,00,
-1693295627352044,000003B8,false,Rx,0,8,00,02,01,00,03,4D,0A,12,
-1693295627342060,000003BA,false,Rx,0,8,7E,7E,38,2E,38,38,00,00,
-1693295627331608,000003BC,false,Rx,0,8,7E,7E,19,74,00,7E,00,00,
-1693295627322179,000003BD,false,Rx,0,8,14,04,0D,00,00,00,00,00,
-1693295627312068,000003BE,false,Rx,0,8,00,00,00,80,00,00,00,00,
-1693295627252167,000003B8,false,Rx,0,8,00,02,01,00,03,4D,0A,12,
-1693295627242184,000003BA,false,Rx,0,8,7E,7E,38,2E,38,38,00,00,
-1693295627232073,000003BC,false,Rx,0,8,7E,7E,19,74,00,7E,00,00,
-1693295627222260,000003BD,false,Rx,0,8,14,04,0D,00,00,00,00,00,
-1693295627212148,000003BE,false,Rx,0,8,00,00,00,80,00,00,00,00,
-1693295627151779,000003B8,false,Rx,0,8,00,02,01,00,03,4D,0A,12,
-1693295627142308,000003BA,false,Rx,0,8,7E,7E,38,2E,38,38,00,00,
-1693295627132239,000003BC,false,Rx,0,8,7E,7E,19,73,00,5F,00,00,
-1693295627122255,000003BD,false,Rx,0,8,14,04,0D,00,00,00,00,00,
-1693295627112315,000003BE,false,Rx,0,8,00,00,00,80,00,00,00,00,
-1693295627051958,000003B8,false,Rx,0,8,00,02,01,00,03,4D,0A,12,
-1693295627042273,000003BA,false,Rx,0,8,7E,7E,38,2E,38,38,00,00,
-1693295627032375,000003BC,false,Rx,0,8,7E,7E,19,73,00,5F,00,00,
-1693295627022392,000003BD,false,Rx,0,8,14,04,0D,00,00,00,00,00,
-1693295627012280,000003BE,false,Rx,0,8,00,00,00,80,00,00,00,00,
-1693295626952167,000003B8,false,Rx,0,8,00,02,01,00,03,4D,0A,12,
-1693295626942525,000003BA,false,Rx,0,8,7E,7E,38,2E,38,38,00,00,
-1693295626932456,000003BC,false,Rx,0,8,7E,7E,19,73,00,5F,00,00,
-1693295626922473,000003BD,false,Rx,0,8,14,04,0D,00,00,00,00,00,
-1693295626912532,000003BE,false,Rx,0,8,00,00,00,80,00,00,00,00,
-1693295626852461,000003B8,false,Rx,0,8,00,02,01,00,03,4D,0A,12,
-1693295626842606,000003BA,false,Rx,0,8,7E,7F,38,2E,38,38,00,00,
-1693295626832537,000003BC,false,Rx,0,8,7E,7F,19,73,00,5F,00,00,
-1693295626822084,000003BD,false,Rx,0,8,14,04,0D,00,00,00,00,00,
-1693295626812613,000003BE,false,Rx,0,8,00,00,00,80,00,00,00,00,
-1693295626752499,000003B8,false,Rx,0,8,00,02,01,00,03,4D,0A,12,
-1693295626742516,000003BA,false,Rx,0,8,7E,7F,38,2E,38,38,00,00,
-1693295626732660,000003BC,false,Rx,0,8,7E,7F,19,73,00,5F,00,00,
-1693295626722378,000003BD,false,Rx,0,8,14,04,0D,00,00,00,00,00,
-1693295626712566,000003BE,false,Rx,0,8,00,00,00,80,00,00,00,00,
-1693295626652495,000003B8,false,Rx,0,8,00,02,01,00,03,4D,0A,12,
-1693295626641914,000003BA,false,Rx,0,8,7E,7E,38,2E,38,38,00,00,
-1693295626632485,000003BC,false,Rx,0,8,7E,7E,19,73,00,5F,00,00,
-1693295626622545,000003BD,false,Rx,0,8,14,04,0D,00,00,00,00,00,
-1693295626612476,000003BE,false,Rx,0,8,00,00,00,80,00,00,00,00,
-1693295626552533,000003B8,false,Rx,0,8,00,02,01,00,03,4D,0A,12,
-1693295626542294,000003BA,false,Rx,0,8,7E,7E,38,2E,38,38,00,00,
-1693295626532652,000003BC,false,Rx,0,8,7E,7E,19,73,00,5F,00,00,
-1693295626522754,000003BD,false,Rx,0,8,14,04,0D,00,00,00,00,00,
-1693295626512685,000003BE,false,Rx,0,8,00,00,00,80,00,00,00,00,
-1693295626452742,000003B8,false,Rx,0,8,00,02,01,00,03,4D,0A,12,
-1693295626442716,000003BA,false,Rx,0,8,7E,7F,38,2E,38,38,00,00,
-1693295626432861,000003BC,false,Rx,0,8,7E,7F,19,73,00,5F,00,00,
-1693295626422749,000003BD,false,Rx,0,8,14,04,0D,00,00,00,00,00,
-1693295626412808,000003BE,false,Rx,0,8,00,00,00,80,00,00,00,00,
-1693295626352780,000003B8,false,Rx,0,8,00,02,01,00,03,4D,0A,12,
-1693295626342967,000003BA,false,Rx,0,8,7E,7E,38,2E,38,38,00,00,
-1693295626332899,000003BC,false,Rx,0,8,7E,7E,19,73,00,5F,00,00,
-1693295626322830,000003BD,false,Rx,0,8,14,04,0D,00,00,00,00,00,
-1693295626312249,000003BE,false,Rx,0,8,00,00,00,80,00,00,00,00,
-1693295626252776,000003B8,false,Rx,0,8,00,02,01,00,03,4D,0A,12,
-1693295626242878,000003BA,false,Rx,0,8,7E,7F,38,2E,38,38,00,00,
-1693295626233022,000003BC,false,Rx,0,8,7E,7F,19,72,00,5F,00,00,
-1693295626222954,000003BD,false,Rx,0,8,14,04,0D,00,00,00,00,00,
-1693295626212800,000003BE,false,Rx,0,8,00,00,00,80,00,00,00,00,
-1693295626152899,000003B8,false,Rx,0,8,00,02,01,00,03,4D,0A,12,
-1693295626143001,000003BA,false,Rx,0,8,7E,7F,38,2E,38,38,00,00,
-1693295626133103,000003BC,false,Rx,0,8,7E,7F,19,72,00,5F,00,00,
-1693295626122992,000003BD,false,Rx,0,8,14,04,0D,00,00,00,00,00,
-1693295626113051,000003BE,false,Rx,0,8,00,00,00,80,00,00,00,00,
-1693295626053223,000003B8,false,Rx,0,8,00,02,01,00,03,4D,0A,12,
-1693295626043368,000003BA,false,Rx,0,8,7E,7F,38,2E,38,38,00,00,
-1693295626032574,000003BC,false,Rx,0,8,7E,7F,19,65,00,5F,00,00,
-1693295626023358,000003BD,false,Rx,0,8,14,04,0D,00,00,00,00,00,
-1693295626013247,000003BE,false,Rx,0,8,00,00,00,80,00,00,00,00,
-1693295625953304,000003B8,false,Rx,0,8,00,02,01,00,03,4D,0A,12,
-1693295625943363,000003BA,false,Rx,0,8,7E,7F,38,2E,38,38,00,00,
-1693295625932740,000003BC,false,Rx,0,8,7E,7F,19,65,00,5F,00,00,
-1693295625923482,000003BD,false,Rx,0,8,14,04,0D,00,00,00,00,00,
-1693295625913413,000003BE,false,Rx,0,8,00,00,00,80,00,00,00,00,
-1693295625853385,000003B8,false,Rx,0,8,00,02,01,00,03,4D,0A,12,
-1693295625843615,000003BA,false,Rx,0,8,7E,7E,38,2E,38,38,00,00,
-1693295625832906,000003BC,false,Rx,0,8,7E,7E,19,65,00,5F,00,00,
-1693295625823477,000003BD,false,Rx,0,8,14,04,0D,00,00,00,00,00,
-1693295625813579,000003BE,false,Rx,0,8,00,00,00,80,00,00,00,00,
-1693295625753466,000003B8,false,Rx,0,8,00,02,01,00,03,4D,0A,12,
-1693295625743525,000003BA,false,Rx,0,8,7E,7F,38,2E,38,38,00,00,
-1693295625733371,000003BC,false,Rx,0,8,7E,7F,19,5C,00,5F,00,00,
-1693295625723558,000003BD,false,Rx,0,8,14,04,0D,00,00,00,00,00,
-1693295625713660,000003BE,false,Rx,0,8,00,00,00,80,00,00,00,00,
-1693295625652992,000003B8,false,Rx,0,8,00,02,01,00,03,4D,0A,12,
-1693295625643521,000003BA,false,Rx,0,8,7E,7E,38,2E,38,38,00,00,
-1693295625633580,000003BC,false,Rx,0,8,7E,7E,19,5C,00,5F,00,00,
-1693295625623596,000003BD,false,Rx,0,8,14,04,0D,00,00,00,00,00,
-1693295625613698,000003BE,false,Rx,0,8,00,00,00,80,00,00,00,00,
-1693295625553243,000003B8,false,Rx,0,8,00,02,01,00,03,4C,A3,12,
-1693295625543729,000003BA,false,Rx,0,8,7E,7F,38,2E,38,38,00,00,
-1693295625533789,000003BC,false,Rx,0,8,7E,7F,19,5C,00,5F,00,00,
-1693295625523763,000003BD,false,Rx,0,8,14,04,0D,00,00,00,00,00,
-1693295625513865,000003BE,false,Rx,0,8,00,00,00,80,00,00,00,00,
-1693295625453410,000003B8,false,Rx,0,8,00,02,01,00,03,4C,A3,12,
-1693295625443810,000003BA,false,Rx,0,8,7E,7F,38,2E,38,38,00,00,
-1693295625433870,000003BC,false,Rx,0,8,7E,7F,19,5C,00,5F,00,00,
-1693295625423886,000003BD,false,Rx,0,8,14,04,0D,00,00,00,00,00,
-1693295625413946,000003BE,false,Rx,0,8,00,00,00,80,00,00,00,00,
-1693295625353789,000003B8,false,Rx,0,8,00,02,01,00,03,4C,A3,12,
-1693295625343977,000003BA,false,Rx,0,8,7E,7F,38,2E,38,38,00,00,
-1693295625333908,000003BC,false,Rx,0,8,7E,7F,19,5C,00,5F,00,00,
-1693295625323285,000003BD,false,Rx,0,8,14,04,0D,00,00,00,00,00,
-1693295625314026,000003BE,false,Rx,0,8,00,00,00,80,00,00,00,00,
-1693295625254041,000003B8,false,Rx,0,8,00,02,01,00,03,49,0C,12,
-1693295625244015,000003BA,false,Rx,0,8,7E,7E,38,2E,38,38,00,00,
-1693295625234117,000003BC,false,Rx,0,8,7E,7E,19,5C,00,5F,00,00,
-1693295625223536,000003BD,false,Rx,0,8,14,04,0D,00,00,00,00,00,
-1693295625214065,000003BE,false,Rx,0,8,00,00,00,80,00,00,00,00,
-1693295625154122,000003B8,false,Rx,0,8,00,02,01,00,03,49,0C,12,
-1693295625144309,000003BA,false,Rx,0,8,7E,7F,38,2E,38,38,00,00,
-1693295625134283,000003BC,false,Rx,0,8,7E,7F,19,5C,00,5F,00,00,
-1693295625124001,000003BD,false,Rx,0,8,14,04,0D,00,00,00,00,00,
-1693295625114316,000003BE,false,Rx,0,8,00,00,00,80,00,00,00,00,
-1693295625054247,000003B8,false,Rx,0,8,00,02,01,00,03,49,0C,12,
-1693295625044264,000003BA,false,Rx,0,8,7E,7F,38,2E,38,38,00,00,
-1693295625034366,000003BC,false,Rx,0,8,7E,7F,19,5C,00,5F,00,00,
-1693295625024255,000003BD,false,Rx,0,8,14,04,0D,00,00,00,00,00,
-1693295625014357,000003BE,false,Rx,0,8,00,00,00,80,00,00,00,00,
-1693295624954243,000003B8,false,Rx,0,8,00,02,01,00,03,44,9C,12,
-1693295624943833,000003BA,false,Rx,0,8,7E,7E,38,2E,38,38,00,00,
-1693295624934319,000003BC,false,Rx,0,8,7E,7E,19,5C,00,5F,00,00,
-1693295624924421,000003BD,false,Rx,0,8,14,04,0D,00,00,00,00,00,
-1693295624914437,000003BE,false,Rx,0,8,00,00,00,80,00,00,00,00,
-1693295624854367,000003B8,false,Rx,0,8,00,02,01,00,03,44,9C,12,
-1693295624844170,000003BA,false,Rx,0,8,7E,7E,38,2E,38,38,00,00,
-1693295624834485,000003BC,false,Rx,0,8,7E,7E,19,5C,00,5F,00,00,
-1693295624824544,000003BD,false,Rx,0,8,14,04,0D,00,00,00,00,00,
-1693295624814348,000003BE,false,Rx,0,8,00,00,00,80,00,00,00,00,
-1693295624754405,000003B8,false,Rx,0,8,00,02,01,00,03,44,9C,12,
-1693295624744464,000003BA,false,Rx,0,8,7E,7E,38,2E,38,38,00,00,
-1693295624734395,000003BC,false,Rx,0,8,7E,7E,19,5C,00,5F,00,00,
-1693295624724369,000003BD,false,Rx,0,8,14,04,0D,00,00,00,00,00,
-1693295624713746,000003BE,false,Rx,0,8,00,00,00,80,00,00,00,00,
-1693295624654272,000003B8,false,Rx,0,8,00,02,01,00,03,40,8D,12,
-1693295624644332,000003BA,false,Rx,0,8,7E,7F,38,2E,38,38,00,00,
-1693295624634434,000003BC,false,Rx,0,8,7E,7F,19,5C,00,5F,00,00,
-1693295624624450,000003BD,false,Rx,0,8,14,04,0D,00,00,00,00,00,
-1693295624614083,000003BE,false,Rx,0,8,00,00,00,80,00,00,00,00,
-1693295624554481,000003B8,false,Rx,0,8,00,02,01,00,03,40,8D,12,
-1693295624544541,000003BA,false,Rx,0,8,7E,7E,38,2E,38,38,00,00,
-1693295624534557,000003BC,false,Rx,0,8,7E,7E,19,5C,00,5F,00,00,
-1693295624524616,000003BD,false,Rx,0,8,14,04,0D,00,00,00,00,00,
-1693295624514292,000003BE,false,Rx,0,8,00,00,00,80,00,00,00,00,
-1693295624454605,000003B8,false,Rx,0,8,00,02,01,00,03,40,8D,12,
-1693295624444707,000003BA,false,Rx,0,8,7E,7E,38,2E,38,38,00,00,
-1693295624433913,000003BC,false,Rx,0,8,7E,7E,19,5C,00,5F,00,00,
-1693295624424655,000003BD,false,Rx,0,8,14,04,0D,00,00,00,00,00,
-1693295624414671,000003BE,false,Rx,0,8,00,00,00,80,00,00,00,00,
-1693295624354643,000003B8,false,Rx,0,8,00,02,01,00,03,3C,84,12,
-1693295624344660,000003BA,false,Rx,0,8,7E,7E,38,2E,38,38,00,00,
-1693295624334250,000003BC,false,Rx,0,8,7E,7E,19,5C,00,5F,00,00,
-1693295624324821,000003BD,false,Rx,0,8,14,04,0D,00,00,00,00,00,
-1693295624314710,000003BE,false,Rx,0,8,00,00,00,80,00,00,00,00,
-1693295624254767,000003B8,false,Rx,0,8,00,02,01,00,03,3C,84,12,
-1693295624244911,000003BA,false,Rx,0,8,7E,7F,38,2E,38,38,00,00,
-1693295624234672,000003BC,false,Rx,0,8,7E,7F,19,5C,00,5F,00,00,
-1693295624224817,000003BD,false,Rx,0,8,14,04,0D,00,00,00,00,00,
-1693295624214918,000003BE,false,Rx,0,8,00,00,00,80,00,00,00,00,
-1693295624154208,000003B8,false,Rx,0,8,00,02,01,00,03,38,E4,12,
-1693295624144992,000003BA,false,Rx,0,8,7E,7F,38,2E,38,38,00,00,
-1693295624134923,000003BC,false,Rx,0,8,7E,7F,19,5C,00,5F,00,00,
-1693295624124940,000003BD,false,Rx,0,8,14,04,0D,00,00,00,00,00,
-1693295624114999,000003BE,false,Rx,0,8,00,00,00,80,00,00,00,00,
-1693295624054600,000003B8,false,Rx,0,8,00,02,01,00,03,38,E4,12,
-1693295624045128,000003BA,false,Rx,0,8,7E,7F,38,2E,38,38,00,00,
-1693295624035060,000003BC,false,Rx,0,8,7E,7F,19,47,00,5F,00,00,
-1693295624025076,000003BD,false,Rx,0,8,14,04,0D,00,00,00,00,00,
-1693295624015136,000003BE,false,Rx,0,8,00,00,00,80,00,00,00,00,
-1693295623954894,000003B8,false,Rx,0,8,00,02,01,00,03,38,E4,12,
-1693295623945081,000003BA,false,Rx,0,8,7E,7E,38,2E,38,38,00,00,
-1693295623935013,000003BC,false,Rx,0,8,7E,7E,19,47,00,5F,00,00,
-1693295623924347,000003BD,false,Rx,0,8,14,04,0D,00,00,00,00,00,
-1693295623915046,000003BE,false,Rx,0,8,00,00,00,80,00,00,00,00,
-1693295623855060,000003B8,false,Rx,0,8,00,02,01,00,03,35,66,12,
-1693295623845205,000003BA,false,Rx,0,8,7E,7F,38,2E,38,38,00,00,
-1693295623835136,000003BC,false,Rx,0,8,7E,7F,19,47,00,5F,00,00,
-1693295623824684,000003BD,false,Rx,0,8,14,04,0D,00,00,00,00,00,
-1693295623815212,000003BE,false,Rx,0,8,00,00,00,80,00,00,00,00,
-1693295623755227,000003B8,false,Rx,0,8,00,02,01,00,03,35,66,12,
-1693295623745371,000003BA,false,Rx,0,8,7E,7E,38,2E,38,38,00,00,
-1693295623735345,000003BC,false,Rx,0,8,7E,7E,19,44,00,5F,00,00,
-1693295623725063,000003BD,false,Rx,0,8,14,04,0D,00,00,00,00,00,
-1693295623715421,000003BE,false,Rx,0,8,00,00,00,80,00,00,00,00,
-1693295623655307,000003B8,false,Rx,0,8,00,02,01,00,03,35,66,12,
-1693295623645324,000003BA,false,Rx,0,8,7E,7F,38,2E,38,38,00,00,
-1693295623635469,000003BC,false,Rx,0,8,7E,7F,19,44,00,5F,00,00,
-1693295623625357,000003BD,false,Rx,0,8,14,04,0D,00,00,00,00,00,
-1693295623615289,000003BE,false,Rx,0,8,00,00,00,80,00,00,00,00,
-1693295623555431,000003B8,false,Rx,0,8,00,02,01,00,03,32,2A,12,
-1693295623544808,000003BA,false,Rx,0,8,7E,7E,38,2E,38,38,00,00,
-1693295623535550,000003BC,false,Rx,0,8,7E,7E,19,44,00,5F,00,00,
-1693295623525524,000003BD,false,Rx,0,8,14,04,0D,00,00,00,00,00,
-1693295623515455,000003BE,false,Rx,0,8,00,00,00,80,00,00,00,00,
