Time Stamp,ID,Extended,Dir,Bus,LEN,D1,D2,D3,D4,D5,D6,D7,D8
-1693295589974137,000003B8,false,Rx,0,8,64,00,00,00,00,00,00,12,
-1693295589964239,000003BA,false,Rx,0,8,7E,7F,41,41,41,41,00,00,
-1693295589954256,000003BC,false,Rx,0,8,7E,7F,00,00,00,00,00,00,
-1693295589944315,000003BD,false,Rx,0,8,14,04,0D,00,00,00,00,00,
-1693295589934203,000003BE,false,Rx,0,8,00,00,00,81,00,00,00,00,
-1693295589874261,000003B8,false,Rx,0,8,64,00,00,00,00,00,00,12,
-1693295589864106,000003BA,false,Rx,0,8,7E,7E,41,41,41,41,00,00,
-1693295589854379,000003BC,false,Rx,0,8,7E,7E,00,00,00,00,00,00,
-1693295589844481,000003BD,false,Rx,0,8,14,04,0D,00,00,00,00,00,
-1693295589834370,000003BE,false,Rx,0,8,00,00,00,81,00,00,00,00,
-1693295589774427,000003B8,false,Rx,0,8,64,00,00,00,00,00,00,12,
-1693295589764059,000003BA,false,Rx,0,8,7E,7E,41,41,41,41,00,00,
-1693295589754545,000003BC,false,Rx,0,8,7E,7E,00,00,00,00,00,00,
-1693295589744647,000003BD,false,Rx,0,8,14,04,0D,00,00,00,00,00,
-1693295589734536,000003BE,false,Rx,0,8,00,00,00,81,00,00,00,00,
-1693295589674550,000003B8,false,Rx,0,8,64,00,00,00,00,00,00,12,
-1693295589664012,000003BA,false,Rx,0,8,7E,7F,41,41,41,41,00,00,
-1693295589654669,000003BC,false,Rx,0,8,7E,7F,00,00,00,00,00,00,
-1693295589644771,000003BD,false,Rx,0,8,14,04,0D,00,00,00,00,00,
-1693295589634659,000003BE,false,Rx,0,8,00,00,00,81,00,00,00,00,
-1693295589574717,000003B8,false,Rx,0,8,64,00,00,00,00,00,00,12,
-1693295589564819,000003BA,false,Rx,0,8,7E,7E,41,41,41,41,00,00,
-1693295589554835,000003BC,false,Rx,0,8,7E,7E,00,00,00,00,00,00,
-1693295589544724,000003BD,false,Rx,0,8,14,04,0D,00,00,00,00,00,
-1693295589534783,000003BE,false,Rx,0,8,00,00,00,81,00,00,00,00,
-1693295589474883,000003B8,false,Rx,0,8,64,00,00,00,00,00,00,12,
-1693295589464985,000003BA,false,Rx,0,8,7E,7E,41,41,41,41,00,00,
-1693295589455001,000003BC,false,Rx,0,8,7E,7E,00,00,00,00,00,00,
-1693295589444719,000003BD,false,Rx,0,8,14,04,0D,00,00,00,00,00,
-1693295589434992,000003BE,false,Rx,0,8,00,00,00,81,00,00,00,00,
-1693295589375049,000003B8,false,Rx,0,8,64,00,00,00,00,00,00,12,
-1693295589365194,000003BA,false,Rx,0,8,7E,7E,41,41,41,41,00,00,
-1693295589355168,000003BC,false,Rx,0,8,7E,7E,00,00,00,00,00,00,
-1693295589344672,000003BD,false,Rx,0,8,14,04,0D,00,00,00,00,00,
-1693295589335158,000003BE,false,Rx,0,8,00,00,00,81,00,00,00,00,
-1693295589275215,000003B8,false,Rx,0,8,64,00,00,00,00,00,00,12,
-1693295589265360,000003BA,false,Rx,0,8,7E,7E,41,41,41,41,00,00,
-1693295589255334,000003BC,false,Rx,0,8,7E,7E,00,00,00,00,00,00,
-1693295589244668,000003BD,false,Rx,0,8,14,04,0D,00,00,00,00,00,
-1693295589235324,000003BE,false,Rx,0,8,00,00,00,81,00,00,00,00,
-1693295589175339,000003B8,false,Rx,0,8,64,00,00,00,00,00,00,12,
-1693295589165483,000003BA,false,Rx,0,8,7E,7F,41,41,41,41,00,00,
-1693295589155500,000003BC,false,Rx,0,8,7E,7F,00,00,00,00,00,00,
-1693295589145389,000003BD,false,Rx,0,8,14,04,0D,00,00,00,00,00,
-1693295589135448,000003BE,false,Rx,0,8,00,00,00,81,00,00,00,00,
-1693295589074950,000003B8,false,Rx,0,8,64,00,00,00,00,00,38,12,
-1693295589065394,000003BA,false,Rx,0,8,7E,7E,41,41,41,41,00,00,
-1693295589055453,000003BC,false,Rx,0,8,7E,7E,00,00,00,00,00,00,
-1693295589045397,000003BD,false,Rx,0,8,14,04,0D,00,00,00,00,00,
-1693295589035499,000003BE,false,Rx,0,8,00,00,00,81,00,00,00,00,
-1693295588975428,000003B8,false,Rx,0,8,00,00,00,00,00,00,38,12,
-1693295588965487,000003BA,false,Rx,0,8,7E,7E,41,41,41,41,00,00,
-1693295588955632,000003BC,false,Rx,0,8,7E,7E,00,00,00,00,00,00,
-1693295588945265,000003BD,false,Rx,0,8,14,04,0D,00,00,00,00,00,
-1693295588935665,000003BE,false,Rx,0,8,00,00,00,81,00,00,00,00,
-1693295588875680,000003B8,false,Rx,0,8,00,00,00,00,00,00,38,12,
-1693295588865270,000003BA,false,Rx,0,8,7E,7F,41,41,41,41,00,00,
-1693295588855670,000003BC,false,Rx,0,8,7E,7F,00,00,00,00,00,00,
-1693295588845729,000003BD,false,Rx,0,8,14,04,0D,00,00,00,00,00,
-1693295588835703,000003BE,false,Rx,0,8,00,00,00,81,00,00,00,00,
-1693295588775803,000003B8,false,Rx,0,8,00,00,01,00,00,00,38,12,
-1693295588765777,000003BA,false,Rx,0,8,7E,7E,41,41,41,41,00,00,
-1693295588755836,000003BC,false,Rx,0,8,7E,7E,14,82,00,3C,00,00,
-1693295588745810,000003BD,false,Rx,0,8,14,04,0D,00,00,00,00,00,
-1693295588735571,000003BE,false,Rx,0,8,00,00,00,81,00,00,00,00,
-1693295588675756,000003B8,false,Rx,0,8,00,00,01,00,00,00,38,12,
-1693295588665943,000003BA,false,Rx,0,8,7E,7E,41,41,41,41,00,00,
-1693295588655875,000003BC,false,Rx,0,8,7E,7E,14,82,00,3C,00,00,
-1693295588645891,000003BD,false,Rx,0,8,14,04,0D,00,00,00,00,00,
-1693295588635823,000003BE,false,Rx,0,8,00,00,00,81,00,00,00,00,
-1693295588575837,000003B8,false,Rx,0,8,00,00,01,00,00,00,38,12,
-1693295588566067,000003BA,false,Rx,0,8,7E,7E,2D,25,2F,31,00,00,
-1693295588555913,000003BC,false,Rx,0,8,7E,7E,14,82,00,3C,00,00,
-1693295588545418,000003BD,false,Rx,0,8,14,04,0D,00,00,00,00,00,
-1693295588536031,000003BE,false,Rx,0,8,00,00,00,81,00,00,00,00,
-1693295588476089,000003B8,false,Rx,0,8,00,00,01,00,00,00,38,12,
-1693295588466063,000003BA,false,Rx,0,8,7E,7E,2D,25,2F,31,00,00,
-1693295588456164,000003BC,false,Rx,0,8,7E,7E,14,82,00,3C,00,00,
-1693295588445968,000003BD,false,Rx,0,8,14,04,0D,00,00,00,00,00,
-1693295588436112,000003BE,false,Rx,0,8,00,00,00,81,00,00,00,00,
-1693295588376127,000003B8,false,Rx,0,8,00,00,01,00,04,00,89,12,
-1693295588365845,000003BA,false,Rx,0,8,7E,7E,2D,25,2F,31,00,00,
-1693295588356117,000003BC,false,Rx,0,8,7E,7E,14,82,00,3C,00,00,
-1693295588346049,000003BD,false,Rx,0,8,14,04,0D,00,00,00,00,00,
-1693295588335425,000003BE,false,Rx,0,8,00,00,00,81,00,00,00,00,
-1693295588275994,000003B8,false,Rx,0,8,00,00,01,00,04,00,89,12,
-1693295588266054,000003BA,false,Rx,0,8,7E,7E,2D,25,2F,31,00,00,
-1693295588256156,000003BC,false,Rx,0,8,7E,7E,14,82,00,3C,00,00,
-1693295588246087,000003BD,false,Rx,0,8,14,04,0D,00,00,00,00,00,
-1693295588236018,000003BE,false,Rx,0,8,00,00,00,81,00,00,00,00,
-1693295588176161,000003B8,false,Rx,0,8,00,00,01,00,04,00,89,12,
-1693295588166135,000003BA,false,Rx,0,8,7E,7E,2D,25,2F,31,00,00,
-1693295588155895,000003BC,false,Rx,0,8,7E,7E,14,82,00,3C,00,00,
-1693295588146253,000003BD,false,Rx,0,8,14,04,0D,00,00,00,00,00,
-1693295588136227,000003BE,false,Rx,0,8,00,00,00,81,00,00,00,00,
-1693295588075644,000003B8,false,Rx,0,8,00,00,01,00,04,00,89,12,
-1693295588066344,000003BA,false,Rx,0,8,7E,7F,30,28,32,34,00,00,
-1693295588056445,000003BC,false,Rx,0,8,7E,7F,14,82,00,3C,00,00,
-1693295588046518,000003BD,false,Rx,0,8,14,04,0D,00,00,00,00,00,
-1693295588036492,000003BE,false,Rx,0,8,00,00,00,81,00,00,00,00,
-1693295587976378,000003B8,false,Rx,0,8,00,00,01,00,04,00,89,12,
-1693295587966608,000003BA,false,Rx,0,8,7E,7E,30,28,32,34,00,00,
-1693295587956540,000003BC,false,Rx,0,8,7E,7E,14,82,00,3C,00,00,
-1693295587945959,000003BD,false,Rx,0,8,14,04,0D,00,00,00,00,00,
-1693295587936530,000003BE,false,Rx,0,8,00,00,00,81,00,00,00,00,
-1693295587876417,000003B8,false,Rx,0,8,00,00,01,00,04,00,89,12,
-1693295587866647,000003BA,false,Rx,0,8,7E,7E,30,28,32,34,00,00,
-1693295587856535,000003BC,false,Rx,0,8,7E,7E,14,82,00,3C,00,00,
-1693295587846552,000003BD,false,Rx,0,8,14,04,0D,00,00,00,00,00,
-1693295587836697,000003BE,false,Rx,0,8,00,00,00,81,00,00,00,00,
-1693295587776583,000003B8,false,Rx,0,8,00,00,01,00,04,00,89,12,
-1693295587766344,000003BA,false,Rx,0,8,7E,7E,30,28,32,34,00,00,
-1693295587756702,000003BC,false,Rx,0,8,7E,7E,14,82,00,3C,00,00,
-1693295587746718,000003BD,false,Rx,0,8,14,04,0D,00,00,00,00,00,
-1693295587736692,000003BE,false,Rx,0,8,00,00,00,81,00,00,00,00,
-1693295587676707,000003B8,false,Rx,0,8,00,01,01,00,04,00,89,12,
-1693295587666681,000003BA,false,Rx,0,8,7E,7E,30,28,32,34,00,00,
-1693295587656697,000003BC,false,Rx,0,8,7E,7E,14,82,00,3C,00,00,
-1693295587646799,000003BD,false,Rx,0,8,14,04,0D,00,00,00,00,00,
-1693295587636474,000003BE,false,Rx,0,8,00,00,00,81,00,00,00,00,
-1693295587576702,000003B8,false,Rx,0,8,00,01,01,00,04,00,89,12,
-1693295587566804,000003BA,false,Rx,0,8,7E,7E,30,28,32,34,00,00,
-1693295587556479,000003BC,false,Rx,0,8,7E,7E,14,82,00,3C,00,00,
-1693295587546880,000003BD,false,Rx,0,8,14,04,0D,00,00,00,00,00,
-1693295587536854,000003BE,false,Rx,0,8,00,00,00,80,00,00,00,00,
-1693295587476399,000003B8,false,Rx,0,8,00,01,01,00,04,00,89,12,
-1693295587467098,000003BA,false,Rx,0,8,7E,7E,33,2A,34,35,00,00,
-1693295587457115,000003BC,false,Rx,0,8,7E,7E,14,82,00,3C,00,00,
-1693295587447046,000003BD,false,Rx,0,8,14,04,0D,00,00,00,00,00,
-1693295587437020,000003BE,false,Rx,0,8,00,00,00,80,00,00,00,00,
-1693295587377120,000003B8,false,Rx,0,8,00,01,01,00,04,00,89,12,
-1693295587367137,000003BA,false,Rx,0,8,7E,7F,33,2A,34,35,00,00,
-1693295587357239,000003BC,false,Rx,0,8,7E,7F,14,82,00,3C,00,00,
-1693295587347084,000003BD,false,Rx,0,8,14,04,0D,00,00,00,00,00,
-1693295587337229,000003BE,false,Rx,0,8,00,00,00,80,00,00,00,00,
-1693295587277201,000003B8,false,Rx,0,8,00,01,01,00,04,00,89,12,
-1693295587266919,000003BA,false,Rx,0,8,7E,7F,33,2A,34,35,00,00,
-1693295587257277,000003BC,false,Rx,0,8,7E,7F,14,82,00,3C,00,00,
-1693295587247336,000003BD,false,Rx,0,8,14,04,0D,00,00,00,00,00,
-1693295587237225,000003BE,false,Rx,0,8,00,00,00,80,00,00,00,00,
-1693295587177410,000003B8,false,Rx,0,8,00,02,01,00,03,00,1D,12,
-1693295587167426,000003BA,false,Rx,0,8,7E,7F,33,2A,34,35,00,00,
-1693295587157486,000003BC,false,Rx,0,8,7E,7F,14,76,00,5F,00,00,
-1693295587147417,000003BD,false,Rx,0,8,14,04,0D,00,00,00,00,00,
-1693295587136751,000003BE,false,Rx,0,8,00,00,00,80,00,00,00,00,
-1693295587077405,000003B8,false,Rx,0,8,00,02,01,00,03,00,1D,12,
-1693295587067337,000003BA,false,Rx,0,8,7E,7E,34,2C,36,36,00,00,
-1693295587057353,000003BC,false,Rx,0,8,7E,7E,14,76,00,5F,00,00,
-1693295587047498,000003BD,false,Rx,0,8,14,04,0D,00,00,00,00,00,
-1693295587037413,000003BE,false,Rx,0,8,00,00,00,80,00,00,00,00,
-1693295586977214,000003B8,false,Rx,0,8,00,02,01,00,02,00,1D,12,
-1693295586967402,000003BA,false,Rx,0,8,7E,7F,34,2C,36,36,00,00,
-1693295586957120,000003BC,false,Rx,0,8,7E,7F,14,76,00,5F,00,00,
-1693295586947349,000003BD,false,Rx,0,8,14,04,0D,00,00,00,00,00,
-1693295586937451,000003BE,false,Rx,0,8,00,00,00,80,00,00,00,00,
-1693295586876954,000003B8,false,Rx,0,8,00,02,01,00,02,00,1D,12,
-1693295586867354,000003BA,false,Rx,0,8,7E,7E,34,2C,36,36,00,00,
-1693295586857499,000003BC,false,Rx,0,8,7E,7E,14,6A,00,5F,00,00,
-1693295586847516,000003BD,false,Rx,0,8,14,04,0D,00,00,00,00,00,
-1693295586837447,000003BE,false,Rx,0,8,00,00,00,80,00,00,00,00,
-1693295586777291,000003B8,false,Rx,0,8,00,02,01,00,02,00,1D,12,
-1693295586767350,000003BA,false,Rx,0,8,7E,7E,35,2C,36,37,00,00,
-1693295586757495,000003BC,false,Rx,0,8,7E,7E,14,6A,00,5F,00,00,
-1693295586747042,000003BD,false,Rx,0,8,14,04,0D,00,00,00,00,00,
-1693295586737400,000003BE,false,Rx,0,8,00,00,00,80,00,00,00,00,
-1693295586677372,000003B8,false,Rx,0,8,00,02,01,00,02,00,1D,12,
-1693295586666791,000003BA,false,Rx,0,8,7E,7E,35,2C,36,37,00,00,
-1693295586657533,000003BC,false,Rx,0,8,7E,7E,14,6A,00,5F,00,00,
-1693295586647464,000003BD,false,Rx,0,8,14,04,0D,00,00,00,00,00,
-1693295586637523,000003BE,false,Rx,0,8,00,00,00,80,00,00,00,00,
-1693295586577538,000003B8,false,Rx,0,8,00,02,01,00,02,00,1D,12,
-1693295586567341,000003BA,false,Rx,0,8,7E,7E,35,2C,36,37,00,00,
-1693295586557699,000003BC,false,Rx,0,8,7E,7E,14,6A,00,5F,00,00,
-1693295586547630,000003BD,false,Rx,0,8,14,04,0D,00,00,00,00,00,
-1693295586537690,000003BE,false,Rx,0,8,00,00,00,80,00,00,00,00,
-1693295586477576,000003B8,false,Rx,0,8,00,02,01,00,02,00,1D,12,
-1693295586467763,000003BA,false,Rx,0,8,7E,7E,35,2D,37,37,00,00,
-1693295586457737,000003BC,false,Rx,0,8,7E,7E,14,6A,00,5F,00,00,
-1693295586447711,000003BD,false,Rx,0,8,14,04,0D,00,00,00,00,00,
-1693295586437472,000003BE,false,Rx,0,8,00,00,00,80,00,00,00,00,
-1693295586377700,000003B8,false,Rx,0,8,00,02,01,00,02,00,1D,12,
-1693295586367716,000003BA,false,Rx,0,8,7E,7E,35,2D,37,37,00,00,
-1693295586357050,000003BC,false,Rx,0,8,7E,7E,14,6A,00,5F,00,00,
-1693295586347664,000003BD,false,Rx,0,8,14,04,0D,00,00,00,00,00,
-1693295586337724,000003BE,false,Rx,0,8,00,00,00,80,00,00,00,00,
-1693295586277866,000003B8,false,Rx,0,8,00,02,01,00,02,00,1D,12,
-1693295586267883,000003BA,false,Rx,0,8,7E,7E,35,2D,37,37,00,00,
-1693295586257814,000003BC,false,Rx,0,8,7E,7E,14,6A,00,5F,00,00,
-1693295586247788,000003BD,false,Rx,0,8,14,04,0D,00,00,00,00,00,
-1693295586237847,000003BE,false,Rx,0,8,00,00,00,80,00,00,00,00,
-1693295586177392,000003B8,false,Rx,0,8,00,02,01,00,02,00,1D,12,
-1693295586168049,000003BA,false,Rx,0,8,7E,7E,35,2D,37,37,00,00,
-1693295586157937,000003BC,false,Rx,0,8,7E,7E,14,6A,00,5F,00,00,
-1693295586148125,000003BD,false,Rx,0,8,14,04,0D,00,00,00,00,00,
-1693295586137971,000003BE,false,Rx,0,8,00,00,00,80,00,00,00,00,
-1693295586078070,000003B8,false,Rx,0,8,00,02,01,00,02,00,1D,12,
-1693295586068087,000003BA,false,Rx,0,8,7E,7F,35,2D,37,37,00,00,
-1693295586058146,000003BC,false,Rx,0,8,7E,7F,14,6A,00,5F,00,00,
-1693295586048163,000003BD,false,Rx,0,8,14,04,0D,00,00,00,00,00,
-1693295586038200,000003BE,false,Rx,0,8,00,00,00,80,00,00,00,00,
-1693295585978087,000003B8,false,Rx,0,8,00,02,01,00,02,00,1D,12,
-1693295585968317,000003BA,false,Rx,0,8,7E,7E,35,2D,37,37,00,00,
-1693295585958163,000003BC,false,Rx,0,8,7E,7E,14,6A,00,5F,00,00,
-1693295585947923,000003BD,false,Rx,0,8,14,04,0D,00,00,00,00,00,
-1693295585938196,000003BE,false,Rx,0,8,00,00,00,80,00,00,00,00,
-1693295585878210,000003B8,false,Rx,0,8,00,02,01,00,02,00,1D,12,
-1693295585867928,000003BA,false,Rx,0,8,7E,7E,36,2D,37,38,00,00,
-1693295585858414,000003BC,false,Rx,0,8,7E,7E,14,6A,00,5F,00,00,
-1693295585848473,000003BD,false,Rx,0,8,14,04,0D,00,00,00,00,00,
-1693295585838490,000003BE,false,Rx,0,8,00,00,00,80,00,00,00,00,
-1693295585778505,000003B8,false,Rx,0,8,00,02,01,00,02,00,1D,12,
-1693295585768436,000003BA,false,Rx,0,8,7E,7E,36,2D,37,38,00,00,
-1693295585758623,000003BC,false,Rx,0,8,7E,7E,14,6A,00,5F,00,00,
-1693295585748512,000003BD,false,Rx,0,8,14,04,0D,00,00,00,00,00,
-1693295585738614,000003BE,false,Rx,0,8,00,00,00,80,00,00,00,00,
-1693295585678585,000003B8,false,Rx,0,8,00,02,01,00,02,00,1D,12,
-1693295585668687,000003BA,false,Rx,0,8,7E,7E,36,2E,38,38,00,00,
-1693295585658619,000003BC,false,Rx,0,8,7E,7E,14,6A,00,5F,00,00,
-1693295585648763,000003BD,false,Rx,0,8,14,04,0D,00,00,00,00,00,
-1693295585638268,000003BE,false,Rx,0,8,00,00,00,80,00,00,00,00,
-1693295585578752,000003B8,false,Rx,0,8,00,02,01,00,02,00,1D,12,
-1693295585568683,000003BA,false,Rx,0,8,7E,7E,36,2E,38,38,00,00,
-1693295585558188,000003BC,false,Rx,0,8,7E,7E,14,6A,00,5F,00,00,
-1693295585548887,000003BD,false,Rx,0,8,14,04,0D,00,00,00,00,00,
-1693295585538776,000003BE,false,Rx,0,8,00,00,00,80,00,00,00,00,
-1693295585478705,000003B8,false,Rx,0,8,00,02,01,00,02,00,1D,12,
-1693295585468892,000003BA,false,Rx,0,8,7E,7E,36,2E,38,38,00,00,
-1693295585458653,000003BC,false,Rx,0,8,7E,7E,14,6A,00,5F,00,00,
-1693295585448882,000003BD,false,Rx,0,8,14,04,0D,00,00,00,00,00,
-1693295585438984,000003BE,false,Rx,0,8,00,00,00,80,00,00,00,00,
-1693295585378402,000003B8,false,Rx,0,8,00,02,01,00,02,00,1D,12,
-1693295585369101,000003BA,false,Rx,0,8,7E,7F,36,2E,38,38,00,00,
-1693295585358989,000003BC,false,Rx,0,8,7E,7F,14,6A,00,5F,00,00,
-1693295585349006,000003BD,false,Rx,0,8,14,04,0D,00,00,00,00,00,
-1693295585339108,000003BE,false,Rx,0,8,00,00,00,80,00,00,00,00,
-1693295585278952,000003B8,false,Rx,0,8,00,02,01,00,02,00,1D,12,
-1693295585269139,000003BA,false,Rx,0,8,7E,7E,36,2E,38,38,00,00,
-1693295585259113,000003BC,false,Rx,0,8,7E,7E,14,6A,00,5F,00,00,
-1693295585248490,000003BD,false,Rx,0,8,14,04,0D,00,00,00,00,00,
-1693295585239232,000003BE,false,Rx,0,8,00,00,00,80,00,00,00,00,
-1693295585179289,000003B8,false,Rx,0,8,00,02,01,00,02,00,1D,12,
-1693295585169305,000003BA,false,Rx,0,8,7E,7E,36,2E,38,38,00,00,
-1693295585159279,000003BC,false,Rx,0,8,7E,7E,14,6A,00,5F,00,00,
-1693295585149253,000003BD,false,Rx,0,8,14,04,0D,00,00,00,00,00,
-1693295585139270,000003BE,false,Rx,0,8,00,00,00,80,00,00,00,00,
-1693295585079284,000003B8,false,Rx,0,8,00,02,01,00,02,00,1D,12,
-1693295585068917,000003BA,false,Rx,0,8,7E,7F,36,2E,38,38,00,00,
-1693295585059488,000003BC,false,Rx,0,8,7E,7F,14,6A,00,5F,00,00,
-1693295585049419,000003BD,false,Rx,0,8,14,04,0D,00,00,00,00,00,
-1693295585039463,000003BE,false,Rx,0,8,00,00,00,80,00,00,00,00,
-1693295584979477,000003B8,false,Rx,0,8,00,02,01,00,02,00,1D,12,
-1693295584969451,000003BA,false,Rx,0,8,7E,7E,36,2E,38,38,00,00,
-1693295584959596,000003BC,false,Rx,0,8,7E,7E,14,6A,00,5F,00,00,
-1693295584949570,000003BD,false,Rx,0,8,14,04,0D,00,00,00,00,00,
-1693295584938861,000003BE,false,Rx,0,8,00,00,00,80,00,00,00,00,
-1693295584879643,000003B8,false,Rx,0,8,00,02,01,00,02,00,1D,12,
-1693295584869660,000003BA,false,Rx,0,8,7E,7F,36,2E,38,38,00,00,
-1693295584859805,000003BC,false,Rx,0,8,7E,7F,14,6A,00,5F,00,00,
-1693295584849736,000003BD,false,Rx,0,8,14,04,0D,00,00,00,00,00,
-1693295584839283,000003BE,false,Rx,0,8,00,00,00,80,00,00,00,00,
-1693295584779724,000003B8,false,Rx,0,8,00,02,01,00,02,00,1D,12,
-1693295584769869,000003BA,false,Rx,0,8,7E,7F,36,2E,38,38,00,00,
-1693295584759886,000003BC,false,Rx,0,8,7E,7F,14,6A,00,5F,00,00,
-1693295584749945,000003BD,false,Rx,0,8,14,04,0D,00,00,00,00,00,
-1693295584739663,000003BE,false,Rx,0,8,00,00,00,80,00,00,00,00,
-1693295584679805,000003B8,false,Rx,0,8,00,02,01,00,02,00,1D,12,
-1693295584669950,000003BA,false,Rx,0,8,7E,7E,36,2E,38,38,00,00,
-1693295584659966,000003BC,false,Rx,0,8,7E,7E,14,6A,00,5F,00,00,
-1693295584649855,000003BD,false,Rx,0,8,14,04,0D,00,00,00,00,00,
-1693295584639744,000003BE,false,Rx,0,8,00,00,00,80,00,00,00,00,
-1693295584579971,000003B8,false,Rx,0,8,00,02,01,00,02,00,1D,12,
-1693295584569945,000003BA,false,Rx,0,8,7E,7E,36,2E,38,38,00,00,
-1693295584559578,000003BC,false,Rx,0,8,7E,7E,14,6A,00,5F,00,00,
-1693295584550149,000003BD,false,Rx,0,8,14,04,0D,00,00,00,00,00,
-1693295584540081,000003BE,false,Rx,0,8,00,00,00,80,00,00,00,00,
-1693295584480052,000003B8,false,Rx,0,8,00,02,01,00,02,00,1D,12,
-1693295584470197,000003BA,false,Rx,0,8,7E,7F,37,2E,38,38,00,00,
-1693295584459872,000003BC,false,Rx,0,8,7E,7F,14,6A,00,5F,00,00,
-1693295584450230,000003BD,false,Rx,0,8,14,04,0D,00,00,00,00,00,
-1693295584440204,000003BE,false,Rx,0,8,00,00,00,80,00,00,00,00,
-1693295584380261,000003B8,false,Rx,0,8,00,02,01,00,02,00,1D,12,
-1693295584370363,000003BA,false,Rx,0,8,7E,7F,37,2E,38,38,00,00,
-1693295584360081,000003BC,false,Rx,0,8,7E,7F,14,67,00,5F,00,00,
-1693295584350396,000003BD,false,Rx,0,8,14,04,0D,00,00,00,00,00,
-1693295584340370,000003BE,false,Rx,0,8,00,00,00,80,00,00,00,00,
-1693295584279830,000003B8,false,Rx,0,8,00,02,01,00,02,00,1D,12,
-1693295584270401,000003BA,false,Rx,0,8,7E,7E,37,2E,38,38,00,00,
-1693295584260375,000003BC,false,Rx,0,8,7E,7E,14,67,00,5F,00,00,
-1693295584250477,000003BD,false,Rx,0,8,14,04,0D,00,00,00,00,00,
-1693295584240366,000003BE,false,Rx,0,8,00,00,00,80,00,00,00,00,
-1693295584180167,000003B8,false,Rx,0,8,00,02,01,00,02,00,1D,12,
-1693295584170482,000003BA,false,Rx,0,8,7E,7E,37,2E,38,38,00,00,
-1693295584160499,000003BC,false,Rx,0,8,7E,7E,14,67,00,5F,00,00,
-1693295584150516,000003BD,false,Rx,0,8,14,04,0D,00,00,00,00,00,
-1693295584140447,000003BE,false,Rx,0,8,00,00,00,80,00,00,00,00,
-1693295584080419,000003B8,false,Rx,0,8,00,02,01,00,02,00,1D,12,
-1693295584070649,000003BA,false,Rx,0,8,7E,7F,37,2E,38,38,00,00,
-1693295584060708,000003BC,false,Rx,0,8,7E,7F,14,5A,00,5F,00,00,
-1693295584050597,000003BD,false,Rx,0,8,14,04,0D,00,00,00,00,00,
-1693295584040691,000003BE,false,Rx,0,8,00,00,00,80,00,00,00,00,
-1693295583980663,000003B8,false,Rx,0,8,00,02,01,00,02,00,1D,12,
-1693295583970765,000003BA,false,Rx,0,8,7E,7F,37,2E,38,38,00,00,
-1693295583960611,000003BC,false,Rx,0,8,7E,7F,14,5A,00,5F,00,00,
-1693295583949988,000003BD,false,Rx,0,8,14,04,0D,00,00,00,00,00,
-1693295583940730,000003BE,false,Rx,0,8,00,00,00,80,00,00,00,00,
-1693295583880787,000003B8,false,Rx,0,8,00,02,01,00,02,00,1D,12,
-1693295583870889,000003BA,false,Rx,0,8,7E,7E,37,2E,38,38,00,00,
-1693295583860863,000003BC,false,Rx,0,8,7E,7E,14,5A,00,5F,00,00,
-1693295583850453,000003BD,false,Rx,0,8,14,04,0D,00,00,00,00,00,
-1693295583840768,000003BE,false,Rx,0,8,00,00,00,80,00,00,00,00,
-1693295583780953,000003B8,false,Rx,0,8,00,02,01,00,02,00,1D,12,
-1693295583770884,000003BA,false,Rx,0,8,7E,7E,37,2E,38,38,00,00,
-1693295583760986,000003BC,false,Rx,0,8,7E,7E,14,53,00,5F,00,00,
-1693295583750790,000003BD,false,Rx,0,8,14,04,0D,00,00,00,00,00,
-1693295583740934,000003BE,false,Rx,0,8,00,00,00,80,00,00,00,00,
-1693295583680949,000003B8,false,Rx,0,8,00,02,01,00,02,00,1D,12,
-1693295583670283,000003BA,false,Rx,0,8,7E,7E,37,2E,38,38,00,00,
-1693295583661025,000003BC,false,Rx,0,8,7E,7E,14,53,00,5F,00,00,
-1693295583650956,000003BD,false,Rx,0,8,14,04,0D,00,00,00,00,00,
-1693295583640972,000003BE,false,Rx,0,8,00,00,00,80,00,00,00,00,
-1693295583580944,000003B8,false,Rx,0,8,00,02,01,00,02,00,1D,12,
-1693295583570492,000003BA,false,Rx,0,8,7E,7E,37,2E,38,38,00,00,
-1693295583561063,000003BC,false,Rx,0,8,7E,7E,14,53,00,5F,00,00,
-1693295583551207,000003BD,false,Rx,0,8,14,04,0D,00,00,00,00,00,
-1693295583541181,000003BE,false,Rx,0,8,00,00,00,80,00,00,00,00,
-1693295583480982,000003B8,false,Rx,0,8,00,02,01,00,02,00,1D,12,
-1693295583470914,000003BA,false,Rx,0,8,7E,7F,37,2E,38,38,00,00,
-1693295583461058,000003BC,false,Rx,0,8,7E,7F,14,53,00,5F,00,00,
-1693295583451075,000003BD,false,Rx,0,8,14,04,0D,00,00,00,00,00,
-1693295583441177,000003BE,false,Rx,0,8,00,00,00,80,00,00,00,00,
-1693295583381063,000003B8,false,Rx,0,8,00,02,01,00,02,00,1D,12,
-1693295583371208,000003BA,false,Rx,0,8,7E,7E,37,2E,38,38,00,00,
-1693295583361353,000003BC,false,Rx,0,8,7E,7E,14,53,00,5F,00,00,
-1693295583351369,000003BD,false,Rx,0,8,14,04,0D,00,00,00,00,00,
-1693295583340618,000003BE,false,Rx,0,8,00,00,00,80,00,00,00,00,
-1693295583281315,000003B8,false,Rx,0,8,00,02,01,00,02,00,1D,12,
-1693295583271417,000003BA,false,Rx,0,8,7E,7E,37,2E,38,38,00,00,
-1693295583261434,000003BC,false,Rx,0,8,7E,7E,14,53,00,5F,00,00,
-1693295583251365,000003BD,false,Rx,0,8,14,04,0D,00,00,00,00,00,
-1693295583240784,000003BE,false,Rx,0,8,00,00,00,80,00,00,00,00,
-1693295583181481,000003B8,false,Rx,0,8,00,02,01,00,02,00,1D,12,
-1693295583171583,000003BA,false,Rx,0,8,7E,7E,37,2E,38,38,00,00,
-1693295583161557,000003BC,false,Rx,0,8,7E,7E,14,53,00,5F,00,00,
-1693295583151574,000003BD,false,Rx,0,8,14,04,0D,00,00,00,00,00,
-1693295583141420,000003BE,false,Rx,0,8,00,00,00,80,00,00,00,00,
-1693295583081605,000003B8,false,Rx,0,8,00,02,01,00,02,00,1D,12,
-1693295583071749,000003BA,false,Rx,0,8,7E,7E,37,2E,38,38,00,00,
-1693295583061723,000003BC,false,Rx,0,8,7E,7E,14,53,00,5F,00,00,
-1693295583051612,000003BD,false,Rx,0,8,14,04,0D,00,00,00,00,00,
-1693295583041503,000003BE,false,Rx,0,8,00,00,00,80,00,00,00,00,
-1693295582981602,000003B8,false,Rx,0,8,00,02,01,00,02,00,1D,12,
-1693295582971704,000003BA,false,Rx,0,8,7E,7F,37,2E,38,38,00,00,
-1693295582961209,000003BC,false,Rx,0,8,7E,7F,14,53,00,5F,00,00,
-1693295582951738,000003BD,false,Rx,0,8,14,04,0D,00,00,00,00,00,
-1693295582941711,000003BE,false,Rx,0,8,00,00,00,80,00,00,00,00,
-1693295582881811,000003B8,false,Rx,0,8,00,02,01,00,02,00,1D,12,
-1693295582871871,000003BA,false,Rx,0,8,7E,7E,37,2E,38,38,00,00,
-1693295582861375,000003BC,false,Rx,0,8,7E,7E,14,53,00,5F,00,00,
-1693295582851861,000003BD,false,Rx,0,8,14,04,0D,00,00,00,00,00,
-1693295582841920,000003BE,false,Rx,0,8,00,00,00,80,00,00,00,00,
-1693295582781892,000003B8,false,Rx,0,8,00,02,01,00,02,00,1D,12,
-1693295582771951,000003BA,false,Rx,0,8,7E,7E,37,2E,38,38,00,00,
-1693295582761627,000003BC,false,Rx,0,8,7E,7E,14,53,00,5F,00,00,
-1693295582751942,000003BD,false,Rx,0,8,14,04,0D,00,00,00,00,00,
-1693295582742001,000003BE,false,Rx,0,8,00,00,00,80,00,00,00,00,
-1693295582681376,000003B8,false,Rx,0,8,00,02,01,00,02,00,1D,12,
-1693295582671990,000003BA,false,Rx,0,8,7E,7F,37,2E,38,38,00,00,
-1693295582662049,000003BC,false,Rx,0,8,7E,7F,14,53,00,5F,00,00,
-1693295582652066,000003BD,false,Rx,0,8,14,04,0D,00,00,00,00,00,
-1693295582641954,000003BE,false,Rx,0,8,00,00,00,80,00,00,00,00,
-1693295582581755,000003B8,false,Rx,0,8,00,02,01,00,02,00,1D,12,
-1693295582572284,000003BA,false,Rx,0,8,7E,7E,37,2E,38,38,00,00,
-1693295582562301,000003BC,false,Rx,0,8,7E,7E,14,53,00,5F,00,00,
-1693295582552232,000003BD,false,Rx,0,8,14,04,0D,00,00,00,00,00,
-1693295582542291,000003BE,false,Rx,0,8,00,00,00,80,00,00,00,00,
-1693295582481922,000003B8,false,Rx,0,8,00,02,01,00,02,00,1D,12,
-1693295582472407,000003BA,false,Rx,0,8,7E,7F,37,2E,38,38,00,00,
-1693295582462296,000003BC,false,Rx,0,8,7E,7F,14,53,00,5F,00,00,
-1693295582452313,000003BD,false,Rx,0,8,14,04,0D,00,00,00,00,00,
-1693295582442372,000003BE,false,Rx,0,8,00,00,00,80,00,00,00,00,
-1693295582382216,000003B8,false,Rx,0,8,00,02,01,00,02,00,1D,12,
-1693295582372488,000003BA,false,Rx,0,8,7E,7E,37,2E,38,38,00,00,
-1693295582362377,000003BC,false,Rx,0,8,7E,7E,14,53,00,5F,00,00,
-1693295582351711,000003BD,false,Rx,0,8,14,04,0D,00,00,00,00,00,
-1693295582342453,000003BE,false,Rx,0,8,00,00,00,80,00,00,00,00,
-1693295582282553,000003B8,false,Rx,0,8,00,02,01,00,02,00,1D,12,
-1693295582272527,000003BA,false,Rx,0,8,7E,7F,37,2E,38,38,00,00,
-1693295582262671,000003BC,false,Rx,0,8,7E,7F,14,53,00,5F,00,00,
-1693295582252005,000003BD,false,Rx,0,8,14,04,0D,00,00,00,00,00,
-1693295582242534,000003BE,false,Rx,0,8,00,00,00,80,00,00,00,00,
-1693295582182634,000003B8,false,Rx,0,8,00,02,01,00,02,00,1D,12,
-1693295582172693,000003BA,false,Rx,0,8,7E,7F,37,2E,38,38,00,00,
-1693295582162667,000003BC,false,Rx,0,8,7E,7F,14,53,00,5F,00,00,
-1693295582152385,000003BD,false,Rx,0,8,14,04,0D,00,00,00,00,00,
-1693295582142700,000003BE,false,Rx,0,8,00,00,00,80,00,00,00,00,
-1693295582082501,000003B8,false,Rx,0,8,00,03,2B,00,02,00,1D,12,
-1693295582072688,000003BA,false,Rx,0,8,7E,7F,37,2E,38,38,00,00,
-1693295582062620,000003BC,false,Rx,0,8,7E,7F,17,ED,10,FB,00,00,
-1693295582052722,000003BD,false,Rx,0,8,14,04,0D,00,00,00,00,00,
-1693295582042796,000003BE,false,Rx,0,8,00,00,00,80,00,00,00,00,
-1693295581982767,000003B8,false,Rx,0,8,00,03,2B,00,02,00,1D,12,
-1693295581972357,000003BA,false,Rx,0,8,7E,7F,37,2E,38,39,00,00,
-1693295581962886,000003BC,false,Rx,0,8,7E,7F,17,ED,10,FB,00,00,
-1693295581952817,000003BD,false,Rx,0,8,14,04,0D,00,00,00,00,00,
-1693295581942962,000003BE,false,Rx,0,8,00,00,00,80,00,00,00,00,
-1693295581882806,000003B8,false,Rx,0,8,00,03,2B,00,02,00,1D,12,
-1693295581872566,000003BA,false,Rx,0,8,7E,7F,37,2E,38,39,00,00,
-1693295581862924,000003BC,false,Rx,0,8,7E,7F,17,ED,10,FB,00,00,
-1693295581853069,000003BD,false,Rx,0,8,14,04,0D,00,00,00,00,00,
-1693295581843000,000003BE,false,Rx,0,8,00,00,00,80,00,00,00,00,
-1693295581783057,000003B8,false,Rx,0,8,00,03,60,00,02,00,1D,12,
-1693295581773031,000003BA,false,Rx,0,8,7E,7F,37,2E,38,39,00,00,
-1693295581763048,000003BC,false,Rx,0,8,7E,7F,2F,23,25,A0,00,00,
-1693295581753150,000003BD,false,Rx,0,8,14,04,0D,00,00,00,00,00,
-1693295581742441,000003BE,false,Rx,0,8,00,00,00,80,00,00,00,00,
-1693295581683181,000003B8,false,Rx,0,8,00,03,60,00,02,00,1D,12,
-1693295581673197,000003BA,false,Rx,0,8,7E,7F,37,2E,38,38,00,00,
-1693295581663214,000003BC,false,Rx,0,8,7E,7F,2F,23,25,A0,00,00,
-1693295581652676,000003BD,false,Rx,0,8,14,04,0D,00,00,00,00,00,
-1693295581643290,000003BE,false,Rx,0,8,00,00,00,80,00,00,00,00,
-1693295581583262,000003B8,false,Rx,0,8,00,03,60,00,02,00,1D,12,
-1693295581573278,000003BA,false,Rx,0,8,7E,7F,37,2E,38,38,00,00,
-1693295581563295,000003BC,false,Rx,0,8,7E,7F,2F,23,25,A0,00,00,
-1693295581553312,000003BD,false,Rx,0,8,14,04,0D,00,00,00,00,00,
-1693295581543286,000003BE,false,Rx,0,8,00,00,00,80,00,00,00,00,
-1693295581483343,000003B8,false,Rx,0,8,00,02,6D,00,02,00,1D,12,
-1693295581473445,000003BA,false,Rx,0,8,7E,7F,37,2E,38,38,00,00,
-1693295581463504,000003BC,false,Rx,0,8,7E,7F,35,69,2A,7D,00,00,
-1693295581453435,000003BD,false,Rx,0,8,14,04,0D,00,00,00,00,00,
-1693295581443452,000003BE,false,Rx,0,8,00,00,00,80,00,00,00,00,
-1693295581383466,000003B8,false,Rx,0,8,00,02,6D,00,02,00,1D,12,
-1693295581373270,000003BA,false,Rx,0,8,7E,7F,37,2E,38,38,00,00,
-1693295581363499,000003BC,false,Rx,0,8,7E,7F,35,69,2A,7D,00,00,
-1693295581353559,000003BD,false,Rx,0,8,14,04,0D,00,00,00,00,00,
-1693295581343191,000003BE,false,Rx,0,8,00,00,00,80,00,00,00,00,
-1693295581283632,000003B8,false,Rx,0,8,00,02,6D,00,02,00,1D,12,
-1693295581273734,000003BA,false,Rx,0,8,7E,7F,37,2E,38,38,00,00,
-1693295581263538,000003BC,false,Rx,0,8,7E,7F,39,5B,2B,CB,00,00,
-1693295581253597,000003BD,false,Rx,0,8,14,04,0D,00,00,00,00,00,
-1693295581243656,000003BE,false,Rx,0,8,00,00,00,80,00,00,00,00,
-1693295581183415,000003B8,false,Rx,0,8,00,02,70,00,02,00,1D,12,
-1693295581173602,000003BA,false,Rx,0,8,7E,7F,37,2E,38,38,00,00,
-1693295581163661,000003BC,false,Rx,0,8,7E,7F,39,5B,2B,CB,00,00,
-1693295581153337,000003BD,false,Rx,0,8,14,04,0D,00,00,00,00,00,
-1693295581143780,000003BE,false,Rx,0,8,00,00,00,80,00,00,00,00,
-1693295581083752,000003B8,false,Rx,0,8,00,02,70,00,02,00,1D,12,
-1693295581073683,000003BA,false,Rx,0,8,7E,7F,37,2E,38,38,00,00,
-1693295581063614,000003BC,false,Rx,0,8,7E,7F,39,5B,2B,CB,00,00,
-1693295581053674,000003BD,false,Rx,0,8,14,04,0D,00,00,00,00,00,
-1693295581043617,000003BE,false,Rx,0,8,00,00,00,80,00,00,00,00,
-1693295580983675,000003B8,false,Rx,0,8,00,02,72,00,02,00,20,12,
-1693295580973777,000003BA,false,Rx,0,8,7E,7F,37,2E,38,38,00,00,
-1693295580963366,000003BC,false,Rx,0,8,7E,7F,3B,B3,2C,63,00,00,
-1693295580953852,000003BD,false,Rx,0,8,14,04,0D,00,00,00,00,00,
-1693295580943698,000003BE,false,Rx,0,8,00,00,00,80,00,00,00,00,
-1693295580883670,000003B8,false,Rx,0,8,00,02,72,00,02,00,20,12,
-1693295580873729,000003BA,false,Rx,0,8,7F,7F,37,2E,38,38,00,00,
-1693295580863746,000003BC,false,Rx,0,8,7F,7F,3B,B3,2C,63,00,00,
-1693295580853763,000003BD,false,Rx,0,8,14,04,0D,00,00,00,00,00,
-1693295580843737,000003BE,false,Rx,0,8,00,00,00,80,00,00,00,00,
-1693295580783922,000003B8,false,Rx,0,8,00,02,72,00,02,00,20,12,
-1693295580773384,000003BA,false,Rx,0,8,7E,7F,37,2E,38,38,00,00,
-1693295580763998,000003BC,false,Rx,0,8,7E,7F,3B,B3,2C,63,00,00,
-1693295580754014,000003BD,false,Rx,0,8,14,04,0D,00,00,00,00,00,
-1693295580743647,000003BE,false,Rx,0,8,00,00,00,80,00,00,00,00,
-1693295580683875,000003B8,false,Rx,0,8,00,07,37,00,02,00,20,A2,
-1693295580674105,000003BA,false,Rx,0,8,7F,7F,37,2E,38,38,00,00,
-1693295580664036,000003BC,false,Rx,0,8,7F,7F,45,ED,15,9C,00,00,
-1693295580654052,000003BD,false,Rx,0,8,14,04,0D,00,00,00,00,00,
-1693295580644069,000003BE,false,Rx,0,8,00,00,00,80,00,00,00,00,
-1693295580584041,000003B8,false,Rx,0,8,00,07,37,00,02,00,20,A2,
-1693295580574228,000003BA,false,Rx,0,8,7E,7F,37,2E,38,38,00,00,
-1693295580564202,000003BC,false,Rx,0,8,7E,7F,45,ED,15,9C,00,00,
-1693295580554261,000003BD,false,Rx,0,8,14,04,0D,00,00,00,00,00,
-1693295580544193,000003BE,false,Rx,0,8,00,00,00,80,00,00,00,00,
-1693295580484292,000003B8,false,Rx,0,8,00,07,37,00,02,00,2A,A2,
-1693295580474309,000003BA,false,Rx,0,8,7E,7F,37,2E,38,38,00,00,
-1693295580464411,000003BC,false,Rx,0,8,7E,7F,45,ED,15,9C,00,00,
-1693295580454385,000003BD,false,Rx,0,8,14,04,0D,00,00,00,00,00,
-1693295580444316,000003BE,false,Rx,0,8,00,00,00,80,00,00,00,00,
-1693295580384373,000003B8,false,Rx,0,8,00,0F,54,00,02,00,2A,A2,
-1693295580374475,000003BA,false,Rx,0,8,7F,7F,37,2E,38,38,00,00,
-1693295580364577,000003BC,false,Rx,0,8,7F,7F,53,3E,21,00,00,00,
-1693295580354594,000003BD,false,Rx,0,8,14,04,0D,00,00,00,00,00,
-1693295580344610,000003BE,false,Rx,0,8,00,00,00,80,00,00,00,00,
-1693295580283857,000003B8,false,Rx,0,8,00,0F,54,00,02,00,2A,A2,
-1693295580274684,000003BA,false,Rx,0,8,7E,7F,37,2E,38,38,00,00,
-1693295580264701,000003BC,false,Rx,0,8,7E,7F,53,3E,21,00,00,00,
-1693295580254077,000003BD,false,Rx,0,8,14,04,0D,00,00,00,00,00,
-1693295580244606,000003BE,false,Rx,0,8,00,00,00,80,00,00,00,00,
-1693295580184493,000003B8,false,Rx,0,8,00,0F,54,00,02,00,2E,A2,
-1693295580174765,000003BA,false,Rx,0,8,7E,7F,37,2E,38,38,00,00,
-1693295580164355,000003BC,false,Rx,0,8,7E,7F,53,3E,21,00,00,00,
-1693295580154756,000003BD,false,Rx,0,8,14,04,0D,00,00,00,00,00,
-1693295580144730,000003BE,false,Rx,0,8,00,00,00,80,00,00,00,00,
-1693295580084787,000003B8,false,Rx,0,8,00,0A,6F,00,02,00,2E,A2,
-1693295580074803,000003BA,false,Rx,0,8,7E,7F,37,2E,38,38,00,00,
-1693295580064820,000003BC,false,Rx,0,8,7E,7F,52,6D,2B,52,00,00,
-1693295580054751,000003BD,false,Rx,0,8,14,04,0D,00,00,00,00,00,
-1693295580044653,000003BE,false,Rx,0,8,00,00,00,80,00,00,00,00,
-1693295579984880,000003B8,false,Rx,0,8,00,0A,6F,00,02,00,2E,A2,
-1693295579975025,000003BA,false,Rx,0,8,7E,7F,37,2E,38,38,00,00,
-1693295579964956,000003BC,false,Rx,0,8,7E,7F,52,6D,2B,52,00,00,
-1693295579954802,000003BD,false,Rx,0,8,14,04,0D,00,00,00,00,00,
-1693295579944904,000003BE,false,Rx,0,8,00,00,00,80,00,00,00,00,
-1693295579884919,000003B8,false,Rx,0,8,00,0A,6F,00,02,00,2F,A2,
-1693295579875063,000003BA,false,Rx,0,8,7E,7F,37,2E,38,38,00,00,
-1693295579864994,000003BC,false,Rx,0,8,7E,7F,50,4F,2C,A0,00,00,
-1693295579855139,000003BD,false,Rx,0,8,14,04,0D,00,00,00,00,00,
-1693295579845113,000003BE,false,Rx,0,8,00,00,00,80,00,00,00,00,
-1693295579785085,000003B8,false,Rx,0,8,00,06,72,00,02,00,2F,A2,
-1693295579775187,000003BA,false,Rx,0,8,7E,7F,37,2E,38,38,00,00,
-1693295579764990,000003BC,false,Rx,0,8,7E,7F,50,4F,2C,A0,00,00,
-1693295579755092,000003BD,false,Rx,0,8,14,04,0D,00,00,00,00,00,
-1693295579744981,000003BE,false,Rx,0,8,00,00,00,80,00,00,00,00,
-1693295579685123,000003B8,false,Rx,0,8,00,06,72,00,02,00,2F,A2,
-1693295579674542,000003BA,false,Rx,0,8,7E,7F,37,2E,38,38,00,00,
-1693295579665071,000003BC,false,Rx,0,8,7E,7F,50,4F,2C,A0,00,00,
-1693295579655173,000003BD,false,Rx,0,8,14,04,0D,00,00,00,00,00,
-1693295579644550,000003BE,false,Rx,0,8,00,00,00,80,00,00,00,00,
-1693295579584863,000003B8,false,Rx,0,8,00,06,72,00,02,00,34,A2,
-1693295579575178,000003BA,false,Rx,0,8,7E,7F,37,2E,38,38,00,00,
-1693295579565195,000003BC,false,Rx,0,8,7E,7F,4F,F8,2C,82,00,00,
-1693295579554913,000003BD,false,Rx,0,8,14,04,0D,00,00,00,00,00,
-1693295579545356,000003BE,false,Rx,0,8,00,00,00,80,00,00,00,00,
-1693295579485370,000003B8,false,Rx,0,8,00,04,72,00,02,00,34,A2,
-1693295579475387,000003BA,false,Rx,0,8,7F,7F,37,2E,38,38,00,00,
-1693295579465147,000003BC,false,Rx,0,8,7F,7F,4F,F8,2C,82,00,00,
-1693295579455420,000003BD,false,Rx,0,8,14,04,0D,00,00,00,00,00,
-1693295579445522,000003BE,false,Rx,0,8,00,00,00,80,00,00,00,00,
-1693295579385494,000003B8,false,Rx,0,8,00,04,72,00,02,00,34,A2,
-1693295579375510,000003BA,false,Rx,0,8,7E,7F,37,2E,38,38,00,00,
-1693295579365527,000003BC,false,Rx,0,8,7E,7F,4F,F8,2C,82,00,00,
-1693295579355544,000003BD,false,Rx,0,8,14,04,0D,00,00,00,00,00,
-1693295579345518,000003BE,false,Rx,0,8,00,00,00,80,00,00,00,00,
-1693295579285660,000003B8,false,Rx,0,8,00,03,72,00,02,00,34,A2,
-1693295579275719,000003BA,false,Rx,0,8,7E,7F,37,2E,38,38,00,00,
-1693295579265651,000003BC,false,Rx,0,8,7E,7F,50,2D,2C,A0,00,00,
-1693295579255667,000003BD,false,Rx,0,8,14,04,0D,00,00,00,00,00,
-1693295579245727,000003BE,false,Rx,0,8,00,00,00,80,00,00,00,00,
-1693295579185058,000003B8,false,Rx,0,8,00,03,72,00,02,00,34,A2,
-1693295579175843,000003BA,false,Rx,0,8,7E,7F,37,2E,38,38,00,00,
-1693295579165817,000003BC,false,Rx,0,8,7E,7F,50,2D,2C,A0,00,00,
-1693295579155236,000003BD,false,Rx,0,8,14,04,0D,00,00,00,00,00,
-1693295579145850,000003BE,false,Rx,0,8,00,00,00,80,00,00,00,00,
-1693295579085779,000003B8,false,Rx,0,8,00,03,72,00,02,00,35,A2,
-1693295579075966,000003BA,false,Rx,0,8,7E,7F,37,2E,38,38,00,00,
-1693295579065386,000003BC,false,Rx,0,8,7E,7F,50,2D,2C,A0,00,00,
-1693295579056000,000003BD,false,Rx,0,8,14,04,0D,00,00,00,00,00,
-1693295579045944,000003BE,false,Rx,0,8,00,00,00,80,00,00,00,00,
-1693295578986043,000003B8,false,Rx,0,8,00,02,72,00,02,00,35,A2,
-1693295578975633,000003BA,false,Rx,0,8,7F,7F,37,2E,38,38,00,00,
-1693295578966077,000003BC,false,Rx,0,8,7F,7F,50,2E,2C,A0,00,00,
-1693295578956093,000003BD,false,Rx,0,8,14,04,0D,00,00,00,00,00,
-1693295578945811,000003BE,false,Rx,0,8,00,00,00,80,00,00,00,00,
-1693295578885911,000003B8,false,Rx,0,8,00,02,72,00,02,00,35,A2,
-1693295578876184,000003BA,false,Rx,0,8,7F,7F,37,2E,38,38,00,00,
-1693295578866200,000003BC,false,Rx,0,8,7F,7F,50,2E,2C,A0,00,00,
-1693295578856217,000003BD,false,Rx,0,8,14,04,0D,00,00,00,00,00,
-1693295578846191,000003BE,false,Rx,0,8,00,00,00,80,00,00,00,00,
-1693295578786291,000003B8,false,Rx,0,8,00,02,72,00,02,00,39,A2,
-1693295578776350,000003BA,false,Rx,0,8,7F,7F,37,2E,38,38,00,00,
-1693295578766281,000003BC,false,Rx,0,8,7F,7F,50,2E,2C,A0,00,00,
-1693295578756298,000003BD,false,Rx,0,8,14,04,0D,00,00,00,00,00,
-1693295578746272,000003BE,false,Rx,0,8,00,00,00,80,00,00,00,00,
-1693295578686414,000003B8,false,Rx,0,8,00,02,73,00,02,00,39,A2,
-1693295578676431,000003BA,false,Rx,0,8,7F,7F,37,2E,38,38,00,00,
-1693295578666405,000003BC,false,Rx,0,8,7F,7F,50,2E,2C,BE,00,00,
-1693295578656379,000003BD,false,Rx,0,8,14,04,0D,00,00,00,00,00,
-1693295578646395,000003BE,false,Rx,0,8,00,00,00,80,00,00,00,00,
-1693295578586538,000003B8,false,Rx,0,8,00,02,73,00,02,00,39,A2,
-1693295578575957,000003BA,false,Rx,0,8,7F,7F,37,2E,38,38,00,00,
-1693295578566699,000003BC,false,Rx,0,8,7F,7F,50,2E,2C,BE,00,00,
-1693295578556588,000003BD,false,Rx,0,8,14,04,0D,00,00,00,00,00,
-1693295578545922,000003BE,false,Rx,0,8,00,00,00,80,00,00,00,00,
-1693295578486064,000003B8,false,Rx,0,8,00,02,73,00,02,00,39,A2,
-1693295578476678,000003BA,false,Rx,0,8,7F,7F,37,2E,38,38,00,00,
-1693295578466737,000003BC,false,Rx,0,8,7F,7F,50,2E,2C,BE,00,00,
-1693295578456029,000003BD,false,Rx,0,8,14,04,0D,00,00,00,00,00,
-1693295578446728,000003BE,false,Rx,0,8,00,00,00,80,00,00,00,00,
-1693295578386828,000003B8,false,Rx,0,8,00,02,71,00,02,00,39,A2,
-1693295578376759,000003BA,false,Rx,0,8,7F,7F,37,2E,38,38,00,00,
-1693295578366306,000003BC,false,Rx,0,8,7F,7F,50,2D,2C,08,00,00,
-1693295578356877,000003BD,false,Rx,0,8,14,04,0D,00,00,00,00,00,
-1693295578346766,000003BE,false,Rx,0,8,00,00,00,80,00,00,00,00,
-1693295578286780,000003B8,false,Rx,0,8,00,02,71,00,02,00,39,A2,
-1693295578276712,000003BA,false,Rx,0,8,7F,7F,37,2E,38,38,00,00,
-1693295578266942,000003BC,false,Rx,0,8,7F,7F,50,2D,2C,08,00,00,
-1693295578256830,000003BD,false,Rx,0,8,14,04,0D,00,00,00,00,00,
-1693295578246719,000003BE,false,Rx,0,8,00,00,00,80,00,00,00,00,
-1693295578186904,000003B8,false,Rx,0,8,00,02,72,00,02,00,39,A2,
-1693295578177091,000003BA,false,Rx,0,8,7F,7F,37,2E,38,38,00,00,
-1693295578167065,000003BC,false,Rx,0,8,7F,7F,50,2E,2C,82,00,00,
-1693295578157082,000003BD,false,Rx,0,8,14,04,0D,00,00,00,00,00,
-1693295578147099,000003BE,false,Rx,0,8,00,00,00,80,00,00,00,00,
-1693295578087113,000003B8,false,Rx,0,8,00,02,72,00,02,00,39,A2,
-1693295578076959,000003BA,false,Rx,0,8,7F,7F,37,2E,38,38,00,00,
-1693295578066933,000003BC,false,Rx,0,8,7F,7F,50,2E,2C,82,00,00,
-1693295578056310,000003BD,false,Rx,0,8,14,04,0D,00,00,00,00,00,
-1693295578047064,000003BE,false,Rx,0,8,00,00,00,80,00,00,00,00,
-1693295577987036,000003B8,false,Rx,0,8,00,02,72,00,02,00,3E,A2,
-1693295577977095,000003BA,false,Rx,0,8,7F,7F,37,2E,38,38,00,00,
-1693295577966472,000003BC,false,Rx,0,8,7F,7F,50,2E,2C,82,00,00,
-1693295577957086,000003BD,false,Rx,0,8,14,04,0D,00,00,00,00,00,
-1693295577947060,000003BE,false,Rx,0,8,00,00,00,80,00,00,00,00,
-1693295577887159,000003B8,false,Rx,0,8,00,02,72,00,02,00,3E,A2,
-1693295577876920,000003BA,false,Rx,0,8,7F,7F,37,2E,38,38,00,00,
-1693295577867321,000003BC,false,Rx,0,8,7F,7F,50,30,2C,A0,00,00,
-1693295577857337,000003BD,false,Rx,0,8,14,04,0D,00,00,00,00,00,
-1693295577847098,000003BE,false,Rx,0,8,00,00,00,80,00,00,00,00,
-1693295577787070,000003B8,false,Rx,0,8,00,02,72,00,02,00,3E,A2,
-1693295577777342,000003BA,false,Rx,0,8,7F,7F,37,2E,38,38,00,00,
-1693295577767316,000003BC,false,Rx,0,8,7F,7F,50,30,2C,A0,00,00,
-1693295577757290,000003BD,false,Rx,0,8,14,04,0D,00,00,00,00,00,
-1693295577747307,000003BE,false,Rx,0,8,00,00,00,80,00,00,00,00,
-1693295577687321,000003B8,false,Rx,0,8,00,02,72,00,02,00,3E,A2,
-1693295577677509,000003BA,false,Rx,0,8,7F,7F,37,2E,38,38,00,00,
-1693295577667482,000003BC,false,Rx,0,8,7F,7F,50,30,2C,A0,00,00,
-1693295577657542,000003BD,false,Rx,0,8,14,04,0D,00,00,00,00,00,
-1693295577647601,000003BE,false,Rx,0,8,00,00,00,80,00,00,00,00,
-1693295577587615,000003B8,false,Rx,0,8,00,02,72,00,02,00,3E,A2,
-1693295577577589,000003BA,false,Rx,0,8,7F,7F,37,2E,38,38,00,00,
-1693295577567691,000003BC,false,Rx,0,8,7F,7F,50,31,2C,A0,00,00,
-1693295577557665,000003BD,false,Rx,0,8,14,04,0D,00,00,00,00,00,
-1693295577547639,000003BE,false,Rx,0,8,00,00,00,80,00,00,00,00,
-1693295577487568,000003B8,false,Rx,0,8,00,02,72,00,02,00,3E,A2,
-1693295577477201,000003BA,false,Rx,0,8,7F,7F,37,2E,38,38,00,00,
-1693295577467815,000003BC,false,Rx,0,8,7F,7F,50,31,2C,A0,00,00,
-1693295577457789,000003BD,false,Rx,0,8,14,04,0D,00,00,00,00,00,
-1693295577447336,000003BE,false,Rx,0,8,00,00,00,80,00,00,00,00,
-1693295577387393,000003B8,false,Rx,0,8,00,02,72,00,02,00,3E,A2,
-1693295577377837,000003BA,false,Rx,0,8,7F,7F,37,2E,38,38,00,00,
-1693295577367768,000003BC,false,Rx,0,8,7F,7F,50,31,2C,A0,00,00,
-1693295577357614,000003BD,false,Rx,0,8,14,04,0D,00,00,00,00,00,
-1693295577347801,000003BE,false,Rx,0,8,00,00,00,80,00,00,00,00,
-1693295577287858,000003B8,false,Rx,0,8,00,02,72,00,02,00,3E,A2,
-1693295577277918,000003BA,false,Rx,0,8,7F,7F,37,2E,38,38,00,00,
-1693295577267849,000003BC,false,Rx,0,8,7F,7F,50,31,2C,A0,00,00,
-1693295577257865,000003BD,false,Rx,0,8,14,04,0D,00,00,00,00,00,
-1693295577247967,000003BE,false,Rx,0,8,00,00,00,80,00,00,00,00,
-1693295577187896,000003B8,false,Rx,0,8,00,02,72,00,02,00,3E,A2,
-1693295577178084,000003BA,false,Rx,0,8,7F,7F,37,2E,38,38,00,00,
-1693295577168143,000003BC,false,Rx,0,8,7F,7F,50,31,2C,A0,00,00,
-1693295577158074,000003BD,false,Rx,0,8,14,04,0D,00,00,00,00,00,
-1693295577147963,000003BE,false,Rx,0,8,00,00,00,80,00,00,00,00,
-1693295577088105,000003B8,false,Rx,0,8,00,02,72,00,02,00,41,A2,
-1693295577077482,000003BA,false,Rx,0,8,7F,7F,37,2E,38,38,00,00,
-1693295577068181,000003BC,false,Rx,0,8,7F,7F,50,31,2C,A0,00,00,
-1693295577058070,000003BD,false,Rx,0,8,14,04,0D,00,00,00,00,00,
-1693295577047502,000003BE,false,Rx,0,8,00,00,00,80,00,00,00,00,
-1693295576987730,000003B8,false,Rx,0,8,00,02,72,00,02,00,41,A2,
-1693295576978173,000003BA,false,Rx,0,8,7F,7F,37,2E,38,38,00,00,
-1693295576968147,000003BC,false,Rx,0,8,7F,7F,50,32,2C,A0,00,00,
-1693295576957737,000003BD,false,Rx,0,8,14,04,0D,00,00,00,00,00,
-1693295576947881,000003BE,false,Rx,0,8,00,00,00,80,00,00,00,00,
-1693295576887853,000003B8,false,Rx,0,8,00,02,72,00,02,00,41,A2,
-1693295576878040,000003BA,false,Rx,0,8,7F,7F,37,2E,38,38,00,00,
-1693295576868014,000003BC,false,Rx,0,8,7F,7F,50,32,2C,A0,00,00,
-1693295576858116,000003BD,false,Rx,0,8,14,04,0D,00,00,00,00,00,
-1693295576848090,000003BE,false,Rx,0,8,00,00,00,80,00,00,00,00,
-1693295576788105,000003B8,false,Rx,0,8,00,02,72,00,02,00,43,A2,
-1693295576778036,000003BA,false,Rx,0,8,7F,7F,37,2E,38,38,00,00,
-1693295576768181,000003BC,false,Rx,0,8,7F,7F,50,31,2C,A0,00,00,
-1693295576758027,000003BD,false,Rx,0,8,14,04,0D,00,00,00,00,00,
-1693295576748086,000003BE,false,Rx,0,8,00,00,00,80,00,00,00,00,
-1693295576688228,000003B8,false,Rx,0,8,00,02,72,00,02,00,43,A2,
-1693295576677733,000003BA,false,Rx,0,8,7F,7F,37,2E,38,38,00,00,
-1693295576668219,000003BC,false,Rx,0,8,7F,7F,50,31,2C,A0,00,00,
-1693295576658321,000003BD,false,Rx,0,8,14,04,0D,00,00,00,00,00,
-1693295576647783,000003BE,false,Rx,0,8,00,00,00,80,00,00,00,00,
-1693295576587883,000003B8,false,Rx,0,8,00,02,72,00,02,00,43,A2,
-1693295576578411,000003BA,false,Rx,0,8,7F,7F,37,2E,38,38,00,00,
-1693295576568513,000003BC,false,Rx,0,8,7F,7F,50,31,2C,A0,00,00,
-1693295576558146,000003BD,false,Rx,0,8,14,04,0D,00,00,00,00,00,
-1693295576548418,000003BE,false,Rx,0,8,00,00,00,80,00,00,00,00,
-1693295576488476,000003B8,false,Rx,0,8,00,02,72,00,02,00,43,A2,
-1693295576478620,000003BA,false,Rx,0,8,7F,7F,37,2E,38,38,00,00,
-1693295576468423,000003BC,false,Rx,0,8,7F,7F,50,33,2C,A0,00,00,
-1693295576458653,000003BD,false,Rx,0,8,14,04,0D,00,00,00,00,00,
-1693295576448627,000003BE,false,Rx,0,8,00,00,00,80,00,00,00,00,
-1693295576388471,000003B8,false,Rx,0,8,00,02,72,00,02,00,43,A2,
-1693295576378616,000003BA,false,Rx,0,8,7F,7F,37,2E,38,38,00,00,
-1693295576368632,000003BC,false,Rx,0,8,7F,7F,50,33,2C,A0,00,00,
-1693295576358649,000003BD,false,Rx,0,8,14,04,0D,00,00,00,00,00,
-1693295576348623,000003BE,false,Rx,0,8,00,00,00,80,00,00,00,00,
-1693295576288680,000003B8,false,Rx,0,8,00,02,72,00,02,00,43,A2,
-1693295576278782,000003BA,false,Rx,0,8,7F,7F,37,2E,38,38,00,00,
-1693295576268713,000003BC,false,Rx,0,8,7F,7F,50,33,2C,A0,00,00,
-1693295576258730,000003BD,false,Rx,0,8,14,04,0D,00,00,00,00,00,
-1693295576248107,000003BE,false,Rx,0,8,00,00,00,80,00,00,00,00,
-1693295576188334,000003B8,false,Rx,0,8,00,02,72,00,02,00,43,A2,
-1693295576178991,000003BA,false,Rx,0,8,7F,7F,37,2E,38,38,00,00,
-1693295576168965,000003BC,false,Rx,0,8,7F,7F,50,33,2C,A0,00,00,
-1693295576158597,000003BD,false,Rx,0,8,14,04,0D,00,00,00,00,00,
-1693295576148870,000003BE,false,Rx,0,8,00,00,00,80,00,00,00,00,
-1693295576088884,000003B8,false,Rx,0,8,00,02,72,00,02,00,43,A2,
-1693295576079114,000003BA,false,Rx,0,8,7F,7F,37,2E,38,38,00,00,
-1693295576068875,000003BC,false,Rx,0,8,7F,7F,50,33,2C,A0,00,00,
-1693295576059105,000003BD,false,Rx,0,8,14,04,0D,00,00,00,00,00,
-1693295576049122,000003BE,false,Rx,0,8,00,00,00,80,00,00,00,00,
-1693295575989108,000003B8,false,Rx,0,8,00,02,72,00,02,00,43,A2,
-1693295575979295,000003BA,false,Rx,0,8,7F,7F,37,2E,38,38,00,00,
-1693295575969355,000003BC,false,Rx,0,8,7F,7F,50,33,2C,A0,00,00,
-1693295575959201,000003BD,false,Rx,0,8,14,04,0D,00,00,00,00,00,
-1693295575949260,000003BE,false,Rx,0,8,00,00,00,80,00,00,00,00,
-1693295575889360,000003B8,false,Rx,0,8,00,02,73,00,02,00,43,A2,
-1693295575879419,000003BA,false,Rx,0,8,7F,7F,37,2E,38,38,00,00,
-1693295575869436,000003BC,false,Rx,0,8,7F,7F,50,33,2C,BE,00,00,
-1693295575859367,000003BD,false,Rx,0,8,14,04,0D,00,00,00,00,00,
-1693295575849383,000003BE,false,Rx,0,8,00,00,00,80,00,00,00,00,
-1693295575788758,000003B8,false,Rx,0,8,00,02,73,00,02,00,43,A2,
-1693295575779628,000003BA,false,Rx,0,8,7F,7F,37,2E,38,38,00,00,
-1693295575769559,000003BC,false,Rx,0,8,7F,7F,50,33,2C,BE,00,00,
-1693295575758936,000003BD,false,Rx,0,8,14,04,0D,00,00,00,00,00,
-1693295575749507,000003BE,false,Rx,0,8,00,00,00,80,00,00,00,00,
-1693295575689649,000003B8,false,Rx,0,8,00,02,73,00,02,00,44,A2,
-1693295575679666,000003BA,false,Rx,0,8,7F,7F,37,2E,38,38,00,00,
-1693295575669256,000003BC,false,Rx,0,8,7F,7F,50,33,2C,BE,00,00,
-1693295575659657,000003BD,false,Rx,0,8,14,04,0D,00,00,00,00,00,
-1693295575649759,000003BE,false,Rx,0,8,00,00,00,80,00,00,00,00,
-1693295575589645,000003B8,false,Rx,0,8,00,02,73,00,02,00,44,A2,
-1693295575579619,000003BA,false,Rx,0,8,7F,7F,37,2E,38,38,00,00,
-1693295575569806,000003BC,false,Rx,0,8,7F,7F,50,32,2C,BE,00,00,
-1693295575559738,000003BD,false,Rx,0,8,14,04,0D,00,00,00,00,00,
-1693295575549626,000003BE,false,Rx,0,8,00,00,00,80,00,00,00,00,
-1693295575489854,000003B8,false,Rx,0,8,00,02,73,00,02,00,44,A2,
-1693295575479871,000003BA,false,Rx,0,8,7E,7F,37,2E,38,38,00,00,
-1693295575469759,000003BC,false,Rx,0,8,7E,7F,50,32,2C,BE,00,00,
-1693295575459733,000003BD,false,Rx,0,8,14,04,0D,00,00,00,00,00,
-1693295575449835,000003BE,false,Rx,0,8,00,00,00,80,00,00,00,00,
-1693295575389978,000003B8,false,Rx,0,8,00,02,73,00,02,00,48,A2,
-1693295575380079,000003BA,false,Rx,0,8,7F,7F,37,2E,38,38,00,00,
-1693295575370053,000003BC,false,Rx,0,8,7F,7F,50,32,2C,BE,00,00,
-1693295575360027,000003BD,false,Rx,0,8,14,04,0D,00,00,00,00,00,
-1693295575349959,000003BE,false,Rx,0,8,00,00,00,80,00,00,00,00,
-1693295575289930,000003B8,false,Rx,0,8,00,02,73,00,02,00,48,A2,
-1693295575280075,000003BA,false,Rx,0,8,7F,7F,37,2E,38,38,00,00,
-1693295575270092,000003BC,false,Rx,0,8,7F,7F,50,32,2C,BE,00,00,
-1693295575260151,000003BD,false,Rx,0,8,14,04,0D,00,00,00,00,00,
-1693295575250210,000003BE,false,Rx,0,8,00,00,00,80,00,00,00,00,
-1693295575189969,000003B8,false,Rx,0,8,00,02,73,00,02,00,48,A2,
-1693295575180284,000003BA,false,Rx,0,8,7E,7F,37,2E,38,38,00,00,
-1693295575170301,000003BC,false,Rx,0,8,7E,7F,50,32,2C,BE,00,00,
-1693295575160275,000003BD,false,Rx,0,8,14,04,0D,00,00,00,00,00,
-1693295575150334,000003BE,false,Rx,0,8,00,00,00,80,00,00,00,00,
-1693295575089623,000003B8,false,Rx,0,8,00,02,73,00,02,00,48,A2,
-1693295575080322,000003BA,false,Rx,0,8,7E,7F,37,2E,38,38,00,00,
-1693295575070296,000003BC,false,Rx,0,8,7E,7F,50,32,2C,BE,00,00,
-1693295575059843,000003BD,false,Rx,0,8,14,04,0D,00,00,00,00,00,
-1693295575050457,000003BE,false,Rx,0,8,00,00,00,80,00,00,00,00,
-1693295574990442,000003B8,false,Rx,0,8,00,02,73,00,02,00,48,A2,
-1693295574980458,000003BA,false,Rx,0,8,7F,7F,37,2E,38,38,00,00,
-1693295574970048,000003BC,false,Rx,0,8,7F,7F,50,32,2C,BE,00,00,
-1693295574960449,000003BD,false,Rx,0,8,14,04,0D,00,00,00,00,00,
-1693295574950423,000003BE,false,Rx,0,8,00,00,00,80,00,00,00,00,
-1693295574890480,000003B8,false,Rx,0,8,00,02,73,00,02,00,48,A2,
-1693295574880411,000003BA,false,Rx,0,8,7F,7F,37,2E,38,38,00,00,
-1693295574870641,000003BC,false,Rx,0,8,7F,7F,50,32,2C,BE,00,00,
-1693295574860658,000003BD,false,Rx,0,8,14,04,0D,00,00,00,00,00,
-1693295574850589,000003BE,false,Rx,0,8,00,00,00,80,00,00,00,00,
-1693295574790689,000003B8,false,Rx,0,8,00,02,72,00,02,00,48,A2,
-1693295574780748,000003BA,false,Rx,0,8,7F,7F,37,2E,38,38,00,00,
-1693295574770765,000003BC,false,Rx,0,8,7F,7F,50,32,2C,A0,00,00,
-1693295574760739,000003BD,false,Rx,0,8,14,04,0D,00,00,00,00,00,
-1693295574750798,000003BE,false,Rx,0,8,00,00,00,80,00,00,00,00,
-1693295574690898,000003B8,false,Rx,0,8,00,02,72,00,02,00,48,A2,
-1693295574680914,000003BA,false,Rx,0,8,7F,7F,37,2E,38,38,00,00,
-1693295574670888,000003BC,false,Rx,0,8,7F,7F,50,32,2C,A0,00,00,
-1693295574660948,000003BD,false,Rx,0,8,14,04,0D,00,00,00,00,00,
-1693295574650922,000003BE,false,Rx,0,8,00,00,00,80,00,00,00,00,
-1693295574590893,000003B8,false,Rx,0,8,00,02,72,00,02,00,48,A2,
-1693295574581081,000003BA,false,Rx,0,8,7F,7F,37,2E,38,38,00,00,
-1693295574571140,000003BC,false,Rx,0,8,7F,7F,50,32,2C,A0,00,00,
-1693295574561114,000003BD,false,Rx,0,8,14,04,0D,00,00,00,00,00,
-1693295574551088,000003BE,false,Rx,0,8,00,00,00,80,00,00,00,00,
-1693295574491145,000003B8,false,Rx,0,8,00,02,72,00,02,00,48,A2,
-1693295574480820,000003BA,false,Rx,0,8,7F,7F,37,2E,38,38,00,00,
-1693295574471221,000003BC,false,Rx,0,8,7F,7F,50,31,2C,A0,00,00,
-1693295574461238,000003BD,false,Rx,0,8,14,04,0D,00,00,00,00,00,
-1693295574451041,000003BE,false,Rx,0,8,00,00,00,80,00,00,00,00,
-1693295574391055,000003B8,false,Rx,0,8,00,02,72,00,02,00,48,A2,
-1693295574381285,000003BA,false,Rx,0,8,7E,7F,37,2E,38,38,00,00,
-1693295574371259,000003BC,false,Rx,0,8,7E,7F,50,31,2C,A0,00,00,
-1693295574361276,000003BD,false,Rx,0,8,14,04,0D,00,00,00,00,00,
-1693295574351292,000003BE,false,Rx,0,8,00,00,00,80,00,00,00,00,
-1693295574291435,000003B8,false,Rx,0,8,00,02,72,00,02,00,48,A2,
-1693295574281409,000003BA,false,Rx,0,8,7F,7F,37,2E,38,38,00,00,
-1693295574271425,000003BC,false,Rx,0,8,7F,7F,50,31,2C,A0,00,00,
-1693295574261442,000003BD,false,Rx,0,8,14,04,0D,00,00,00,00,00,
-1693295574251501,000003BE,false,Rx,0,8,00,00,00,80,00,00,00,00,
-1693295574191430,000003B8,false,Rx,0,8,00,02,72,00,02,00,48,A2,
-1693295574181618,000003BA,false,Rx,0,8,7F,7F,37,2E,38,38,00,00,
-1693295574171677,000003BC,false,Rx,0,8,7F,7F,50,31,2C,A0,00,00,
-1693295574161608,000003BD,false,Rx,0,8,14,04,0D,00,00,00,00,00,
-1693295574151668,000003BE,false,Rx,0,8,00,00,00,80,00,00,00,00,
-1693295574091511,000003B8,false,Rx,0,8,00,02,72,00,02,00,48,A2,
-1693295574080931,000003BA,false,Rx,0,8,7F,7F,37,2E,38,38,00,00,
-1693295574071545,000003BC,false,Rx,0,8,7F,7F,50,31,2C,A0,00,00,
-1693295574061519,000003BD,false,Rx,0,8,14,04,0D,00,00,00,00,00,
-1693295574050895,000003BE,false,Rx,0,8,00,00,00,80,00,00,00,00,
-1693295573991136,000003B8,false,Rx,0,8,00,02,72,00,02,00,48,A2,
-1693295573981451,000003BA,false,Rx,0,8,7F,7F,37,2E,38,38,00,00,
-1693295573971595,000003BC,false,Rx,0,8,7F,7F,50,31,2C,A0,00,00,
-1693295573961143,000003BD,false,Rx,0,8,14,04,0D,00,00,00,00,00,
-1693295573951458,000003BE,false,Rx,0,8,00,00,00,80,00,00,00,00,
-1693295573891515,000003B8,false,Rx,0,8,00,02,73,00,02,00,48,A2,
-1693295573881660,000003BA,false,Rx,0,8,7E,7F,37,2E,38,38,00,00,
-1693295573871506,000003BC,false,Rx,0,8,7E,7F,50,32,2C,BE,00,00,
-1693295573861650,000003BD,false,Rx,0,8,14,04,0D,00,00,00,00,00,
-1693295573851667,000003BE,false,Rx,0,8,00,00,00,80,00,00,00,00,
-1693295573791767,000003B8,false,Rx,0,8,00,02,73,00,02,00,48,A2,
-1693295573781869,000003BA,false,Rx,0,8,7F,7F,37,2E,38,38,00,00,
-1693295573771843,000003BC,false,Rx,0,8,7F,7F,50,32,2C,BE,00,00,
-1693295573761731,000003BD,false,Rx,0,8,14,04,0D,00,00,00,00,00,
-1693295573751791,000003BE,false,Rx,0,8,00,00,00,80,00,00,00,00,
-1693295573691805,000003B8,false,Rx,0,8,00,02,73,00,02,00,48,A2,
-1693295573681950,000003BA,false,Rx,0,8,7E,7F,37,2E,38,38,00,00,
-1693295573671881,000003BC,false,Rx,0,8,7E,7F,50,32,2C,DD,00,00,
-1693295573661983,000003BD,false,Rx,0,8,14,04,0D,00,00,00,00,00,
-1693295573651829,000003BE,false,Rx,0,8,00,00,00,80,00,00,00,00,
-1693295573591374,000003B8,false,Rx,0,8,00,02,73,00,02,00,48,A2,
-1693295573581988,000003BA,false,Rx,0,8,7F,7F,37,2E,38,38,00,00,
-1693295573572047,000003BC,false,Rx,0,8,7F,7F,50,32,2C,DD,00,00,
-1693295573561381,000003BD,false,Rx,0,8,14,04,0D,00,00,00,00,00,
-1693295573551995,000003BE,false,Rx,0,8,00,00,00,80,00,00,00,00,
-1693295573492009,000003B8,false,Rx,0,8,00,02,73,00,02,00,48,A2,
-1693295573482026,000003BA,false,Rx,0,8,7E,7F,37,2E,38,38,00,00,
-1693295573471616,000003BC,false,Rx,0,8,7E,7F,50,32,2C,DD,00,00,
-1693295573462059,000003BD,false,Rx,0,8,14,04,0D,00,00,00,00,00,
-1693295573451991,000003BE,false,Rx,0,8,00,00,00,80,00,00,00,00,
-1693295573392048,000003B8,false,Rx,0,8,00,02,73,00,02,00,48,A2,
-1693295573382064,000003BA,false,Rx,0,8,7F,7F,37,2E,38,38,00,00,
-1693295573372124,000003BC,false,Rx,0,8,7F,7F,50,32,2C,DD,00,00,
-1693295573362268,000003BD,false,Rx,0,8,14,04,0D,00,00,00,00,00,
-1693295573352242,000003BE,false,Rx,0,8,00,00,00,80,00,00,00,00,
-1693295573292214,000003B8,false,Rx,0,8,00,02,73,00,02,00,48,A2,
-1693295573282316,000003BA,false,Rx,0,8,7E,7F,37,2E,38,38,00,00,
-1693295573272247,000003BC,false,Rx,0,8,7E,7F,50,32,2C,DD,00,00,
-1693295573262264,000003BD,false,Rx,0,8,14,04,0D,00,00,00,00,00,
-1693295573252280,000003BE,false,Rx,0,8,00,00,00,80,00,00,00,00,
-1693295573192252,000003B8,false,Rx,0,8,00,02,73,00,02,00,4C,A2,
-1693295573182226,000003BA,false,Rx,0,8,7E,7F,37,2E,38,38,00,00,
-1693295573172200,000003BC,false,Rx,0,8,7E,7F,50,32,2C,DD,00,00,
-1693295573161662,000003BD,false,Rx,0,8,14,04,0D,00,00,00,00,00,
-1693295573152276,000003BE,false,Rx,0,8,00,00,00,80,00,00,00,00,
-1693295573092248,000003B8,false,Rx,0,8,00,02,73,00,02,00,4C,A2,
-1693295573082392,000003BA,false,Rx,0,8,7F,7F,37,2E,38,38,00,00,
-1693295573071812,000003BC,false,Rx,0,8,7F,7F,50,32,2C,DD,00,00,
-1693295573062426,000003BD,false,Rx,0,8,14,04,0D,00,00,00,00,00,
-1693295573052442,000003BE,false,Rx,0,8,00,00,00,80,00,00,00,00,
-1693295572992469,000003B8,false,Rx,0,8,00,02,73,00,02,00,4C,A2,
-1693295572982059,000003BA,false,Rx,0,8,7F,7F,37,2E,38,38,00,00,
-1693295572972503,000003BC,false,Rx,0,8,7F,7F,50,32,2C,DD,00,00,
-1693295572962519,000003BD,false,Rx,0,8,14,04,0D,00,00,00,00,00,
-1693295572952195,000003BE,false,Rx,0,8,00,00,00,80,00,00,00,00,
-1693295572892209,000003B8,false,Rx,0,8,00,02,73,00,02,00,4D,A2,
-1693295572882652,000003BA,false,Rx,0,8,7E,7F,37,2E,38,38,00,00,
-1693295572872626,000003BC,false,Rx,0,8,7E,7F,50,32,2C,DD,00,00,
-1693295572862472,000003BD,false,Rx,0,8,14,04,0D,00,00,00,00,00,
-1693295572852659,000003BE,false,Rx,0,8,00,00,00,80,00,00,00,00,
-1693295572792546,000003B8,false,Rx,0,8,00,02,73,00,02,00,4D,A2,
-1693295572782733,000003BA,false,Rx,0,8,7F,7F,37,2E,38,38,00,00,
-1693295572772750,000003BC,false,Rx,0,8,7F,7F,50,34,2C,DD,00,00,
-1693295572762809,000003BD,false,Rx,0,8,14,04,0D,00,00,00,00,00,
-1693295572752698,000003BE,false,Rx,0,8,00,00,00,80,00,00,00,00,
-1693295572692797,000003B8,false,Rx,0,8,00,02,73,00,02,00,4D,A2,
-1693295572682814,000003BA,false,Rx,0,8,7F,7F,37,2E,38,38,00,00,
-1693295572672831,000003BC,false,Rx,0,8,7F,7F,50,34,2C,DD,00,00,
-1693295572662847,000003BD,false,Rx,0,8,14,04,0D,00,00,00,00,00,
-1693295572652864,000003BE,false,Rx,0,8,00,00,00,80,00,00,00,00,
-1693295572592921,000003B8,false,Rx,0,8,00,02,73,00,02,00,4D,A2,
-1693295572582340,000003BA,false,Rx,0,8,7E,7F,37,2E,38,38,00,00,
-1693295572572912,000003BC,false,Rx,0,8,7E,7F,50,34,2C,DD,00,00,
-1693295572563056,000003BD,false,Rx,0,8,14,04,0D,00,00,00,00,00,
-1693295572552390,000003BE,false,Rx,0,8,00,00,00,80,00,00,00,00,
-1693295572492661,000003B8,false,Rx,0,8,00,02,73,00,02,00,4D,A2,
-1693295572483104,000003BA,false,Rx,0,8,7E,7F,37,2E,38,38,00,00,
-1693295572473163,000003BC,false,Rx,0,8,7E,7F,50,34,2C,BE,00,00,
-1693295572462582,000003BD,false,Rx,0,8,14,04,0D,00,00,00,00,00,
-1693295572453026,000003BE,false,Rx,0,8,00,00,00,80,00,00,00,00,
-1693295572393125,000003B8,false,Rx,0,8,00,02,73,00,02,00,4D,A2,
-1693295572383185,000003BA,false,Rx,0,8,7E,7F,37,2E,38,38,00,00,
-1693295572372860,000003BC,false,Rx,0,8,7E,7F,50,34,2C,BE,00,00,
-1693295572363133,000003BD,false,Rx,0,8,14,04,0D,00,00,00,00,00,
-1693295572353235,000003BE,false,Rx,0,8,00,00,00,80,00,00,00,00,
-1693295572293292,000003B8,false,Rx,0,8,00,02,73,00,02,00,4D,A2,
-1693295572283052,000003BA,false,Rx,0,8,7E,7F,37,2E,38,38,00,00,
-1693295572273368,000003BC,false,Rx,0,8,7E,7F,50,37,2C,A0,00,00,
-1693295572263299,000003BD,false,Rx,0,8,14,04,0D,00,00,00,00,00,
-1693295572253273,000003BE,false,Rx,0,8,00,00,00,80,00,00,00,00,
-1693295572193202,000003B8,false,Rx,0,8,00,02,72,00,02,00,4D,A2,
-1693295572183347,000003BA,false,Rx,0,8,7E,7F,37,2E,38,38,00,00,
-1693295572173321,000003BC,false,Rx,0,8,7E,7F,50,37,2C,A0,00,00,
-1693295572163295,000003BD,false,Rx,0,8,14,04,0D,00,00,00,00,00,
-1693295572153354,000003BE,false,Rx,0,8,00,00,00,80,00,00,00,00,
-1693295572093326,000003B8,false,Rx,0,8,00,02,72,00,02,00,4D,A2,
-1693295572083428,000003BA,false,Rx,0,8,7E,7F,37,2E,38,38,00,00,
-1693295572073359,000003BC,false,Rx,0,8,7E,7F,50,37,2C,A0,00,00,
-1693295572062778,000003BD,false,Rx,0,8,14,04,0D,00,00,00,00,00,
-1693295572053349,000003BE,false,Rx,0,8,00,00,00,80,00,00,00,00,
-1693295571993462,000003B8,false,Rx,0,8,00,02,73,00,02,00,4D,A2,
-1693295571983436,000003BA,false,Rx,0,8,7E,7F,37,2E,38,38,00,00,
-1693295571972983,000003BC,false,Rx,0,8,7E,7F,50,34,2C,BE,00,00,
-1693295571963597,000003BD,false,Rx,0,8,14,04,0D,00,00,00,00,00,
-1693295571953614,000003BE,false,Rx,0,8,00,00,00,80,00,00,00,00,
-1693295571893543,000003B8,false,Rx,0,8,00,02,73,00,02,00,4D,A2,
-1693295571883389,000003BA,false,Rx,0,8,7F,7F,37,2E,38,38,00,00,
-1693295571873619,000003BC,false,Rx,0,8,7F,7F,50,34,2C,BE,00,00,
-1693295571863635,000003BD,false,Rx,0,8,14,04,0D,00,00,00,00,00,
-1693295571853524,000003BE,false,Rx,0,8,00,00,00,80,00,00,00,00,
-1693295571793496,000003B8,false,Rx,0,8,00,02,73,00,02,00,4D,A2,
-1693295571783768,000003BA,false,Rx,0,8,7E,7F,37,2E,38,38,00,00,
-1693295571773742,000003BC,false,Rx,0,8,7E,7F,50,34,2C,BE,00,00,
-1693295571763716,000003BD,false,Rx,0,8,14,04,0D,00,00,00,00,00,
-1693295571753733,000003BE,false,Rx,0,8,00,00,00,80,00,00,00,00,
-1693295571693747,000003B8,false,Rx,0,8,00,02,73,00,02,00,4D,A2,
-1693295571683977,000003BA,false,Rx,0,8,7E,7F,37,2E,38,38,00,00,
-1693295571673908,000003BC,false,Rx,0,8,7E,7F,50,35,2C,BE,00,00,
-1693295571664010,000003BD,false,Rx,0,8,14,04,0D,00,00,00,00,00,
-1693295571653984,000003BE,false,Rx,0,8,00,00,00,80,00,00,00,00,
-1693295571593828,000003B8,false,Rx,0,8,00,02,73,00,02,00,4D,A2,
-1693295571583845,000003BA,false,Rx,0,8,7E,7F,37,2E,38,38,00,00,
-1693295571573307,000003BC,false,Rx,0,8,7E,7F,50,35,2C,BE,00,00,
-1693295571563921,000003BD,false,Rx,0,8,14,04,0D,00,00,00,00,00,
-1693295571553852,000003BE,false,Rx,0,8,00,00,00,80,00,00,00,00,
-1693295571493866,000003B8,false,Rx,0,8,00,02,73,00,02,00,4D,A2,
-1693295571483712,000003BA,false,Rx,0,8,7E,7F,37,2E,38,38,00,00,
-1693295571473985,000003BC,false,Rx,0,8,7E,7F,50,35,2C,BE,00,00,
-1693295571463874,000003BD,false,Rx,0,8,14,04,0D,00,00,00,00,00,
-1693295571453848,000003BE,false,Rx,0,8,00,00,00,80,00,00,00,00,
-1693295571393905,000003B8,false,Rx,0,8,00,02,73,00,02,00,4D,A2,
-1693295571384007,000003BA,false,Rx,0,8,7E,7F,37,2E,38,38,00,00,
-1693295571373981,000003BC,false,Rx,0,8,7E,7F,50,34,2C,DD,00,00,
-1693295571364125,000003BD,false,Rx,0,8,14,04,0D,00,00,00,00,00,
-1693295571354099,000003BE,false,Rx,0,8,00,00,00,80,00,00,00,00,
-1693295571294114,000003B8,false,Rx,0,8,00,02,73,00,02,00,4D,A2,
-1693295571284130,000003BA,false,Rx,0,8,7E,7F,37,2E,38,38,00,00,
-1693295571274104,000003BC,false,Rx,0,8,7E,7F,50,34,2C,DD,00,00,
-1693295571264163,000003BD,false,Rx,0,8,14,04,0D,00,00,00,00,00,
-1693295571254265,000003BE,false,Rx,0,8,00,00,00,80,00,00,00,00,
-1693295571194194,000003B8,false,Rx,0,8,00,02,73,00,02,00,4D,A2,
-1693295571184254,000003BA,false,Rx,0,8,7E,7F,37,2E,38,38,00,00,
-1693295571173630,000003BC,false,Rx,0,8,7E,7F,50,34,2C,DD,00,00,
-1693295571164372,000003BD,false,Rx,0,8,14,04,0D,00,00,00,00,00,
-1693295571154389,000003BE,false,Rx,0,8,00,00,00,80,00,00,00,00,
-1693295571094403,000003B8,false,Rx,0,8,00,02,73,00,02,00,4D,A2,
-1693295571083951,000003BA,false,Rx,0,8,7F,7F,37,2E,38,38,00,00,
-1693295571074522,000003BC,false,Rx,0,8,7F,7F,50,35,2C,DD,00,00,
-1693295571064368,000003BD,false,Rx,0,8,14,04,0D,00,00,00,00,00,
-1693295571053787,000003BE,false,Rx,0,8,00,00,00,80,00,00,00,00,
-1693295570994113,000003B8,false,Rx,0,8,00,02,73,00,02,00,4D,A2,
-1693295570984514,000003BA,false,Rx,0,8,7E,7F,37,2E,38,38,00,00,
-1693295570974487,000003BC,false,Rx,0,8,7E,7F,50,35,2C,DD,00,00,
-1693295570964163,000003BD,false,Rx,0,8,14,04,0D,00,00,00,00,00,
-1693295570954393,000003BE,false,Rx,0,8,00,00,00,80,00,00,00,00,
-1693295570894407,000003B8,false,Rx,0,8,00,02,73,00,02,00,4D,A2,
-1693295570884424,000003BA,false,Rx,0,8,7E,7F,37,2E,38,38,00,00,
-1693295570874483,000003BC,false,Rx,0,8,7E,7F,50,34,2C,DD,00,00,
-1693295570864585,000003BD,false,Rx,0,8,14,04,0D,00,00,00,00,00,
-1693295570854516,000003BE,false,Rx,0,8,00,00,00,80,00,00,00,00,
-1693295570794531,000003B8,false,Rx,0,8,00,02,73,00,02,00,4D,A2,
-1693295570784590,000003BA,false,Rx,0,8,7E,7F,37,2E,38,38,00,00,
-1693295570774564,000003BC,false,Rx,0,8,7E,7F,50,34,2C,DD,00,00,
-1693295570764538,000003BD,false,Rx,0,8,14,04,0D,00,00,00,00,00,
-1693295570754640,000003BE,false,Rx,0,8,00,00,00,80,00,00,00,00,
-1693295570694569,000003B8,false,Rx,0,8,00,02,73,00,02,00,4D,A2,
-1693295570684159,000003BA,false,Rx,0,8,7F,7F,37,2E,38,38,00,00,
-1693295570674730,000003BC,false,Rx,0,8,7F,7F,50,34,2C,DD,00,00,
-1693295570664747,000003BD,false,Rx,0,8,14,04,0D,00,00,00,00,00,
-1693295570654166,000003BE,false,Rx,0,8,00,00,00,80,00,00,00,00,
-1693295570594309,000003B8,false,Rx,0,8,00,02,73,00,02,00,4D,A2,
-1693295570584880,000003BA,false,Rx,0,8,7E,7F,37,2E,38,38,00,00,
-1693295570574939,000003BC,false,Rx,0,8,7E,7F,50,39,2C,DD,00,00,
-1693295570564572,000003BD,false,Rx,0,8,14,04,0D,00,00,00,00,00,
-1693295570554972,000003BE,false,Rx,0,8,00,00,00,80,00,00,00,00,
-1693295570494859,000003B8,false,Rx,0,8,00,02,73,00,02,00,4D,A2,
-1693295570485003,000003BA,false,Rx,0,8,7E,7F,37,2E,38,38,00,00,
-1693295570474807,000003BC,false,Rx,0,8,7E,7F,50,39,2C,DD,00,00,
-1693295570465037,000003BD,false,Rx,0,8,14,04,0D,00,00,00,00,00,
-1693295570454968,000003BE,false,Rx,0,8,00,00,00,80,00,00,00,00,
-1693295570395025,000003B8,false,Rx,0,8,00,02,73,00,02,00,4D,A2,
-1693295570385127,000003BA,false,Rx,0,8,7F,7F,37,2E,38,38,00,00,
-1693295570375186,000003BC,false,Rx,0,8,7F,7F,50,39,2C,DD,00,00,
-1693295570365160,000003BD,false,Rx,0,8,14,04,0D,00,00,00,00,00,
-1693295570355134,000003BE,false,Rx,0,8,00,00,00,80,00,00,00,00,
-1693295570295234,000003B8,false,Rx,0,8,00,02,73,00,02,00,4D,A2,
-1693295570285336,000003BA,false,Rx,0,8,7E,7F,37,2E,38,38,00,00,
-1693295570275310,000003BC,false,Rx,0,8,7E,7F,50,34,2C,DD,00,00,
-1693295570265326,000003BD,false,Rx,0,8,14,04,0D,00,00,00,00,00,
-1693295570255343,000003BE,false,Rx,0,8,00,00,00,80,00,00,00,00,
-1693295570194718,000003B8,false,Rx,0,8,00,02,73,00,02,00,4D,A2,
-1693295570185502,000003BA,false,Rx,0,8,7E,7F,37,2E,38,38,00,00,
-1693295570175476,000003BC,false,Rx,0,8,7E,7F,50,34,2C,DD,00,00,
-1693295570164895,000003BD,false,Rx,0,8,14,04,0D,00,00,00,00,00,
-1693295570155552,000003BE,false,Rx,0,8,00,00,00,80,00,00,00,00,
-1693295570095481,000003B8,false,Rx,0,8,00,02,73,00,02,00,4D,A2,
-1693295570085668,000003BA,false,Rx,0,8,7E,7F,37,2E,38,38,00,00,
-1693295570075045,000003BC,false,Rx,0,8,7E,7F,50,34,2C,DD,00,00,
-1693295570065702,000003BD,false,Rx,0,8,14,04,0D,00,00,00,00,00,
-1693295570055676,000003BE,false,Rx,0,8,00,00,00,80,00,00,00,00,
-1693295569995747,000003B8,false,Rx,0,8,00,02,73,00,02,00,4D,A2,
-1693295569985551,000003BA,false,Rx,0,8,7E,7F,37,2E,38,38,00,00,
-1693295569975823,000003BC,false,Rx,0,8,7E,7F,50,38,2C,BE,00,00,
-1693295569965797,000003BD,false,Rx,0,8,14,04,0D,00,00,00,00,00,
-1693295569955643,000003BE,false,Rx,0,8,00,00,00,80,00,00,00,00,
-1693295569895743,000003B8,false,Rx,0,8,00,02,73,00,02,00,4D,A2,
-1693295569886016,000003BA,false,Rx,0,8,7E,7F,37,2E,38,38,00,00,
-1693295569875989,000003BC,false,Rx,0,8,7E,7F,50,38,2C,BE,00,00,
-1693295569865921,000003BD,false,Rx,0,8,14,04,0D,00,00,00,00,00,
-1693295569855937,000003BE,false,Rx,0,8,00,00,00,80,00,00,00,00,
-1693295569795952,000003B8,false,Rx,0,8,00,02,73,00,02,00,4D,A2,
-1693295569786182,000003BA,false,Rx,0,8,7E,7F,37,2E,38,38,00,00,
-1693295569776113,000003BC,false,Rx,0,8,7E,7F,50,38,2C,BE,00,00,
-1693295569766130,000003BD,false,Rx,0,8,14,04,0D,00,00,00,00,00,
-1693295569756146,000003BE,false,Rx,0,8,00,00,00,80,00,00,00,00,
-1693295569696203,000003B8,false,Rx,0,8,00,02,73,00,02,00,4D,A2,
-1693295569686220,000003BA,false,Rx,0,8,7E,7F,37,2E,38,38,00,00,
-1693295569676237,000003BC,false,Rx,0,8,7E,7F,50,39,2C,BE,00,00,
-1693295569666211,000003BD,false,Rx,0,8,14,04,0D,00,00,00,00,00,
-1693295569656313,000003BE,false,Rx,0,8,00,00,00,80,00,00,00,00,
-1693295569596327,000003B8,false,Rx,0,8,00,02,73,00,02,00,4D,A2,
-1693295569585789,000003BA,false,Rx,0,8,7E,7F,38,2E,38,38,00,00,
-1693295569576318,000003BC,false,Rx,0,8,7E,7F,50,39,2C,BE,00,00,
-1693295569566462,000003BD,false,Rx,0,8,14,04,0D,00,00,00,00,00,
-1693295569556351,000003BE,false,Rx,0,8,00,00,00,80,00,00,00,00,
-1693295569495896,000003B8,false,Rx,0,8,00,02,73,00,02,00,4D,A2,
-1693295569486467,000003BA,false,Rx,0,8,7E,7F,38,2E,38,38,00,00,
-1693295569476526,000003BC,false,Rx,0,8,7E,7F,50,39,2C,DD,00,00,
-1693295569465860,000003BD,false,Rx,0,8,14,04,0D,00,00,00,00,00,
-1693295569456560,000003BE,false,Rx,0,8,00,00,00,80,00,00,00,00,
-1693295569396531,000003B8,false,Rx,0,8,00,02,73,00,02,00,4D,A2,
-1693295569386463,000003BA,false,Rx,0,8,7E,7F,38,2E,38,38,00,00,
-1693295569376181,000003BC,false,Rx,0,8,7E,7F,50,39,2C,DD,00,00,
-1693295569366581,000003BD,false,Rx,0,8,14,04,0D,00,00,00,00,00,
-1693295569356513,000003BE,false,Rx,0,8,00,00,00,80,00,00,00,00,
-1693295569296612,000003B8,false,Rx,0,8,00,02,73,00,02,00,4D,A2,
-1693295569286202,000003BA,false,Rx,0,8,7E,7F,38,2E,38,38,00,00,
-1693295569276560,000003BC,false,Rx,0,8,7E,7F,50,39,2C,DD,00,00,
-1693295569266577,000003BD,false,Rx,0,8,14,04,0D,00,00,00,00,00,
-1693295569256380,000003BE,false,Rx,0,8,00,00,00,80,00,00,00,00,
-1693295569196480,000003B8,false,Rx,0,8,00,02,73,00,02,00,4D,A2,
-1693295569186582,000003BA,false,Rx,0,8,7E,7F,38,2E,38,38,00,00,
-1693295569176684,000003BC,false,Rx,0,8,7E,7F,50,34,2C,DD,00,00,
-1693295569166700,000003BD,false,Rx,0,8,14,04,0D,00,00,00,00,00,
-1693295569156546,000003BE,false,Rx,0,8,00,00,00,80,00,00,00,00,
-1693295569096604,000003B8,false,Rx,0,8,00,02,73,00,02,00,4D,A2,
-1693295569086663,000003BA,false,Rx,0,8,7E,7F,38,2E,38,38,00,00,
-1693295569076765,000003BC,false,Rx,0,8,7E,7F,50,34,2C,DD,00,00,
-1693295569066824,000003BD,false,Rx,0,8,14,04,0D,00,00,00,00,00,
-1693295569056755,000003BE,false,Rx,0,8,00,00,00,80,00,00,00,00,
-1693295568996825,000003B8,false,Rx,0,8,00,02,73,00,02,00,4D,A2,
-1693295568986842,000003BA,false,Rx,0,8,7E,7F,38,2E,38,38,00,00,
-1693295568976218,000003BC,false,Rx,0,8,7E,7F,50,34,2C,DD,00,00,
-1693295568966832,000003BD,false,Rx,0,8,14,04,0D,00,00,00,00,00,
-1693295568956806,000003BE,false,Rx,0,8,00,00,00,80,00,00,00,00,
-1693295568896821,000003B8,false,Rx,0,8,00,02,73,00,02,00,4D,A2,
-1693295568886667,000003BA,false,Rx,0,8,7E,7F,38,2E,38,38,00,00,
-1693295568877067,000003BC,false,Rx,0,8,7E,7F,50,34,2C,DD,00,00,
-1693295568866871,000003BD,false,Rx,0,8,14,04,0D,00,00,00,00,00,
-1693295568856802,000003BE,false,Rx,0,8,00,00,00,80,00,00,00,00,
-1693295568797072,000003B8,false,Rx,0,8,00,02,73,00,02,00,4D,A2,
-1693295568787132,000003BA,false,Rx,0,8,7E,7F,38,2E,38,38,00,00,
-1693295568777148,000003BC,false,Rx,0,8,7E,7F,50,34,2C,DD,00,00,
-1693295568767079,000003BD,false,Rx,0,8,14,04,0D,00,00,00,00,00,
-1693295568757139,000003BE,false,Rx,0,8,00,00,00,80,00,00,00,00,
-1693295568696727,000003B8,false,Rx,0,8,00,02,73,00,02,00,4D,A2,
-1693295568687170,000003BA,false,Rx,0,8,7E,7F,38,2E,38,38,00,00,
-1693295568677314,000003BC,false,Rx,0,8,7E,7F,50,34,2C,DD,00,00,
-1693295568666990,000003BD,false,Rx,0,8,14,04,0D,00,00,00,00,00,
-1693295568657177,000003BE,false,Rx,0,8,00,00,00,80,00,00,00,00,
-1693295568597362,000003B8,false,Rx,0,8,00,02,73,00,02,00,4D,A2,
-1693295568587336,000003BA,false,Rx,0,8,7E,7F,38,2E,38,38,00,00,
-1693295568577139,000003BC,false,Rx,0,8,7E,7F,50,34,2C,DD,00,00,
-1693295568567412,000003BD,false,Rx,0,8,14,04,0D,00,00,00,00,00,
-1693295568557343,000003BE,false,Rx,0,8,00,00,00,80,00,00,00,00,
-1693295568497230,000003B8,false,Rx,0,8,00,02,73,00,02,00,4D,A2,
-1693295568487289,000003BA,false,Rx,0,8,7E,7F,38,2E,38,38,00,00,
-1693295568477391,000003BC,false,Rx,0,8,7E,7F,50,34,2C,DD,00,00,
-1693295568467322,000003BD,false,Rx,0,8,14,04,0D,00,00,00,00,00,
-1693295568457424,000003BE,false,Rx,0,8,00,00,00,80,00,00,00,00,
-1693295568397396,000003B8,false,Rx,0,8,00,02,73,00,02,00,4D,A2,
-1693295568387498,000003BA,false,Rx,0,8,7F,7F,38,2E,38,38,00,00,
-1693295568377472,000003BC,false,Rx,0,8,7F,7F,50,35,2C,BE,00,00,
-1693295568367488,000003BD,false,Rx,0,8,14,04,0D,00,00,00,00,00,
-1693295568356865,000003BE,false,Rx,0,8,00,00,00,80,00,00,00,00,
-1693295568297008,000003B8,false,Rx,0,8,00,02,73,00,02,00,4D,A2,
-1693295568287493,000003BA,false,Rx,0,8,7F,7F,38,2E,38,38,00,00,
-1693295568277681,000003BC,false,Rx,0,8,7F,7F,50,35,2C,BE,00,00,
-1693295568267228,000003BD,false,Rx,0,8,14,04,0D,00,00,00,00,00,
-1693295568257415,000003BE,false,Rx,0,8,00,00,00,80,00,00,00,00,
-1693295568197472,000003B8,false,Rx,0,8,00,02,73,00,02,00,4D,A2,
-1693295568187702,000003BA,false,Rx,0,8,7F,7F,38,2E,38,38,00,00,
-1693295568177420,000003BC,false,Rx,0,8,7F,7F,50,35,2C,BE,00,00,
-1693295568167650,000003BD,false,Rx,0,8,14,04,0D,00,00,00,00,00,
-1693295568157582,000003BE,false,Rx,0,8,00,00,00,80,00,00,00,00,
-1693295568097639,000003B8,false,Rx,0,8,00,02,19,00,02,00,4D,A2,
-1693295568087783,000003BA,false,Rx,0,8,7E,7E,38,2E,38,38,00,00,
-1693295568077757,000003BC,false,Rx,0,8,7E,7E,50,0F,09,A0,00,00,
-1693295568067646,000003BD,false,Rx,0,8,14,04,0D,00,00,00,00,00,
-1693295568057705,000003BE,false,Rx,0,8,00,00,00,80,00,00,00,00,
-1693295567997178,000003B8,false,Rx,0,8,00,02,19,00,02,00,4D,12,
-1693295567987706,000003BA,false,Rx,0,8,7E,7E,38,2E,38,38,00,00,
-1693295567977765,000003BC,false,Rx,0,8,7E,7E,50,0F,09,A0,00,00,
-1693295567967611,000003BD,false,Rx,0,8,14,04,0D,00,00,00,00,00,
-1693295567957585,000003BE,false,Rx,0,8,00,00,00,80,00,00,00,00,
-1693295567897600,000003B8,false,Rx,0,8,00,02,19,00,02,00,4D,12,
-1693295567887787,000003BA,false,Rx,0,8,7E,7E,38,2E,38,38,00,00,
-1693295567877761,000003BC,false,Rx,0,8,7E,7E,4F,D1,01,CC,00,00,
-1693295567867820,000003BD,false,Rx,0,8,14,04,0D,00,00,00,00,00,
-1693295567857666,000003BE,false,Rx,0,8,00,00,00,80,00,00,00,00,
-1693295567797851,000003B8,false,Rx,0,8,00,02,05,00,02,00,4D,12,
-1693295567787783,000003BA,false,Rx,0,8,7E,7E,38,2E,38,38,00,00,
-1693295567777799,000003BC,false,Rx,0,8,7E,7E,4F,D1,01,CC,00,00,
-1693295567767133,000003BD,false,Rx,0,8,14,04,0D,00,00,00,00,00,
-1693295567757833,000003BE,false,Rx,0,8,00,00,00,80,00,00,00,00,
-1693295567697975,000003B8,false,Rx,0,8,00,02,05,00,02,00,4D,12,
-1693295567687906,000003BA,false,Rx,0,8,7E,7E,38,2E,38,38,00,00,
-1693295567678051,000003BC,false,Rx,0,8,7E,7E,4F,D1,01,CC,00,00,
-1693295567667385,000003BD,false,Rx,0,8,14,04,0D,00,00,00,00,00,
-1693295567657913,000003BE,false,Rx,0,8,00,00,00,80,00,00,00,00,
-1693295567597971,000003B8,false,Rx,0,8,00,02,02,00,02,00,4D,12,
-1693295567588115,000003BA,false,Rx,0,8,7E,7E,38,2E,38,38,00,00,
-1693295567578174,000003BC,false,Rx,0,8,7E,7E,4F,8D,00,9C,00,00,
-1693295567567850,000003BD,false,Rx,0,8,14,04,0D,00,00,00,00,00,
-1693295567558208,000003BE,false,Rx,0,8,00,00,00,80,00,00,00,00,
-1693295567498137,000003B8,false,Rx,0,8,00,02,02,00,02,00,4D,12,
-1693295567488153,000003BA,false,Rx,0,8,7E,7E,38,2F,39,39,00,00,
-1693295567478255,000003BC,false,Rx,0,8,7E,7E,4F,8D,00,9C,00,00,
-1693295567468187,000003BD,false,Rx,0,8,14,04,0D,00,00,00,00,00,
-1693295567458331,000003BE,false,Rx,0,8,00,00,00,80,00,00,00,00,
-1693295567398218,000003B8,false,Rx,0,8,00,02,02,00,02,00,4D,12,
-1693295567387722,000003BA,false,Rx,0,8,7E,7E,38,2F,39,39,00,00,
-1693295567378251,000003BC,false,Rx,0,8,7E,7E,4F,8D,00,9C,00,00,
-1693295567368353,000003BD,false,Rx,0,8,14,04,0D,00,00,00,00,00,
-1693295567358327,000003BE,false,Rx,0,8,00,00,00,80,00,00,00,00,
-1693295567298299,000003B8,false,Rx,0,8,00,02,01,00,02,00,4D,12,
-1693295567288059,000003BA,false,Rx,0,8,7E,7E,38,2F,39,39,00,00,
-1693295567278417,000003BC,false,Rx,0,8,7E,7E,4F,51,00,7E,00,00,
-1693295567268306,000003BD,false,Rx,0,8,14,04,0D,00,00,00,00,00,
-1693295567258280,000003BE,false,Rx,0,8,00,00,00,80,00,00,00,00,
-1693295567198294,000003B8,false,Rx,0,8,00,02,01,00,02,00,4D,12,
-1693295567188268,000003BA,false,Rx,0,8,7E,7E,38,2F,39,39,00,00,
-1693295567178285,000003BC,false,Rx,0,8,7E,7E,4F,51,00,7E,00,00,
-1693295567168344,000003BD,false,Rx,0,8,14,04,0D,00,00,00,00,00,
-1693295567157891,000003BE,false,Rx,0,8,00,00,00,80,00,00,00,00,
-1693295567098204,000003B8,false,Rx,0,8,00,02,01,00,02,00,4B,12,
-1693295567088349,000003BA,false,Rx,0,8,7E,7E,38,2F,39,39,00,00,
-1693295567078366,000003BC,false,Rx,0,8,7E,7E,4F,51,00,7E,00,00,
-1693295567068297,000003BD,false,Rx,0,8,14,04,0D,00,00,00,00,00,
-1693295567058228,000003BE,false,Rx,0,8,00,00,00,80,00,00,00,00,
-1693295566998341,000003B8,false,Rx,0,8,00,02,01,00,02,00,4B,12,
-1693295566988315,000003BA,false,Rx,0,8,7E,7E,38,2F,39,39,00,00,
-1693295566977819,000003BC,false,Rx,0,8,7E,7E,4F,24,00,7E,00,00,
-1693295566968391,000003BD,false,Rx,0,8,14,04,0D,00,00,00,00,00,
-1693295566958279,000003BE,false,Rx,0,8,00,00,00,80,00,00,00,00,
-1693295566898422,000003B8,false,Rx,0,8,00,02,01,00,02,00,4B,12,
-1693295566888566,000003BA,false,Rx,0,8,7E,7E,38,2F,39,39,00,00,
-1693295566878114,000003BC,false,Rx,0,8,7E,7E,4F,24,00,7E,00,00,
-1693295566868471,000003BD,false,Rx,0,8,14,04,0D,00,00,00,00,00,
-1693295566858531,000003BE,false,Rx,0,8,00,00,00,80,00,00,00,00,
-1693295566798545,000003B8,false,Rx,0,8,00,02,01,00,02,00,4B,12,
-1693295566788732,000003BA,false,Rx,0,8,7E,7E,38,2F,39,39,00,00,
-1693295566778365,000003BC,false,Rx,0,8,7E,7E,4F,24,00,7E,00,00,
-1693295566768680,000003BD,false,Rx,0,8,14,04,0D,00,00,00,00,00,
-1693295566758697,000003BE,false,Rx,0,8,00,00,00,80,00,00,00,00,
-1693295566698669,000003B8,false,Rx,0,8,00,02,01,00,02,00,4B,12,
-1693295566688685,000003BA,false,Rx,0,8,7E,7E,38,2F,39,39,00,00,
-1693295566678702,000003BC,false,Rx,0,8,7E,7E,4E,E4,00,5F,00,00,
-1693295566668719,000003BD,false,Rx,0,8,14,04,0D,00,00,00,00,00,
-1693295566658778,000003BE,false,Rx,0,8,00,00,00,80,00,00,00,00,
-1693295566598366,000003B8,false,Rx,0,8,00,02,01,00,02,00,4B,12,
-1693295566588894,000003BA,false,Rx,0,8,7E,7E,38,2F,39,39,00,00,
-1693295566578954,000003BC,false,Rx,0,8,7E,7E,4E,E4,00,5F,00,00,
-1693295566568928,000003BD,false,Rx,0,8,14,04,0D,00,00,00,00,00,
-1693295566558944,000003BE,false,Rx,0,8,00,00,00,80,00,00,00,00,
-1693295566498660,000003B8,false,Rx,0,8,00,02,01,00,02,00,45,12,
-1693295566489018,000003BA,false,Rx,0,8,7E,7E,38,2F,39,39,00,00,
-1693295566479034,000003BC,false,Rx,0,8,7E,7E,4E,E4,00,5F,00,00,
-1693295566468923,000003BD,false,Rx,0,8,14,04,0D,00,00,00,00,00,
-1693295566458897,000003BE,false,Rx,0,8,00,00,00,80,00,00,00,00,
-1693295566399039,000003B8,false,Rx,0,8,00,02,01,00,02,00,45,12,
-1693295566389184,000003BA,false,Rx,0,8,7E,7E,38,2F,39,39,00,00,
-1693295566379115,000003BC,false,Rx,0,8,7E,7E,4E,C4,00,5F,00,00,
-1693295566369175,000003BD,false,Rx,0,8,14,04,0D,00,00,00,00,00,
-1693295566359106,000003BE,false,Rx,0,8,00,00,00,80,00,00,00,00,
-1693295566299120,000003B8,false,Rx,0,8,00,02,01,00,02,00,45,12,
-1693295566289052,000003BA,false,Rx,0,8,7E,7E,38,2F,39,39,00,00,
-1693295566279196,000003BC,false,Rx,0,8,7E,7E,4E,C4,00,5F,00,00,
-1693295566268616,000003BD,false,Rx,0,8,14,04,0D,00,00,00,00,00,
-1693295566259272,000003BE,false,Rx,0,8,00,00,00,80,00,00,00,00,
-1693295566199287,000003B8,false,Rx,0,8,00,02,01,00,02,00,45,12,
-1693295566189389,000003BA,false,Rx,0,8,7E,7F,38,2F,39,39,00,00,
-1693295566179363,000003BC,false,Rx,0,8,7E,7F,4E,91,00,5F,00,00,
-1693295566168867,000003BD,false,Rx,0,8,14,04,0D,00,00,00,00,00,
-1693295566159438,000003BE,false,Rx,0,8,00,00,00,80,00,00,00,00,
-1693295566099453,000003B8,false,Rx,0,8,00,02,01,00,02,00,45,12,
-1693295566089512,000003BA,false,Rx,0,8,7E,7F,38,2F,39,39,00,00,
-1693295566079571,000003BC,false,Rx,0,8,7E,7F,4E,91,00,5F,00,00,
-1693295566069332,000003BD,false,Rx,0,8,14,04,0D,00,00,00,00,00,
-1693295566059477,000003BE,false,Rx,0,8,00,00,00,80,00,00,00,00,
-1693295565999504,000003B8,false,Rx,0,8,00,02,01,00,02,00,40,12,
-1693295565989691,000003BA,false,Rx,0,8,7E,7E,38,2F,39,39,00,00,
-1693295565979622,000003BC,false,Rx,0,8,7E,7E,4E,91,00,5F,00,00,
-1693295565969596,000003BD,false,Rx,0,8,14,04,0D,00,00,00,00,00,
-1693295565959698,000003BE,false,Rx,0,8,00,00,00,80,00,00,00,00,
-1693295565899713,000003B8,false,Rx,0,8,00,02,01,00,02,00,40,12,
-1693295565889217,000003BA,false,Rx,0,8,7E,7E,38,2F,39,39,00,00,
-1693295565879789,000003BC,false,Rx,0,8,7E,7E,4E,59,00,5F,00,00,
-1693295565869763,000003BD,false,Rx,0,8,14,04,0D,00,00,00,00,00,
-1693295565859737,000003BE,false,Rx,0,8,00,00,00,80,00,00,00,00,
-1693295565799623,000003B8,false,Rx,0,8,00,02,01,00,02,00,40,12,
-1693295565789554,000003BA,false,Rx,0,8,7E,7E,38,2F,39,39,00,00,
-1693295565779742,000003BC,false,Rx,0,8,7E,7E,4E,59,00,5F,00,00,
-1693295565769886,000003BD,false,Rx,0,8,14,04,0D,00,00,00,00,00,
-1693295565759860,000003BE,false,Rx,0,8,00,00,00,80,00,00,00,00,
-1693295565699747,000003B8,false,Rx,0,8,00,02,01,00,02,00,40,12,
-1693295565689848,000003BA,false,Rx,0,8,7E,7E,38,2F,39,39,00,00,
-1693295565679822,000003BC,false,Rx,0,8,7E,7E,4E,59,00,5F,00,00,
-1693295565669796,000003BD,false,Rx,0,8,14,04,0D,00,00,00,00,00,
-1693295565659472,000003BE,false,Rx,0,8,00,00,00,80,00,00,00,00,
-1693295565599827,000003B8,false,Rx,0,8,00,02,01,00,02,00,40,12,
-1693295565589929,000003BA,false,Rx,0,8,7E,7F,38,2F,39,39,00,00,
-1693295565579946,000003BC,false,Rx,0,8,7E,7F,4E,36,00,5F,00,00,
-1693295565569877,000003BD,false,Rx,0,8,14,04,0D,00,00,00,00,00,
-1693295565559766,000003BE,false,Rx,0,8,00,00,00,80,00,00,00,00,
-1693295565499823,000003B8,false,Rx,0,8,00,02,01,00,02,00,40,12,
-1693295565489968,000003BA,false,Rx,0,8,7E,7F,38,2F,39,39,00,00,
-1693295565479344,000003BC,false,Rx,0,8,7E,7F,4E,36,00,5F,00,00,
-1693295565469916,000003BD,false,Rx,0,8,14,04,0D,00,00,00,00,00,
-1693295565459932,000003BE,false,Rx,0,8,00,00,00,80,00,00,00,00,
-1693295565399904,000003B8,false,Rx,0,8,00,02,01,00,02,00,3B,12,
-1693295565389878,000003BA,false,Rx,0,8,7E,7E,38,2F,39,39,00,00,
-1693295565379639,000003BC,false,Rx,0,8,7E,7E,4E,36,00,5F,00,00,
-1693295565369996,000003BD,false,Rx,0,8,14,04,0D,00,00,00,00,00,
-1693295565359842,000003BE,false,Rx,0,8,00,00,00,80,00,00,00,00,
-1693295565300070,000003B8,false,Rx,0,8,00,02,01,00,02,00,3B,12,
-1693295565290001,000003BA,false,Rx,0,8,7E,7E,38,2F,39,39,00,00,
-1693295565280103,000003BC,false,Rx,0,8,7E,7E,4E,0B,00,5F,00,00,
-1693295565270077,000003BD,false,Rx,0,8,14,04,0D,00,00,00,00,00,
-1693295565260051,000003BE,false,Rx,0,8,00,00,00,80,00,00,00,00,
-1693295565199511,000003B8,false,Rx,0,8,00,02,01,00,02,00,3B,12,
-1693295565190253,000003BA,false,Rx,0,8,7E,7F,38,2F,39,39,00,00,
-1693295565180184,000003BC,false,Rx,0,8,7E,7F,4E,0B,00,5F,00,00,
-1693295565170329,000003BD,false,Rx,0,8,14,04,0D,00,00,00,00,00,
-1693295565160090,000003BE,false,Rx,0,8,00,00,00,80,00,00,00,00,
-1693295565099848,000003B8,false,Rx,0,8,00,02,01,00,02,00,39,12,
-1693295565090249,000003BA,false,Rx,0,8,7E,7E,38,2F,39,39,00,00,
-1693295565080308,000003BC,false,Rx,0,8,7E,7E,4E,0B,00,5F,00,00,
-1693295565070367,000003BD,false,Rx,0,8,14,04,0D,00,00,00,00,00,
-1693295565060341,000003BE,false,Rx,0,8,00,00,00,80,00,00,00,00,
-1693295565000240,000003B8,false,Rx,0,8,00,02,01,00,02,00,39,12,
-1693295564990385,000003BA,false,Rx,0,8,7E,7E,38,2F,39,39,00,00,
-1693295564980487,000003BC,false,Rx,0,8,7E,7E,4D,EB,00,5F,00,00,
-1693295564970461,000003BD,false,Rx,0,8,14,04,0D,00,00,00,00,00,
-1693295564960435,000003BE,false,Rx,0,8,00,00,00,80,00,00,00,00,
-1693295564900406,000003B8,false,Rx,0,8,00,02,01,00,02,00,39,12,
-1693295564890551,000003BA,false,Rx,0,8,7E,7F,38,2F,39,39,00,00,
-1693295564880482,000003BC,false,Rx,0,8,7E,7F,4D,EB,00,5F,00,00,
-1693295564869944,000003BD,false,Rx,0,8,14,04,0D,00,00,00,00,00,
-1693295564860430,000003BE,false,Rx,0,8,00,00,00,80,00,00,00,00,
-1693295564800530,000003B8,false,Rx,0,8,00,02,01,00,02,00,36,12,
-1693295564790675,000003BA,false,Rx,0,8,7E,7F,38,2F,39,39,00,00,
-1693295564780521,000003BC,false,Rx,0,8,7E,7F,4D,BD,00,5F,00,00,
-1693295564770324,000003BD,false,Rx,0,8,14,04,0D,00,00,00,00,00,
-1693295564760554,000003BE,false,Rx,0,8,00,00,00,80,00,00,00,00,
-1693295564700526,000003B8,false,Rx,0,8,00,02,01,00,02,00,36,12,
-1693295564689774,000003BA,false,Rx,0,8,7E,7E,38,2F,39,39,00,00,
-1693295564680346,000003BC,false,Rx,0,8,7E,7E,4D,BD,00,5F,00,00,
-1693295564670448,000003BD,false,Rx,0,8,14,04,0D,00,00,00,00,00,
-1693295564660421,000003BE,false,Rx,0,8,00,00,00,80,00,00,00,00,
-1693295564600436,000003B8,false,Rx,0,8,00,02,01,00,02,00,36,12,
-1693295564590026,000003BA,false,Rx,0,8,7E,7E,38,2F,39,39,00,00,
-1693295564580384,000003BC,false,Rx,0,8,7E,7E,4D,BD,00,5F,00,00,
-1693295564570443,000003BD,false,Rx,0,8,14,04,0D,00,00,00,00,00,
-1693295564560417,000003BE,false,Rx,0,8,00,00,00,80,00,00,00,00,
-1693295564500559,000003B8,false,Rx,0,8,00,02,01,00,02,00,36,12,
-1693295564490405,000003BA,false,Rx,0,8,7E,7E,38,2F,39,39,00,00,
-1693295564480550,000003BC,false,Rx,0,8,7E,7E,4D,A3,00,5F,00,00,
-1693295564470652,000003BD,false,Rx,0,8,14,04,0D,00,00,00,00,00,
-1693295564460626,000003BE,false,Rx,0,8,00,00,00,80,00,00,00,00,
-1693295564400726,000003B8,false,Rx,0,8,00,02,01,00,02,00,36,12,
-1693295564390657,000003BA,false,Rx,0,8,7E,7E,38,2F,39,39,00,00,
-1693295564380802,000003BC,false,Rx,0,8,7E,7E,4D,A3,00,5F,00,00,
-1693295564370733,000003BD,false,Rx,0,8,14,04,0D,00,00,00,00,00,
-1693295564360238,000003BE,false,Rx,0,8,00,00,00,80,00,00,00,00,
-1693295564300764,000003B8,false,Rx,0,8,00,02,01,00,02,00,36,12,
-1693295564290909,000003BA,false,Rx,0,8,7E,7E,38,2F,39,39,00,00,
-1693295564280883,000003BC,false,Rx,0,8,7E,7E,4D,A3,00,5F,00,00,
-1693295564270771,000003BD,false,Rx,0,8,14,04,0D,00,00,00,00,00,
-1693295564260532,000003BE,false,Rx,0,8,00,00,00,80,00,00,00,00,
-1693295564200845,000003B8,false,Rx,0,8,00,02,01,00,02,00,36,12,
-1693295564191032,000003BA,false,Rx,0,8,7E,7E,38,2F,39,39,00,00,
-1693295564180963,000003BC,false,Rx,0,8,7E,7E,4D,6D,00,5F,00,00,
-1693295564171065,000003BD,false,Rx,0,8,14,04,0D,00,00,00,00,00,
-1693295564160997,000003BE,false,Rx,0,8,00,00,00,80,00,00,00,00,
-1693295564101139,000003B8,false,Rx,0,8,00,02,01,00,02,00,36,12,
-1693295564091070,000003BA,false,Rx,0,8,7E,7E,38,2F,39,39,00,00,
-1693295564080404,000003BC,false,Rx,0,8,7E,7E,4D,6D,00,5F,00,00,
-1693295564071189,000003BD,false,Rx,0,8,14,04,0D,00,00,00,00,00,
-1693295564061120,000003BE,false,Rx,0,8,00,00,00,80,00,00,00,00,
-1693295564001105,000003B8,false,Rx,0,8,00,02,01,00,02,00,32,12,
-1693295563991292,000003BA,false,Rx,0,8,7E,7E,38,2F,39,39,00,00,
-1693295563980797,000003BC,false,Rx,0,8,7E,7E,4D,6D,00,5F,00,00,
-1693295563971368,000003BD,false,Rx,0,8,14,04,0D,00,00,00,00,00,
-1693295563961214,000003BE,false,Rx,0,8,00,00,00,80,00,00,00,00,
-1693295563901186,000003B8,false,Rx,0,8,00,02,01,00,02,00,32,12,
-1693295563891330,000003BA,false,Rx,0,8,7E,7E,38,2F,39,39,00,00,
-1693295563881048,000003BC,false,Rx,0,8,7E,7E,4D,48,00,5F,00,00,
-1693295563871235,000003BD,false,Rx,0,8,14,04,0D,00,00,00,00,00,
-1693295563861295,000003BE,false,Rx,0,8,00,00,00,80,00,00,00,00,
-1693295563801352,000003B8,false,Rx,0,8,00,02,01,00,02,00,32,12,
-1693295563791368,000003BA,false,Rx,0,8,7E,7F,38,2F,39,39,00,00,
-1693295563781385,000003BC,false,Rx,0,8,7E,7F,4D,48,00,5F,00,00,
-1693295563771359,000003BD,false,Rx,0,8,14,04,0D,00,00,00,00,00,
-1693295563761418,000003BE,false,Rx,0,8,00,00,00,80,00,00,00,00,
-1693295563700793,000003B8,false,Rx,0,8,00,02,01,00,02,00,32,12,
-1693295563691620,000003BA,false,Rx,0,8,7E,7F,38,2F,39,39,00,00,
-1693295563681637,000003BC,false,Rx,0,8,7E,7F,4D,48,00,5F,00,00,
-1693295563671653,000003BD,false,Rx,0,8,14,04,0D,00,00,00,00,00,
-1693295563661585,000003BE,false,Rx,0,8,00,00,00,80,00,00,00,00,
-1693295563601343,000003B8,false,Rx,0,8,00,02,01,00,02,00,32,12,
-1693295563591701,000003BA,false,Rx,0,8,7E,7E,38,2F,39,39,00,00,
-1693295563581718,000003BC,false,Rx,0,8,7E,7E,4D,24,00,5F,00,00,
-1693295563571692,000003BD,false,Rx,0,8,14,04,0D,00,00,00,00,00,
-1693295563561708,000003BE,false,Rx,0,8,00,00,00,80,00,00,00,00,
-1693295563501595,000003B8,false,Rx,0,8,00,02,01,00,02,00,32,12,
-1693295563491739,000003BA,false,Rx,0,8,7E,7E,38,2F,39,39,00,00,
-1693295563481798,000003BC,false,Rx,0,8,7E,7E,4D,24,00,5F,00,00,
-1693295563471772,000003BD,false,Rx,0,8,14,04,0D,00,00,00,00,00,
-1693295563461789,000003BE,false,Rx,0,8,00,00,00,80,00,00,00,00,
-1693295563401761,000003B8,false,Rx,0,8,00,02,01,00,02,00,32,12,
-1693295563391948,000003BA,false,Rx,0,8,7E,7E,38,2F,39,39,00,00,
-1693295563381879,000003BC,false,Rx,0,8,7E,7E,4D,02,00,5F,00,00,
-1693295563371384,000003BD,false,Rx,0,8,14,04,0D,00,00,00,00,00,
-1693295563361913,000003BE,false,Rx,0,8,00,00,00,80,00,00,00,00,
-1693295563301970,000003B8,false,Rx,0,8,00,02,01,00,02,00,32,12,
-1693295563291986,000003BA,false,Rx,0,8,7E,7E,38,2F,39,39,00,00,
-1693295563282003,000003BC,false,Rx,0,8,7E,7E,4D,02,00,5F,00,00,
-1693295563271721,000003BD,false,Rx,0,8,14,04,0D,00,00,00,00,00,
-1693295563262122,000003BE,false,Rx,0,8,00,00,00,80,00,00,00,00,
-1693295563202051,000003B8,false,Rx,0,8,00,02,01,00,02,00,32,12,
-1693295563192281,000003BA,false,Rx,0,8,7E,7E,38,2F,39,39,00,00,
-1693295563182255,000003BC,false,Rx,0,8,7E,7E,4D,02,00,5F,00,00,
-1693295563172015,000003BD,false,Rx,0,8,14,04,0D,00,00,00,00,00,
-1693295563162160,000003BE,false,Rx,0,8,00,00,00,80,00,00,00,00,
-1693295563102089,000003B8,false,Rx,0,8,00,02,01,00,02,00,2C,12,
-1693295563091551,000003BA,false,Rx,0,8,7E,7E,38,2F,39,39,00,00,
-1693295563082250,000003BC,false,Rx,0,8,7E,7E,4C,E9,00,5F,00,00,
-1693295563072224,000003BD,false,Rx,0,8,14,04,0D,00,00,00,00,00,
-1693295563062155,000003BE,false,Rx,0,8,00,00,00,80,00,00,00,00,
-1693295563002182,000003B8,false,Rx,0,8,00,02,01,00,02,00,2C,12,
-1693295562991730,000003BA,false,Rx,0,8,7E,7E,38,2F,39,39,00,00,
-1693295562982258,000003BC,false,Rx,0,8,7E,7E,4C,E9,00,5F,00,00,
-1693295562972232,000003BD,false,Rx,0,8,14,04,0D,00,00,00,00,00,
-1693295562962206,000003BE,false,Rx,0,8,00,00,00,80,00,00,00,00,
-1693295562902221,000003B8,false,Rx,0,8,00,02,01,00,02,00,2C,12,
-1693295562892195,000003BA,false,Rx,0,8,7E,7E,38,2F,39,39,00,00,
-1693295562882297,000003BC,false,Rx,0,8,7E,7E,4C,E9,00,5F,00,00,
-1693295562872441,000003BD,false,Rx,0,8,14,04,0D,00,00,00,00,00,
-1693295562862458,000003BE,false,Rx,0,8,00,00,00,80,00,00,00,00,
-1693295562802430,000003B8,false,Rx,0,8,00,02,01,00,02,00,2C,12,
-1693295562792532,000003BA,false,Rx,0,8,7E,7E,38,2F,39,39,00,00,
-1693295562782506,000003BC,false,Rx,0,8,7E,7E,4C,BE,00,5F,00,00,
-1693295562772650,000003BD,false,Rx,0,8,14,04,0D,00,00,00,00,00,
-1693295562761941,000003BE,false,Rx,0,8,00,00,00,80,00,00,00,00,
-1693295562702468,000003B8,false,Rx,0,8,00,02,01,00,02,00,2C,12,
-1693295562692570,000003BA,false,Rx,0,8,7E,7F,38,2F,39,39,00,00,
-1693295562682501,000003BC,false,Rx,0,8,7E,7F,4C,BE,00,5F,00,00,
-1693295562672475,000003BD,false,Rx,0,8,14,04,0D,00,00,00,00,00,
-1693295562662406,000003BE,false,Rx,0,8,00,00,00,80,00,00,00,00,
-1693295562602506,000003B8,false,Rx,0,8,00,02,01,00,02,00,2C,12,
-1693295562592651,000003BA,false,Rx,0,8,7E,7F,38,2F,39,39,00,00,
-1693295562582582,000003BC,false,Rx,0,8,7E,7F,4C,BE,00,5F,00,00,
-1693295562572727,000003BD,false,Rx,0,8,14,04,0D,00,00,00,00,00,
-1693295562562658,000003BE,false,Rx,0,8,00,00,00,80,00,00,00,00,
-1693295562502630,000003B8,false,Rx,0,8,00,02,01,00,02,00,2C,12,
-1693295562492561,000003BA,false,Rx,0,8,7E,7E,38,2F,39,39,00,00,
-1693295562482279,000003BC,false,Rx,0,8,7E,7E,4C,8D,00,5F,00,00,
-1693295562472680,000003BD,false,Rx,0,8,14,04,0D,00,00,00,00,00,
-1693295562462739,000003BE,false,Rx,0,8,00,00,00,80,00,00,00,00,
-1693295562402540,000003B8,false,Rx,0,8,00,02,01,00,02,00,2C,12,
-1693295562392642,000003BA,false,Rx,0,8,7E,7E,38,2F,39,39,00,00,
-1693295562382573,000003BC,false,Rx,0,8,7E,7E,4C,8D,00,5F,00,00,
-1693295562372760,000003BD,false,Rx,0,8,14,04,0D,00,00,00,00,00,
-1693295562362606,000003BE,false,Rx,0,8,00,00,00,80,00,00,00,00,
-1693295562302066,000003B8,false,Rx,0,8,00,02,01,00,02,00,2C,12,
-1693295562292680,000003BA,false,Rx,0,8,7E,7E,38,2F,39,39,00,00,
-1693295562282611,000003BC,false,Rx,0,8,7E,7E,4C,8D,00,5F,00,00,
-1693295562272756,000003BD,false,Rx,0,8,14,04,0D,00,00,00,00,00,
-1693295562262645,000003BE,false,Rx,0,8,00,00,00,80,00,00,00,00,
-1693295562202446,000003B8,false,Rx,0,8,00,02,01,00,02,00,2C,12,
-1693295562192846,000003BA,false,Rx,0,8,7E,7E,38,2F,39,39,00,00,
-1693295562182778,000003BC,false,Rx,0,8,7E,7E,4C,84,00,5F,00,00,
-1693295562172922,000003BD,false,Rx,0,8,14,04,0D,00,00,00,00,00,
-1693295562162768,000003BE,false,Rx,0,8,00,00,00,80,00,00,00,00,
-1693295562102868,000003B8,false,Rx,0,8,00,02,01,00,02,00,2C,12,
-1693295562092885,000003BA,false,Rx,0,8,7E,7F,38,2F,39,39,00,00,
-1693295562082944,000003BC,false,Rx,0,8,7E,7F,4C,84,00,5F,00,00,
-1693295562072875,000003BD,false,Rx,0,8,14,04,0D,00,00,00,00,00,
-1693295562062849,000003BE,false,Rx,0,8,00,00,00,80,00,00,00,00,
-1693295562003034,000003B8,false,Rx,0,8,00,02,01,00,02,00,2C,12,
-1693295561993221,000003BA,false,Rx,0,8,7E,7E,38,2F,39,39,00,00,
-1693295561983110,000003BC,false,Rx,0,8,7E,7E,4C,84,00,5F,00,00,
-1693295561972444,000003BD,false,Rx,0,8,14,04,0D,00,00,00,00,00,
-1693295561963100,000003BE,false,Rx,0,8,00,00,00,80,00,00,00,00,
-1693295561903072,000003B8,false,Rx,0,8,00,02,01,00,02,00,2C,12,
-1693295561893259,000003BA,false,Rx,0,8,7E,7E,38,2F,39,39,00,00,
-1693295561883191,000003BC,false,Rx,0,8,7E,7E,4C,5D,00,5F,00,00,
-1693295561872994,000003BD,false,Rx,0,8,14,04,0D,00,00,00,00,00,
-1693295561863139,000003BE,false,Rx,0,8,00,00,00,80,00,00,00,00,
-1693295561803238,000003B8,false,Rx,0,8,00,02,01,00,02,00,2C,12,
-1693295561792615,000003BA,false,Rx,0,8,7E,7E,38,2F,39,39,00,00,
-1693295561783357,000003BC,false,Rx,0,8,7E,7E,4C,5D,00,5F,00,00,
-1693295561773246,000003BD,false,Rx,0,8,14,04,0D,00,00,00,00,00,
-1693295561763177,000003BE,false,Rx,0,8,00,00,00,80,00,00,00,00,
-1693295561703362,000003B8,false,Rx,0,8,00,02,01,00,02,00,2C,12,
-1693295561692824,000003BA,false,Rx,0,8,7E,7F,38,2F,39,39,00,00,
-1693295561683438,000003BC,false,Rx,0,8,7E,7F,4C,47,00,5F,00,00,
-1693295561673327,000003BD,false,Rx,0,8,14,04,0D,00,00,00,00,00,
-1693295561663300,000003BE,false,Rx,0,8,00,00,00,80,00,00,00,00,
-1693295561603358,000003B8,false,Rx,0,8,00,02,01,00,02,00,2C,12,
-1693295561593161,000003BA,false,Rx,0,8,7E,7E,38,2F,39,39,00,00,
-1693295561583476,000003BC,false,Rx,0,8,7E,7E,4C,47,00,5F,00,00,
-1693295561573535,000003BD,false,Rx,0,8,14,04,0D,00,00,00,00,00,
-1693295561563509,000003BE,false,Rx,0,8,00,00,00,80,00,00,00,00,
-1693295561503566,000003B8,false,Rx,0,8,00,02,01,00,02,00,2B,12,
-1693295561493412,000003BA,false,Rx,0,8,7E,7E,38,2F,39,39,00,00,
-1693295561483557,000003BC,false,Rx,0,8,7E,7E,4C,47,00,5F,00,00,
-1693295561473659,000003BD,false,Rx,0,8,14,04,0D,00,00,00,00,00,
-1693295561463633,000003BE,false,Rx,0,8,00,00,00,80,00,00,00,00,
