Time Stamp,ID,Extended,Dir,Bus,LEN,D1,D2,D3,D4,D5,D6,D7,D8
-1693295655623956,000003B8,false,Rx,0,8,64,00,00,00,00,00,00,12,
-1693295655614186,000003BA,false,Rx,0,8,2E,2E,41,41,41,41,00,00,
-1693295655604032,000003BC,false,Rx,0,8,2E,2E,00,00,00,00,00,00,
-1693295655594177,000003BD,false,Rx,0,8,14,04,0D,00,00,00,00,00,
-1693295655584065,000003BE,false,Rx,0,8,00,00,00,81,00,00,00,00,
-1693295655524122,000003B8,false,Rx,0,8,64,00,00,00,00,00,00,12,
-1693295655514267,000003BA,false,Rx,0,8,2E,2E,41,41,41,41,00,00,
-1693295655504198,000003BC,false,Rx,0,8,2E,2E,00,00,00,00,00,00,
-1693295655494300,000003BD,false,Rx,0,8,14,04,0D,00,00,00,00,00,
-1693295655484274,000003BE,false,Rx,0,8,00,00,00,81,00,00,00,00,
-1693295655424331,000003B8,false,Rx,0,8,64,00,00,00,00,00,00,12,
-1693295655414433,000003BA,false,Rx,0,8,2E,2E,41,41,41,41,00,00,
-1693295655403981,000003BC,false,Rx,0,8,2E,2E,00,00,00,00,00,00,
-1693295655394381,000003BD,false,Rx,0,8,14,04,0D,00,00,00,00,00,
-1693295655384483,000003BE,false,Rx,0,8,00,00,00,81,00,00,00,00,
-1693295655324417,000003B8,false,Rx,0,8,64,00,00,00,00,00,00,12,
-1693295655314604,000003BA,false,Rx,0,8,2E,2E,41,41,41,41,00,00,
-1693295655304706,000003BC,false,Rx,0,8,2E,2E,00,00,00,00,00,00,
-1693295655294680,000003BD,false,Rx,0,8,14,04,0D,00,00,00,00,00,
-1693295655284526,000003BE,false,Rx,0,8,00,00,00,81,00,00,00,00,
-1693295655224583,000003B8,false,Rx,0,8,64,00,00,00,00,00,00,12,
-1693295655214728,000003BA,false,Rx,0,8,2E,2E,41,41,41,41,00,00,
-1693295655204830,000003BC,false,Rx,0,8,2E,2E,00,00,00,00,00,00,
-1693295655194804,000003BD,false,Rx,0,8,14,04,0D,00,00,00,00,00,
-1693295655184735,000003BE,false,Rx,0,8,00,00,00,81,00,00,00,00,
-1693295655124749,000003B8,false,Rx,0,8,64,00,00,00,00,00,00,12,
-1693295655114937,000003BA,false,Rx,0,8,2E,2E,41,41,41,41,00,00,
-1693295655104868,000003BC,false,Rx,0,8,2E,2E,00,00,00,00,00,00,
-1693295655094970,000003BD,false,Rx,0,8,14,04,0D,00,00,00,00,00,
-1693295655084901,000003BE,false,Rx,0,8,00,00,00,81,00,00,00,00,
-1693295655024916,000003B8,false,Rx,0,8,64,00,00,00,00,00,00,12,
-1693295655015060,000003BA,false,Rx,0,8,2E,2E,41,41,41,41,00,00,
-1693295655004992,000003BC,false,Rx,0,8,2E,2E,00,00,00,00,00,00,
-1693295654994710,000003BD,false,Rx,0,8,14,04,0D,00,00,00,00,00,
-1693295654985025,000003BE,false,Rx,0,8,00,00,00,81,00,00,00,00,
-1693295654925082,000003B8,false,Rx,0,8,64,00,00,00,00,00,00,12,
-1693295654915013,000003BA,false,Rx,0,8,2E,2E,41,41,41,41,00,00,
-1693295654905158,000003BC,false,Rx,0,8,2E,2E,00,00,00,00,00,00,
-1693295654895132,000003BD,false,Rx,0,8,14,04,0D,00,00,00,00,00,
-1693295654885191,000003BE,false,Rx,0,8,00,00,00,81,00,00,00,00,
-1693295654825205,000003B8,false,Rx,0,8,64,00,00,00,00,00,00,12,
-1693295654815393,000003BA,false,Rx,0,8,2E,2E,41,41,41,41,00,00,
-1693295654805239,000003BC,false,Rx,0,8,2E,2E,00,00,00,00,00,00,
-1693295654795383,000003BD,false,Rx,0,8,14,04,0D,00,00,00,00,00,
-1693295654785357,000003BE,false,Rx,0,8,00,00,00,81,00,00,00,00,
-1693295654725329,000003B8,false,Rx,0,8,64,00,00,00,00,00,53,12,
-1693295654715346,000003BA,false,Rx,0,8,2E,2E,41,41,41,41,00,00,
-1693295654705362,000003BC,false,Rx,0,8,2E,2E,00,00,00,00,00,00,
-1693295654695336,000003BD,false,Rx,0,8,14,04,0D,00,00,00,00,00,
-1693295654685481,000003BE,false,Rx,0,8,00,00,00,81,00,00,00,00,
-1693295654625453,000003B8,false,Rx,0,8,64,00,00,00,00,00,53,12,
-1693295654615555,000003BA,false,Rx,0,8,2E,2E,41,41,41,41,00,00,
-1693295654605529,000003BC,false,Rx,0,8,2E,2E,00,00,00,00,00,00,
-1693295654595630,000003BD,false,Rx,0,8,14,04,0D,00,00,00,00,00,
-1693295654585562,000003BE,false,Rx,0,8,00,00,00,81,00,00,00,00,
-1693295654525619,000003B8,false,Rx,0,8,64,00,00,00,00,00,53,12,
-1693295654515721,000003BA,false,Rx,0,8,2E,2E,41,41,41,41,00,00,
-1693295654505652,000003BC,false,Rx,0,8,2E,2E,00,00,00,00,00,00,
-1693295654495626,000003BD,false,Rx,0,8,14,04,0D,00,00,00,00,00,
-1693295654485685,000003BE,false,Rx,0,8,00,00,00,81,00,00,00,00,
-1693295654425700,000003B8,false,Rx,0,8,64,00,01,00,00,00,53,12,
-1693295654415887,000003BA,false,Rx,0,8,2E,2E,41,41,41,41,00,00,
-1693295654405776,000003BC,false,Rx,0,8,2E,2E,23,10,00,3C,00,00,
-1693295654395792,000003BD,false,Rx,0,8,14,04,0D,00,00,00,00,00,
-1693295654385809,000003BE,false,Rx,0,8,00,00,00,81,00,00,00,00,
-1693295654325793,000003B8,false,Rx,0,8,64,00,01,00,00,00,53,12,
-1693295654315938,000003BA,false,Rx,0,8,2E,2E,41,41,41,41,00,00,
-1693295654305997,000003BC,false,Rx,0,8,2E,2E,23,10,00,3C,00,00,
-1693295654296014,000003BD,false,Rx,0,8,14,04,0D,00,00,00,00,00,
-1693295654285860,000003BE,false,Rx,0,8,00,00,00,81,00,00,00,00,
-1693295654225362,000003B8,false,Rx,0,8,64,00,01,00,00,00,53,12,
-1693295654216147,000003BA,false,Rx,0,8,2E,2E,2F,28,32,33,00,00,
-1693295654205993,000003BC,false,Rx,0,8,2E,2E,23,10,00,3C,00,00,
-1693295654196095,000003BD,false,Rx,0,8,14,04,0D,00,00,00,00,00,
-1693295654186026,000003BE,false,Rx,0,8,00,00,00,81,00,00,00,00,
-1693295654126083,000003B8,false,Rx,0,8,64,00,01,00,00,00,53,12,
-1693295654116100,000003BA,false,Rx,0,8,2E,2E,2F,28,32,33,00,00,
-1693295654106116,000003BC,false,Rx,0,8,2E,2E,23,10,00,3C,00,00,
-1693295654096133,000003BD,false,Rx,0,8,14,04,0D,00,00,00,00,00,
-1693295654086192,000003BE,false,Rx,0,8,00,00,00,81,00,00,00,00,
-1693295654026121,000003B8,false,Rx,0,8,64,00,01,00,04,00,BA,12,
-1693295654016351,000003BA,false,Rx,0,8,2E,2E,2F,28,32,33,00,00,
-1693295654006325,000003BC,false,Rx,0,8,2E,2E,23,10,00,3C,00,00,
-1693295653996043,000003BD,false,Rx,0,8,14,04,0D,00,00,00,00,00,
-1693295653986359,000003BE,false,Rx,0,8,00,00,00,81,00,00,00,00,
-1693295653926160,000003B8,false,Rx,0,8,64,00,01,00,04,00,BA,12,
-1693295653915920,000003BA,false,Rx,0,8,2E,2E,2F,28,32,33,00,00,
-1693295653906406,000003BC,false,Rx,0,8,2E,2E,23,10,00,3C,00,00,
-1693295653896295,000003BD,false,Rx,0,8,14,04,0D,00,00,00,00,00,
-1693295653886397,000003BE,false,Rx,0,8,00,00,00,81,00,00,00,00,
-1693295653826454,000003B8,false,Rx,0,8,64,00,01,00,04,00,BA,12,
-1693295653816556,000003BA,false,Rx,0,8,2E,2E,2F,28,32,33,00,00,
-1693295653806444,000003BC,false,Rx,0,8,2E,2E,23,10,00,3C,00,00,
-1693295653796546,000003BD,false,Rx,0,8,14,04,0D,00,00,00,00,00,
-1693295653786435,000003BE,false,Rx,0,8,00,00,00,81,00,00,00,00,
-1693295653726364,000003B8,false,Rx,0,8,64,00,01,00,04,00,BA,12,
-1693295653716509,000003BA,false,Rx,0,8,2E,2E,33,2C,36,36,00,00,
-1693295653706568,000003BC,false,Rx,0,8,2E,2E,23,10,00,3C,00,00,
-1693295653696542,000003BD,false,Rx,0,8,14,04,0D,00,00,00,00,00,
-1693295653686345,000003BE,false,Rx,0,8,00,00,00,81,00,00,00,00,
-1693295653626701,000003B8,false,Rx,0,8,64,00,01,00,04,00,BA,12,
-1693295653616675,000003BA,false,Rx,0,8,2E,2E,33,2C,36,36,00,00,
-1693295653606308,000003BC,false,Rx,0,8,2E,2E,23,10,00,3C,00,00,
-1693295653596836,000003BD,false,Rx,0,8,14,04,0D,00,00,00,00,00,
-1693295653586682,000003BE,false,Rx,0,8,00,00,00,81,00,00,00,00,
-1693295653526739,000003B8,false,Rx,0,8,64,00,01,00,04,00,AF,12,
-1693295653516969,000003BA,false,Rx,0,8,2E,2E,33,2C,36,36,00,00,
-1693295653506773,000003BC,false,Rx,0,8,2E,2E,23,10,00,3C,00,00,
-1693295653496917,000003BD,false,Rx,0,8,14,04,0D,00,00,00,00,00,
-1693295653486891,000003BE,false,Rx,0,8,00,00,00,81,00,00,00,00,
-1693295653426906,000003B8,false,Rx,0,8,64,00,01,00,04,00,AF,12,
-1693295653416752,000003BA,false,Rx,0,8,2E,2E,33,2C,36,36,00,00,
-1693295653406853,000003BC,false,Rx,0,8,2E,2E,22,FC,00,3C,00,00,
-1693295653396870,000003BD,false,Rx,0,8,14,04,0D,00,00,00,00,00,
-1693295653386844,000003BE,false,Rx,0,8,00,00,00,81,00,00,00,00,
-1693295653326867,000003B8,false,Rx,0,8,64,01,01,00,04,00,AF,12,
-1693295653317097,000003BA,false,Rx,0,8,2E,2E,33,2C,36,36,00,00,
-1693295653307029,000003BC,false,Rx,0,8,2E,2E,22,FC,00,3C,00,00,
-1693295653296576,000003BD,false,Rx,0,8,14,04,0D,00,00,00,00,00,
-1693295653287019,000003BE,false,Rx,0,8,00,00,00,81,00,00,00,00,
-1693295653227119,000003B8,false,Rx,0,8,64,01,01,00,04,00,AF,1E,
-1693295653217136,000003BA,false,Rx,0,8,2E,2E,36,2E,38,39,00,00,
-1693295653207152,000003BC,false,Rx,0,8,2E,2E,22,FC,00,3C,00,00,
-1693295653197254,000003BD,false,Rx,0,8,14,04,0D,00,00,00,00,00,
-1693295653186930,000003BE,false,Rx,0,8,00,00,00,80,00,00,00,00,
-1693295653127157,000003B8,false,Rx,0,8,64,01,01,00,04,00,AF,1E,
-1693295653117302,000003BA,false,Rx,0,8,2E,2E,36,2E,38,39,00,00,
-1693295653107191,000003BC,false,Rx,0,8,2E,2E,22,FC,00,3C,00,00,
-1693295653097335,000003BD,false,Rx,0,8,14,04,0D,00,00,00,00,00,
-1693295653087266,000003BE,false,Rx,0,8,00,00,00,80,00,00,00,00,
-1693295653027366,000003B8,false,Rx,0,8,64,01,01,00,04,00,AF,1E,
-1693295653017468,000003BA,false,Rx,0,8,2E,2E,36,2E,38,39,00,00,
-1693295653007399,000003BC,false,Rx,0,8,2E,2E,22,FC,00,3C,00,00,
-1693295652997459,000003BD,false,Rx,0,8,14,04,0D,00,00,00,00,00,
-1693295652987347,000003BE,false,Rx,0,8,00,00,00,80,00,00,00,00,
-1693295652927575,000003B8,false,Rx,0,8,64,01,01,00,03,00,2C,1E,
-1693295652917634,000003BA,false,Rx,0,8,2E,2E,36,2E,38,39,00,00,
-1693295652907139,000003BC,false,Rx,0,8,2E,2E,22,FC,00,3C,00,00,
-1693295652897668,000003BD,false,Rx,0,8,14,04,0D,00,00,00,00,00,
-1693295652887599,000003BE,false,Rx,0,8,00,00,00,80,00,00,00,00,
-1693295652827485,000003B8,false,Rx,0,8,64,02,01,00,03,00,2C,1E,
-1693295652817587,000003BA,false,Rx,0,8,2E,2E,36,2E,38,39,00,00,
-1693295652807476,000003BC,false,Rx,0,8,2E,2E,22,F9,00,5F,00,00,
-1693295652797578,000003BD,false,Rx,0,8,14,04,0D,00,00,00,00,00,
-1693295652787552,000003BE,false,Rx,0,8,00,00,00,80,00,00,00,00,
-1693295652727609,000003B8,false,Rx,0,8,64,02,01,00,03,00,2C,1E,
-1693295652717583,000003BA,false,Rx,0,8,2E,2E,38,30,3A,3A,00,00,
-1693295652707685,000003BC,false,Rx,0,8,2E,2E,22,F9,00,5F,00,00,
-1693295652697616,000003BD,false,Rx,0,8,14,04,0D,00,00,00,00,00,
-1693295652687675,000003BE,false,Rx,0,8,00,00,00,80,00,00,00,00,
-1693295652627732,000003B8,false,Rx,0,8,64,02,01,00,02,00,2C,1E,
-1693295652617834,000003BA,false,Rx,0,8,2E,2E,38,30,3A,3A,00,00,
-1693295652607936,000003BC,false,Rx,0,8,2E,2E,22,F9,00,5F,00,00,
-1693295652597868,000003BD,false,Rx,0,8,14,04,0D,00,00,00,00,00,
-1693295652587842,000003BE,false,Rx,0,8,00,00,00,80,00,00,00,00,
-1693295652527685,000003B8,false,Rx,0,8,64,02,01,00,02,00,2C,1E,
-1693295652517915,000003BA,false,Rx,0,8,2E,2E,38,30,3A,3A,00,00,
-1693295652507932,000003BC,false,Rx,0,8,2E,2E,22,F9,00,5F,00,00,
-1693295652497821,000003BD,false,Rx,0,8,14,04,0D,00,00,00,00,00,
-1693295652487667,000003BE,false,Rx,0,8,00,00,00,80,00,00,00,00,
-1693295652427766,000003B8,false,Rx,0,8,64,02,01,00,02,00,2C,1E,
-1693295652417954,000003BA,false,Rx,0,8,2E,2E,39,30,3A,3B,00,00,
-1693295652407586,000003BC,false,Rx,0,8,2E,2E,22,F9,00,5F,00,00,
-1693295652398072,000003BD,false,Rx,0,8,14,04,0D,00,00,00,00,00,
-1693295652387961,000003BE,false,Rx,0,8,00,00,00,80,00,00,00,00,
-1693295652327945,000003B8,false,Rx,0,8,64,02,01,00,02,00,2F,1E,
-1693295652318005,000003BA,false,Rx,0,8,2E,2E,39,30,3A,3B,00,00,
-1693295652307893,000003BC,false,Rx,0,8,2E,2E,22,F9,00,5F,00,00,
-1693295652297867,000003BD,false,Rx,0,8,14,04,0D,00,00,00,00,00,
-1693295652287756,000003BE,false,Rx,0,8,00,00,00,80,00,00,00,00,
-1693295652227813,000003B8,false,Rx,0,8,64,02,01,00,02,00,2F,1E,
-1693295652217872,000003BA,false,Rx,0,8,2E,2E,39,30,3A,3B,00,00,
-1693295652207761,000003BC,false,Rx,0,8,2E,2E,22,F9,00,5F,00,00,
-1693295652197777,000003BD,false,Rx,0,8,14,04,0D,00,00,00,00,00,
-1693295652187751,000003BE,false,Rx,0,8,00,00,00,80,00,00,00,00,
-1693295652127766,000003B8,false,Rx,0,8,64,02,01,00,02,00,43,1E,
-1693295652117953,000003BA,false,Rx,0,8,2E,2E,39,31,3B,3B,00,00,
-1693295652107884,000003BC,false,Rx,0,8,2E,2E,22,F9,00,5F,00,00,
-1693295652097986,000003BD,false,Rx,0,8,14,04,0D,00,00,00,00,00,
-1693295652087875,000003BE,false,Rx,0,8,00,00,00,80,00,00,00,00,
-1693295652027975,000003B8,false,Rx,0,8,64,02,01,00,02,00,43,1E,
-1693295652018034,000003BA,false,Rx,0,8,2E,2E,39,31,3B,3B,00,00,
-1693295652008093,000003BC,false,Rx,0,8,2E,2E,22,F9,00,5F,00,00,
-1693295651998153,000003BD,false,Rx,0,8,14,04,0D,00,00,00,00,00,
-1693295651988041,000003BE,false,Rx,0,8,00,00,00,80,00,00,00,00,
-1693295651928056,000003B8,false,Rx,0,8,64,02,01,00,02,00,43,1E,
-1693295651918115,000003BA,false,Rx,0,8,2E,2E,3A,32,3C,3C,00,00,
-1693295651908217,000003BC,false,Rx,0,8,2E,2E,22,F9,00,5F,00,00,
-1693295651898148,000003BD,false,Rx,0,8,14,04,0D,00,00,00,00,00,
-1693295651888165,000003BE,false,Rx,0,8,00,00,00,80,00,00,00,00,
-1693295651828264,000003B8,false,Rx,0,8,64,02,01,00,02,00,4D,1E,
-1693295651818281,000003BA,false,Rx,0,8,2E,2E,3A,32,3C,3C,00,00,
-1693295651808340,000003BC,false,Rx,0,8,2E,2E,22,F9,00,5F,00,00,
-1693295651798272,000003BD,false,Rx,0,8,14,04,0D,00,00,00,00,00,
-1693295651788374,000003BE,false,Rx,0,8,00,00,00,80,00,00,00,00,
-1693295651728473,000003B8,false,Rx,0,8,64,02,01,00,02,00,4D,1E,
-1693295651718063,000003BA,false,Rx,0,8,2E,2E,3A,32,3C,3C,00,00,
-1693295651708549,000003BC,false,Rx,0,8,2E,2E,22,F0,00,5F,00,00,
-1693295651698438,000003BD,false,Rx,0,8,14,04,0D,00,00,00,00,00,
-1693295651688540,000003BE,false,Rx,0,8,00,00,00,80,00,00,00,00,
-1693295651628512,000003B8,false,Rx,0,8,64,02,01,00,02,00,4D,1E,
-1693295651618614,000003BA,false,Rx,0,8,2E,2E,3A,32,3C,3C,00,00,
-1693295651608716,000003BC,false,Rx,0,8,2E,2E,22,F0,00,5F,00,00,
-1693295651598689,000003BD,false,Rx,0,8,14,04,0D,00,00,00,00,00,
-1693295651588706,000003BE,false,Rx,0,8,00,00,00,80,00,00,00,00,
-1693295651528379,000003B8,false,Rx,0,8,64,02,01,00,02,00,52,1E,
-1693295651518694,000003BA,false,Rx,0,8,2E,2E,3A,32,3C,3C,00,00,
-1693295651508754,000003BC,false,Rx,0,8,2E,2E,22,F0,00,5F,00,00,
-1693295651498728,000003BD,false,Rx,0,8,14,04,0D,00,00,00,00,00,
-1693295651488360,000003BE,false,Rx,0,8,00,00,00,80,00,00,00,00,
-1693295651428801,000003B8,false,Rx,0,8,64,02,01,00,02,00,52,1E,
-1693295651418946,000003BA,false,Rx,0,8,2E,2E,3A,32,3C,3C,00,00,
-1693295651408877,000003BC,false,Rx,0,8,2E,2E,22,E2,00,5F,00,00,
-1693295651398937,000003BD,false,Rx,0,8,14,04,0D,00,00,00,00,00,
-1693295651388953,000003BE,false,Rx,0,8,00,00,00,80,00,00,00,00,
-1693295651328852,000003B8,false,Rx,0,8,64,02,01,00,02,00,52,1E,
-1693295651318954,000003BA,false,Rx,0,8,2E,2E,3B,32,3C,3C,00,00,
-1693295651309056,000003BC,false,Rx,0,8,2E,2E,22,E2,00,5F,00,00,
-1693295651298689,000003BD,false,Rx,0,8,14,04,0D,00,00,00,00,00,
-1693295651288962,000003BE,false,Rx,0,8,00,00,00,80,00,00,00,00,
-1693295651229061,000003B8,false,Rx,0,8,64,02,01,00,02,00,57,1E,
-1693295651219121,000003BA,false,Rx,0,8,2E,2E,3B,32,3C,3C,00,00,
-1693295651209180,000003BC,false,Rx,0,8,2E,2E,22,E1,00,5F,00,00,
-1693295651199154,000003BD,false,Rx,0,8,14,04,0D,00,00,00,00,00,
-1693295651189085,000003BE,false,Rx,0,8,00,00,00,80,00,00,00,00,
-1693295651129099,000003B8,false,Rx,0,8,64,02,01,00,02,00,57,1E,
-1693295651119159,000003BA,false,Rx,0,8,2E,2E,3B,32,3C,3C,00,00,
-1693295651108749,000003BC,false,Rx,0,8,2E,2E,22,E1,00,5F,00,00,
-1693295651099363,000003BD,false,Rx,0,8,14,04,0D,00,00,00,00,00,
-1693295651089251,000003BE,false,Rx,0,8,00,00,00,80,00,00,00,00,
-1693295651029394,000003B8,false,Rx,0,8,64,02,01,00,02,00,57,1E,
-1693295651019282,000003BA,false,Rx,0,8,2E,2E,3B,32,3C,3D,00,00,
-1693295651009256,000003BC,false,Rx,0,8,2E,2E,22,E1,00,5F,00,00,
-1693295650999316,000003BD,false,Rx,0,8,14,04,0D,00,00,00,00,00,
-1693295650989247,000003BE,false,Rx,0,8,00,00,00,80,00,00,00,00,
-1693295650929389,000003B8,false,Rx,0,8,64,02,01,00,02,00,57,1E,
-1693295650919150,000003BA,false,Rx,0,8,2E,2E,3B,32,3C,3D,00,00,
-1693295650909508,000003BC,false,Rx,0,8,2E,2E,22,E1,00,5F,00,00,
-1693295650899525,000003BD,false,Rx,0,8,14,04,0D,00,00,00,00,00,
-1693295650889541,000003BE,false,Rx,0,8,00,00,00,80,00,00,00,00,
-1693295650829385,000003B8,false,Rx,0,8,64,02,01,00,02,00,57,1E,
-1693295650819572,000003BA,false,Rx,0,8,2E,2E,3B,33,3D,3D,00,00,
-1693295650809631,000003BC,false,Rx,0,8,2E,2E,22,E1,00,5F,00,00,
-1693295650799563,000003BD,false,Rx,0,8,14,04,0D,00,00,00,00,00,
-1693295650789622,000003BE,false,Rx,0,8,00,00,00,80,00,00,00,00,
-1693295650729466,000003B8,false,Rx,0,8,64,02,01,00,02,00,57,1E,
-1693295650719738,000003BA,false,Rx,0,8,2E,2E,3B,33,3D,3D,00,00,
-1693295650709627,000003BC,false,Rx,0,8,2E,2E,22,E1,00,5F,00,00,
-1693295650699686,000003BD,false,Rx,0,8,14,04,0D,00,00,00,00,00,
-1693295650689404,000003BE,false,Rx,0,8,00,00,00,80,00,00,00,00,
-1693295650629632,000003B8,false,Rx,0,8,64,02,01,00,02,00,57,1E,
-1693295650619691,000003BA,false,Rx,0,8,2E,2E,3B,33,3D,3D,00,00,
-1693295650609751,000003BC,false,Rx,0,8,2E,2E,22,E1,00,5F,00,00,
-1693295650599853,000003BD,false,Rx,0,8,14,04,0D,00,00,00,00,00,
-1693295650589699,000003BE,false,Rx,0,8,00,00,00,80,00,00,00,00,
-1693295650529713,000003B8,false,Rx,0,8,64,02,01,00,02,00,57,1E,
-1693295650519858,000003BA,false,Rx,0,8,2E,2E,3B,33,3D,3D,00,00,
-1693295650509874,000003BC,false,Rx,0,8,2E,2E,22,E1,00,5F,00,00,
-1693295650499379,000003BD,false,Rx,0,8,14,04,0D,00,00,00,00,00,
-1693295650489822,000003BE,false,Rx,0,8,00,00,00,80,00,00,00,00,
-1693295650429666,000003B8,false,Rx,0,8,64,02,01,00,02,00,57,1E,
-1693295650419981,000003BA,false,Rx,0,8,2E,2E,3B,33,3D,3D,00,00,
-1693295650410040,000003BC,false,Rx,0,8,2E,2E,22,E1,00,5F,00,00,
-1693295650400142,000003BD,false,Rx,0,8,14,04,0D,00,00,00,00,00,
-1693295650389562,000003BE,false,Rx,0,8,00,00,00,80,00,00,00,00,
-1693295650329997,000003B8,false,Rx,0,8,64,02,01,00,02,00,57,1E,
-1693295650320099,000003BA,false,Rx,0,8,2E,2E,3B,33,3D,3D,00,00,
-1693295650310158,000003BC,false,Rx,0,8,2E,2E,22,E1,00,5F,00,00,
-1693295650300218,000003BD,false,Rx,0,8,14,04,0D,00,00,00,00,00,
-1693295650290192,000003BE,false,Rx,0,8,00,00,00,80,00,00,00,00,
-1693295650229993,000003B8,false,Rx,0,8,64,02,01,00,02,00,57,1E,
-1693295650220095,000003BA,false,Rx,0,8,2E,2E,3C,33,3D,3D,00,00,
-1693295650210154,000003BC,false,Rx,0,8,2E,2E,22,E1,00,5F,00,00,
-1693295650200213,000003BD,false,Rx,0,8,14,04,0D,00,00,00,00,00,
-1693295650190230,000003BE,false,Rx,0,8,00,00,00,80,00,00,00,00,
-1693295650129903,000003B8,false,Rx,0,8,64,02,01,00,02,00,59,1E,
-1693295650120176,000003BA,false,Rx,0,8,2E,2E,3C,33,3D,3D,00,00,
-1693295650110235,000003BC,false,Rx,0,8,2E,2E,22,E1,00,5F,00,00,
-1693295650100294,000003BD,false,Rx,0,8,14,04,0D,00,00,00,00,00,
-1693295650090225,000003BE,false,Rx,0,8,00,00,00,80,00,00,00,00,
-1693295650030325,000003B8,false,Rx,0,8,64,02,01,00,02,00,59,1E,
-1693295650020171,000003BA,false,Rx,0,8,2E,2E,3C,33,3D,3D,00,00,
-1693295650010401,000003BC,false,Rx,0,8,2E,2E,22,E1,00,5F,00,00,
-1693295650000460,000003BD,false,Rx,0,8,14,04,0D,00,00,00,00,00,
-1693295649990392,000003BE,false,Rx,0,8,00,00,00,80,00,00,00,00,
-1693295649930406,000003B8,false,Rx,0,8,64,02,01,00,02,00,59,1E,
-1693295649920465,000003BA,false,Rx,0,8,2E,2E,3C,33,3D,3D,00,00,
-1693295649910311,000003BC,false,Rx,0,8,2E,2E,22,E1,00,5F,00,00,
-1693295649900499,000003BD,false,Rx,0,8,14,04,0D,00,00,00,00,00,
-1693295649890515,000003BE,false,Rx,0,8,00,00,00,80,00,00,00,00,
-1693295649830572,000003B8,false,Rx,0,8,64,02,01,00,02,02,7F,1E,
-1693295649820632,000003BA,false,Rx,0,8,2E,2E,3C,33,3D,3D,00,00,
-1693295649810563,000003BC,false,Rx,0,8,2E,2E,22,E0,00,5F,00,00,
-1693295649800622,000003BD,false,Rx,0,8,14,04,0D,00,00,00,00,00,
-1693295649790681,000003BE,false,Rx,0,8,00,00,00,80,00,00,00,00,
-1693295649730696,000003B8,false,Rx,0,8,64,02,01,00,02,02,7F,1E,
-1693295649720286,000003BA,false,Rx,0,8,2E,2E,3C,33,3D,3D,00,00,
-1693295649710729,000003BC,false,Rx,0,8,2E,2E,22,E0,00,5F,00,00,
-1693295649700831,000003BD,false,Rx,0,8,14,04,0D,00,00,00,00,00,
-1693295649690848,000003BE,false,Rx,0,8,00,00,00,80,00,00,00,00,
-1693295649630862,000003B8,false,Rx,0,8,64,02,01,00,02,07,96,1E,
-1693295649621007,000003BA,false,Rx,0,8,2E,2E,3C,33,3D,3D,00,00,
-1693295649611023,000003BC,false,Rx,0,8,2E,2E,22,E0,00,5F,00,00,
-1693295649600912,000003BD,false,Rx,0,8,14,04,0D,00,00,00,00,00,
-1693295649590971,000003BE,false,Rx,0,8,00,00,00,80,00,00,00,00,
-1693295649530900,000003B8,false,Rx,0,8,64,02,01,00,02,07,96,1E,
-1693295649520917,000003BA,false,Rx,0,8,2E,2E,3C,33,3D,3D,00,00,
-1693295649511019,000003BC,false,Rx,0,8,2E,2E,22,D2,00,5F,00,00,
-1693295649500694,000003BD,false,Rx,0,8,14,04,0D,00,00,00,00,00,
-1693295649490967,000003BE,false,Rx,0,8,00,00,00,80,00,00,00,00,
-1693295649430981,000003B8,false,Rx,0,8,64,02,01,00,02,07,96,1E,
-1693295649421126,000003BA,false,Rx,0,8,2E,2E,3C,33,3D,3D,00,00,
-1693295649411143,000003BC,false,Rx,0,8,2E,2E,22,D2,00,5F,00,00,
-1693295649401074,000003BD,false,Rx,0,8,14,04,0D,00,00,00,00,00,
-1693295649391133,000003BE,false,Rx,0,8,00,00,00,80,00,00,00,00,
-1693295649331118,000003B8,false,Rx,0,8,64,02,01,00,02,0C,D5,1E,
-1693295649321262,000003BA,false,Rx,0,8,2E,2E,3C,33,3D,3D,00,00,
-1693295649311321,000003BC,false,Rx,0,8,2E,2E,22,D2,00,5F,00,00,
-1693295649301210,000003BD,false,Rx,0,8,14,04,0D,00,00,00,00,00,
-1693295649291269,000003BE,false,Rx,0,8,00,00,00,80,00,00,00,00,
-1693295649231284,000003B8,false,Rx,0,8,64,02,01,00,02,0C,D5,1E,
-1693295649221386,000003BA,false,Rx,0,8,2E,2E,3C,33,3D,3D,00,00,
-1693295649211488,000003BC,false,Rx,0,8,2E,2E,22,CA,00,5F,00,00,
-1693295649200950,000003BD,false,Rx,0,8,14,04,0D,00,00,00,00,00,
-1693295649191393,000003BE,false,Rx,0,8,00,00,00,80,00,00,00,00,
-1693295649131237,000003B8,false,Rx,0,8,64,02,01,00,02,0C,D5,1E,
-1693295649121552,000003BA,false,Rx,0,8,2E,2E,3C,33,3D,3D,00,00,
-1693295649111569,000003BC,false,Rx,0,8,2E,2E,22,CA,00,5F,00,00,
-1693295649101457,000003BD,false,Rx,0,8,14,04,0D,00,00,00,00,00,
-1693295649091047,000003BE,false,Rx,0,8,00,00,00,80,00,00,00,00,
-1693295649031488,000003B8,false,Rx,0,8,64,02,01,00,02,11,C2,1E,
-1693295649021633,000003BA,false,Rx,0,8,2E,2E,3C,33,3D,3D,00,00,
-1693295649011650,000003BC,false,Rx,0,8,2E,2E,22,CA,00,5F,00,00,
-1693295649001495,000003BD,false,Rx,0,8,14,04,0D,00,00,00,00,00,
-1693295648991555,000003BE,false,Rx,0,8,00,00,00,80,00,00,00,00,
-1693295648931484,000003B8,false,Rx,0,8,64,02,01,00,02,11,C2,1E,
-1693295648921586,000003BA,false,Rx,0,8,2E,2E,3C,33,3D,3D,00,00,
-1693295648911602,000003BC,false,Rx,0,8,2E,2E,22,CA,00,5F,00,00,
-1693295648901576,000003BD,false,Rx,0,8,14,04,0D,00,00,00,00,00,
-1693295648891678,000003BE,false,Rx,0,8,00,00,00,80,00,00,00,00,
-1693295648831266,000003B8,false,Rx,0,8,64,02,01,00,02,11,C2,1E,
-1693295648821709,000003BA,false,Rx,0,8,2E,2E,3C,33,3D,3D,00,00,
-1693295648811726,000003BC,false,Rx,0,8,2E,2E,22,CA,00,5F,00,00,
-1693295648801700,000003BD,false,Rx,0,8,14,04,0D,00,00,00,00,00,
-1693295648791759,000003BE,false,Rx,0,8,00,00,00,80,00,00,00,00,
-1693295648731859,000003B8,false,Rx,0,8,64,02,01,00,02,16,53,1E,
-1693295648721492,000003BA,false,Rx,0,8,2E,2E,3C,33,3D,3D,00,00,
-1693295648712020,000003BC,false,Rx,0,8,2E,2E,22,C9,00,5F,00,00,
-1693295648701952,000003BD,false,Rx,0,8,14,04,0D,00,00,00,00,00,
-1693295648691925,000003BE,false,Rx,0,8,00,00,00,80,00,00,00,00,
-1693295648631727,000003B8,false,Rx,0,8,64,02,01,00,02,16,53,1E,
-1693295648621871,000003BA,false,Rx,0,8,2E,2E,3C,33,3D,3D,00,00,
-1693295648611589,000003BC,false,Rx,0,8,2E,2E,22,C9,00,5F,00,00,
-1693295648601862,000003BD,false,Rx,0,8,14,04,0D,00,00,00,00,00,
-1693295648591878,000003BE,false,Rx,0,8,00,00,00,80,00,00,00,00,
-1693295648531893,000003B8,false,Rx,0,8,64,02,01,00,02,1B,76,1E,
-1693295648522080,000003BA,false,Rx,0,8,2E,2E,3C,33,3D,3D,00,00,
-1693295648512097,000003BC,false,Rx,0,8,2E,2E,22,C9,00,5F,00,00,
-1693295648501985,000003BD,false,Rx,0,8,14,04,0D,00,00,00,00,00,
-1693295648492045,000003BE,false,Rx,0,8,00,00,00,80,00,00,00,00,
-1693295648431974,000003B8,false,Rx,0,8,64,02,01,00,02,1B,76,1E,
-1693295648422118,000003BA,false,Rx,0,8,2E,2E,3C,33,3D,3D,00,00,
-1693295648411964,000003BC,false,Rx,0,8,2E,2E,22,C9,00,5F,00,00,
-1693295648402024,000003BD,false,Rx,0,8,14,04,0D,00,00,00,00,00,
-1693295648392083,000003BE,false,Rx,0,8,00,00,00,80,00,00,00,00,
-1693295648331898,000003B8,false,Rx,0,8,64,02,01,00,02,1B,76,1E,
-1693295648321957,000003BA,false,Rx,0,8,2E,2E,3C,33,3D,3D,00,00,
-1693295648311846,000003BC,false,Rx,0,8,2E,2E,22,C9,00,5F,00,00,
-1693295648302161,000003BD,false,Rx,0,8,14,04,0D,00,00,00,00,00,
-1693295648292007,000003BE,false,Rx,0,8,00,00,00,80,00,00,00,00,
-1693295648231851,000003B8,false,Rx,0,8,64,02,01,00,02,1E,66,1E,
-1693295648221953,000003BA,false,Rx,0,8,2E,2E,3C,33,3D,3D,00,00,
-1693295648212012,000003BC,false,Rx,0,8,2E,2E,22,C9,00,5F,00,00,
-1693295648202114,000003BD,false,Rx,0,8,14,04,0D,00,00,00,00,00,
-1693295648192002,000003BE,false,Rx,0,8,00,00,00,80,00,00,00,00,
-1693295648131974,000003B8,false,Rx,0,8,64,02,01,00,02,1E,66,1E,
-1693295648121735,000003BA,false,Rx,0,8,2E,2E,3C,33,3D,3D,00,00,
-1693295648112221,000003BC,false,Rx,0,8,2E,2E,22,C4,00,7E,00,00,
-1693295648102109,000003BD,false,Rx,0,8,14,04,0D,00,00,00,00,00,
-1693295648092126,000003BE,false,Rx,0,8,00,00,00,80,00,00,00,00,
-1693295648032226,000003B8,false,Rx,0,8,64,02,01,00,02,1E,66,1E,
-1693295648022328,000003BA,false,Rx,0,8,2E,2E,3C,33,3D,3D,00,00,
-1693295648012003,000003BC,false,Rx,0,8,2E,2E,22,C4,00,7E,00,00,
-1693295648002318,000003BD,false,Rx,0,8,14,04,0D,00,00,00,00,00,
-1693295647992292,000003BE,false,Rx,0,8,00,00,00,80,00,00,00,00,
-1693295647932093,000003B8,false,Rx,0,8,64,02,01,00,02,22,F3,1E,
-1693295647922238,000003BA,false,Rx,0,8,2E,2E,3C,33,3D,3D,00,00,
-1693295647912212,000003BC,false,Rx,0,8,2E,2E,22,C4,00,7E,00,00,
-1693295647902229,000003BD,false,Rx,0,8,14,04,0D,00,00,00,00,00,
-1693295647892117,000003BE,false,Rx,0,8,00,00,00,80,00,00,00,00,
-1693295647832260,000003B8,false,Rx,0,8,64,02,01,00,02,22,F3,1E,
-1693295647821807,000003BA,false,Rx,0,8,2E,2E,3C,33,3D,3D,00,00,
-1693295647812250,000003BC,false,Rx,0,8,2E,2E,22,B7,00,7E,00,00,
-1693295647802267,000003BD,false,Rx,0,8,14,04,0D,00,00,00,00,00,
-1693295647792113,000003BE,false,Rx,0,8,00,00,00,80,00,00,00,00,
-1693295647732212,000003B8,false,Rx,0,8,64,02,01,00,02,22,F3,1E,
-1693295647722229,000003BA,false,Rx,0,8,2E,2E,3C,33,3D,3D,00,00,
-1693295647711862,000003BC,false,Rx,0,8,2E,2E,22,B7,00,7E,00,00,
-1693295647702220,000003BD,false,Rx,0,8,14,04,0D,00,00,00,00,00,
-1693295647692066,000003BE,false,Rx,0,8,00,00,00,80,00,00,00,00,
-1693295647632165,000003B8,false,Rx,0,8,64,02,01,00,02,27,86,1E,
-1693295647622225,000003BA,false,Rx,0,8,2E,2E,3C,33,3D,3D,00,00,
-1693295647612241,000003BC,false,Rx,0,8,2E,2E,22,B2,00,7E,00,00,
-1693295647602215,000003BD,false,Rx,0,8,14,04,0D,00,00,00,00,00,
-1693295647592232,000003BE,false,Rx,0,8,00,00,00,80,00,00,00,00,
-1693295647532374,000003B8,false,Rx,0,8,64,02,01,00,02,27,86,1E,
-1693295647522263,000003BA,false,Rx,0,8,2E,2E,3C,33,3D,3D,00,00,
-1693295647512450,000003BC,false,Rx,0,8,2E,2E,22,B2,00,7E,00,00,
-1693295647502467,000003BD,false,Rx,0,8,14,04,0D,00,00,00,00,00,
-1693295647492313,000003BE,false,Rx,0,8,00,00,00,80,00,00,00,00,
-1693295647432541,000003B8,false,Rx,0,8,64,02,01,00,02,27,86,1E,
-1693295647422344,000003BA,false,Rx,0,8,2E,2E,3C,33,3D,3D,00,00,
-1693295647412659,000003BC,false,Rx,0,8,2E,2E,22,B2,00,7E,00,00,
-1693295647402249,000003BD,false,Rx,0,8,14,04,0D,00,00,00,00,00,
-1693295647392564,000003BE,false,Rx,0,8,00,00,00,80,00,00,00,00,
-1693295647332506,000003B8,false,Rx,0,8,64,02,01,00,03,2C,A4,1E,
-1693295647322395,000003BA,false,Rx,0,8,2E,2E,3C,33,3D,3D,00,00,
-1693295647312667,000003BC,false,Rx,0,8,2E,2E,22,B2,00,7E,00,00,
-1693295647302513,000003BD,false,Rx,0,8,14,04,0D,00,00,00,00,00,
-1693295647292658,000003BE,false,Rx,0,8,00,00,00,80,00,00,00,00,
-1693295647232672,000003B8,false,Rx,0,8,64,02,01,00,03,2C,A4,1E,
-1693295647222646,000003BA,false,Rx,0,8,2E,2E,3D,33,3D,3D,00,00,
-1693295647212791,000003BC,false,Rx,0,8,2E,2E,22,B2,00,7E,00,00,
-1693295647202594,000003BD,false,Rx,0,8,14,04,0D,00,00,00,00,00,
-1693295647192568,000003BE,false,Rx,0,8,00,00,00,80,00,00,00,00,
-1693295647132839,000003B8,false,Rx,0,8,64,02,01,00,03,30,FE,1E,
-1693295647122642,000003BA,false,Rx,0,8,2E,2E,3D,33,3D,3D,00,00,
-1693295647112957,000003BC,false,Rx,0,8,2E,2E,22,B2,00,7E,00,00,
-1693295647102632,000003BD,false,Rx,0,8,14,04,0D,00,00,00,00,00,
-1693295647092948,000003BE,false,Rx,0,8,00,00,00,80,00,00,00,00,
-1693295647032962,000003B8,false,Rx,0,8,64,02,01,00,03,30,FE,1E,
-1693295647022808,000003BA,false,Rx,0,8,2E,2E,3D,33,3D,3D,00,00,
-1693295647013081,000003BC,false,Rx,0,8,2E,2E,22,B2,00,7E,00,00,
-1693295647002244,000003BD,false,Rx,0,8,14,04,0D,00,00,00,00,00,
-1693295646993071,000003BE,false,Rx,0,8,00,00,00,80,00,00,00,00,
-1693295646932446,000003B8,false,Rx,0,8,64,02,01,00,03,30,FE,1E,
-1693295646922932,000003BA,false,Rx,0,8,2E,2E,3D,33,3D,3D,00,00,
-1693295646913119,000003BC,false,Rx,0,8,2E,2E,22,B2,00,7E,00,00,
-1693295646902624,000003BD,false,Rx,0,8,14,04,0D,00,00,00,00,00,
-1693295646893195,000003BE,false,Rx,0,8,00,00,00,80,00,00,00,00,
-1693295646833209,000003B8,false,Rx,0,8,64,02,01,00,03,35,0F,1E,
-1693295646822586,000003BA,false,Rx,0,8,2E,2E,3D,33,3D,3D,00,00,
-1693295646813328,000003BC,false,Rx,0,8,2E,2E,22,B2,00,7E,00,00,
-1693295646802662,000003BD,false,Rx,0,8,14,04,0D,00,00,00,00,00,
-1693295646793233,000003BE,false,Rx,0,8,00,00,00,80,00,00,00,00,
-1693295646733248,000003B8,false,Rx,0,8,64,02,01,00,03,35,0F,1E,
-1693295646723094,000003BA,false,Rx,0,8,2E,2E,3D,33,3D,3D,00,00,
-1693295646713110,000003BC,false,Rx,0,8,2E,2E,22,B2,00,7E,00,00,
-1693295646702359,000003BD,false,Rx,0,8,14,04,0D,00,00,00,00,00,
-1693295646693186,000003BE,false,Rx,0,8,00,00,00,80,00,00,00,00,
-1693295646632945,000003B8,false,Rx,0,8,64,02,01,00,03,35,0F,1E,
-1693295646522231,000003B8,false,Rx,0,8,64,02,01,00,03,38,9A,1E,
-1693295646513016,000003BC,false,Rx,0,8,64,02,22,B2,00,9C,00,00,
-1693295646502350,000003BD,false,Rx,0,8,14,04,0D,00,00,00,00,00,
-1693295646493391,000003BE,false,Rx,0,8,00,00,00,80,00,00,00,00,
-1693295646433277,000003B8,false,Rx,0,8,64,02,02,00,03,38,9A,1E,
-1693295646423166,000003BA,false,Rx,0,8,2E,2E,3D,33,3D,3D,00,00,
-1693295646413353,000003BC,false,Rx,0,8,2E,2E,22,B2,00,9C,00,00,
-1693295646402246,000003BD,false,Rx,0,8,14,04,0D,00,00,00,00,00,
-1693295646393343,000003BE,false,Rx,0,8,00,00,00,80,00,00,00,00,
-1693295646333541,000003B8,false,Rx,0,8,64,02,02,00,03,3D,3F,1E,
-1693295646322577,000003BA,false,Rx,0,8,2E,2E,3D,33,3D,3D,00,00,
-1693295646313361,000003BC,false,Rx,0,8,2E,2E,22,B2,00,9C,00,00,
-1693295646302311,000003BD,false,Rx,0,8,14,04,0D,00,00,00,00,00,
-1693295646293565,000003BE,false,Rx,0,8,00,00,00,80,00,00,00,00,
-1693295646233494,000003B8,false,Rx,0,8,64,02,02,00,03,3D,3F,1E,
-1693295646222785,000003BA,false,Rx,0,8,2E,2E,3D,33,3D,3D,00,00,
-1693295646213655,000003BC,false,Rx,0,8,2E,2E,22,9E,00,9C,00,00,
-1693295646101236,000003B8,false,Rx,0,8,64,02,02,00,03,3D,3F,1E,
-1693295646093300,000003BE,false,Rx,0,8,00,00,00,80,00,00,00,00,
-1693295646033613,000003B8,false,Rx,0,8,64,02,02,00,03,3E,8D,1E,
-1693295646021539,000003BA,false,Rx,0,8,2E,2E,3D,33,3D,3D,00,00,
-1693295646013817,000003BC,false,Rx,0,8,2E,2E,22,9E,00,9C,00,00,
-1693295646001615,000003BD,false,Rx,0,8,14,04,0D,00,00,00,00,00,
-1693295645993680,000003BE,false,Rx,0,8,00,00,00,80,00,00,00,00,
-1693295645933566,000003B8,false,Rx,0,8,64,02,02,00,03,3E,8D,1E,
-1693295645921450,000003BA,false,Rx,0,8,2E,2E,3D,33,3D,3D,00,00,
-1693295645913898,000003BC,false,Rx,0,8,2E,2E,22,9D,00,9C,00,00,
-1693295645901654,000003BD,false,Rx,0,8,14,04,0D,00,00,00,00,00,
-1693295645893889,000003BE,false,Rx,0,8,00,00,00,80,00,00,00,00,
-1693295645833519,000003B8,false,Rx,0,8,64,02,02,00,03,3E,8D,1E,
-1693295645821531,000003BA,false,Rx,0,8,2E,2E,3D,33,3D,3D,00,00,
-1693295645813595,000003BC,false,Rx,0,8,2E,2E,22,9D,00,9C,00,00,
-1693295645801436,000003BD,false,Rx,0,8,14,04,0D,00,00,00,00,00,
-1693295645793500,000003BE,false,Rx,0,8,00,00,00,80,00,00,00,00,
-1693295645733941,000003B8,false,Rx,0,8,64,02,02,00,03,3E,A9,1E,
-1693295645721569,000003BA,false,Rx,0,8,2E,2E,3D,33,3D,3D,00,00,
-1693295645713975,000003BC,false,Rx,0,8,2E,2E,22,9D,00,9C,00,00,
-1693295645701559,000003BD,false,Rx,0,8,14,04,0D,00,00,00,00,00,
-1693295645693965,000003BE,false,Rx,0,8,00,00,00,80,00,00,00,00,
-1693295645634022,000003B8,false,Rx,0,8,64,02,02,00,03,3E,A9,1E,
-1693295645621906,000003BA,false,Rx,0,8,2E,2E,3D,33,3D,3D,00,00,
-1693295645614098,000003BC,false,Rx,0,8,2E,2E,22,9B,00,9C,00,00,
-1693295645501849,000003B8,false,Rx,0,8,64,02,02,00,03,3E,BD,1E,
-1693295645494042,000003BE,false,Rx,0,8,00,00,00,80,00,00,00,00,
-1693295645434099,000003B8,false,Rx,0,8,64,02,02,00,03,3E,BD,1E,
-1693295645421684,000003BA,false,Rx,0,8,2E,2E,3D,33,3D,3D,00,00,
-1693295645414260,000003BC,false,Rx,0,8,2E,2E,22,9B,00,9C,00,00,
-1693295645401503,000003BD,false,Rx,0,8,14,04,0D,00,00,00,00,00,
-1693295645394293,000003BE,false,Rx,0,8,00,00,00,80,00,00,00,00,
-1693295645334257,000003B8,false,Rx,0,8,64,02,02,00,03,3E,BD,1E,
-1693295645321500,000003BA,false,Rx,0,8,2E,2E,3D,33,3D,3D,00,00,
-1693295645314504,000003BC,false,Rx,0,8,2E,2E,22,9B,00,9C,00,00,
-1693295645301960,000003BD,false,Rx,0,8,14,04,0D,00,00,00,00,00,
-1693295645294366,000003BE,false,Rx,0,8,00,00,00,80,00,00,00,00,
-1693295645234551,000003B8,false,Rx,0,8,64,02,02,00,03,3E,BD,1E,
-1693295645221624,000003BA,false,Rx,0,8,2E,2E,3D,33,3D,3D,00,00,
-1693295645214542,000003BC,false,Rx,0,8,2E,2E,22,9B,00,9C,00,00,
-1693295645201743,000003BD,false,Rx,0,8,14,04,0D,00,00,00,00,00,
-1693295645194404,000003BE,false,Rx,0,8,00,00,00,80,00,00,00,00,
-1693295645134547,000003B8,false,Rx,0,8,64,02,02,00,03,3E,CF,1E,
-1693295645124649,000003BA,false,Rx,0,8,2E,2E,3D,33,3D,3D,00,00,
-1693295645114196,000003BC,false,Rx,0,8,2E,2E,22,9B,00,9C,00,00,
-1693295645104682,000003BD,false,Rx,0,8,14,04,0D,00,00,00,00,00,
-1693295645094571,000003BE,false,Rx,0,8,00,00,00,80,00,00,00,00,
-1693295645034628,000003B8,false,Rx,0,8,64,02,02,00,03,3E,CF,1E,
-1693295645024644,000003BA,false,Rx,0,8,2E,2E,3D,33,3D,3D,00,00,
-1693295645014704,000003BC,false,Rx,0,8,2E,2E,22,9B,00,9C,00,00,
-1693295645004635,000003BD,false,Rx,0,8,14,04,0D,00,00,00,00,00,
-1693295644994694,000003BE,false,Rx,0,8,00,00,00,80,00,00,00,00,
-1693295644934709,000003B8,false,Rx,0,8,64,02,02,00,03,3E,D5,1E,
-1693295644924469,000003BA,false,Rx,0,8,2E,2E,3D,33,3D,3D,00,00,
-1693295644914742,000003BC,false,Rx,0,8,2E,2E,22,9B,00,9C,00,00,
-1693295644904844,000003BD,false,Rx,0,8,14,04,0D,00,00,00,00,00,
-1693295644894903,000003BE,false,Rx,0,8,00,00,00,80,00,00,00,00,
-1693295644834918,000003B8,false,Rx,0,8,64,02,02,00,03,3E,D5,1E,
-1693295644825020,000003BA,false,Rx,0,8,2E,2E,3D,33,3D,3D,00,00,
-1693295644814951,000003BC,false,Rx,0,8,2E,2E,22,9B,00,9C,00,00,
-1693295644804882,000003BD,false,Rx,0,8,14,04,0D,00,00,00,00,00,
-1693295644794899,000003BE,false,Rx,0,8,00,00,00,80,00,00,00,00,
-1693295644734742,000003B8,false,Rx,0,8,64,02,02,00,03,3E,D5,1E,
-1693295644725058,000003BA,false,Rx,0,8,2E,2E,3D,33,3D,3D,00,00,
-1693295644715117,000003BC,false,Rx,0,8,2E,2E,22,9B,00,9C,00,00,
-1693295644705091,000003BD,false,Rx,0,8,14,04,0D,00,00,00,00,00,
-1693295644694724,000003BE,false,Rx,0,8,00,00,00,80,00,00,00,00,
-1693295644635079,000003B8,false,Rx,0,8,64,02,02,00,03,3E,1A,1E,
-1693295644625224,000003BA,false,Rx,0,8,2E,2E,3D,33,3D,3D,00,00,
-1693295644615155,000003BC,false,Rx,0,8,2E,2E,22,9B,00,9C,00,00,
-1693295644605215,000003BD,false,Rx,0,8,14,04,0D,00,00,00,00,00,
-1693295644595146,000003BE,false,Rx,0,8,00,00,00,80,00,00,00,00,
-1693295644534290,000003B8,false,Rx,0,8,64,02,02,00,03,3E,1A,1E,
-1693295644525390,000003BA,false,Rx,0,8,2E,2E,3D,33,3D,3D,00,00,
-1693295644515279,000003BC,false,Rx,0,8,2E,2E,22,9B,00,9C,00,00,
-1693295644505125,000003BD,false,Rx,0,8,14,04,0D,00,00,00,00,00,
-1693295644495184,000003BE,false,Rx,0,8,00,00,00,80,00,00,00,00,
-1693295644435241,000003B8,false,Rx,0,8,64,02,02,00,03,3E,1A,1E,
-1693295644424917,000003BA,false,Rx,0,8,2E,2E,3D,33,3D,3D,00,00,
-1693295644415360,000003BC,false,Rx,0,8,2E,2E,22,9B,00,9C,00,00,
-1693295644405334,000003BD,false,Rx,0,8,14,04,0D,00,00,00,00,00,
-1693295644395265,000003BE,false,Rx,0,8,00,00,00,80,00,00,00,00,
-1693295644335388,000003B8,false,Rx,0,8,64,02,02,00,03,3C,C5,1E,
-1693295644325490,000003BA,false,Rx,0,8,2E,2E,3D,33,3D,3D,00,00,
-1693295644315336,000003BC,false,Rx,0,8,2E,2E,22,9B,00,9C,00,00,
-1693295644305523,000003BD,false,Rx,0,8,14,04,0D,00,00,00,00,00,
-1693295644295583,000003BE,false,Rx,0,8,00,00,00,80,00,00,00,00,
-1693295644235298,000003B8,false,Rx,0,8,64,02,02,00,03,3C,C5,1E,
-1693295644225443,000003BA,false,Rx,0,8,2E,2E,3D,33,3D,3D,00,00,
-1693295644215417,000003BC,false,Rx,0,8,2E,2E,22,9B,00,9C,00,00,
-1693295644205434,000003BD,false,Rx,0,8,14,04,0D,00,00,00,00,00,
-1693295644195536,000003BE,false,Rx,0,8,00,00,00,80,00,00,00,00,
-1693295644135593,000003B8,false,Rx,0,8,64,02,02,00,03,3C,C5,1E,
-1693295644125652,000003BA,false,Rx,0,8,2E,2E,3D,33,3D,3D,00,00,
-1693295644115541,000003BC,false,Rx,0,8,2E,2E,22,9B,00,9C,00,00,
-1693295644105642,000003BD,false,Rx,0,8,14,04,0D,00,00,00,00,00,
-1693295644095659,000003BE,false,Rx,0,8,00,00,00,80,00,00,00,00,
-1693295644035588,000003B8,false,Rx,0,8,64,02,01,00,03,3A,EB,1E,
-1693295644025733,000003BA,false,Rx,0,8,2E,2E,3D,33,3D,3D,00,00,
-1693295644015792,000003BC,false,Rx,0,8,2E,2E,22,9A,00,7E,00,00,
-1693295644005339,000003BD,false,Rx,0,8,14,04,0D,00,00,00,00,00,
-1693295643995825,000003BE,false,Rx,0,8,00,00,00,80,00,00,00,00,
-1693295643935669,000003B8,false,Rx,0,8,64,02,01,00,03,3A,EB,1E,
-1693295643925728,000003BA,false,Rx,0,8,2E,2E,3D,33,3D,3D,00,00,
-1693295643915830,000003BC,false,Rx,0,8,2E,2E,22,9A,00,7E,00,00,
-1693295643905890,000003BD,false,Rx,0,8,14,04,0D,00,00,00,00,00,
-1693295643895821,000003BE,false,Rx,0,8,00,00,00,80,00,00,00,00,
-1693295643835793,000003B8,false,Rx,0,8,64,02,01,00,03,38,B3,1E,
-1693295643826065,000003BA,false,Rx,0,8,2E,2E,3D,33,3D,3D,00,00,
-1693295643815570,000003BC,false,Rx,0,8,2E,2E,22,9A,00,7E,00,00,
-1693295643805885,000003BD,false,Rx,0,8,14,04,0D,00,00,00,00,00,
-1693295643795987,000003BE,false,Rx,0,8,00,00,00,80,00,00,00,00,
-1693295643736044,000003B8,false,Rx,0,8,64,02,01,00,03,38,B3,1E,
-1693295643726189,000003BA,false,Rx,0,8,2E,2E,3D,33,3D,3D,00,00,
-1693295643716078,000003BC,false,Rx,0,8,2E,2E,22,87,00,7E,00,00,
-1693295643706179,000003BD,false,Rx,0,8,14,04,0D,00,00,00,00,00,
-1693295643696111,000003BE,false,Rx,0,8,00,00,00,80,00,00,00,00,
-1693295643636083,000003B8,false,Rx,0,8,64,02,01,00,03,38,B3,1E,
-1693295643626014,000003BA,false,Rx,0,8,2E,2E,3D,33,3D,3D,00,00,
-1693295643616116,000003BC,false,Rx,0,8,2E,2E,22,87,00,7E,00,00,
-1693295643606218,000003BD,false,Rx,0,8,14,04,0D,00,00,00,00,00,
-1693295643596234,000003BE,false,Rx,0,8,00,00,00,80,00,00,00,00,
-1693295643536206,000003B8,false,Rx,0,8,64,02,01,00,03,36,1C,1E,
-1693295643526351,000003BA,false,Rx,0,8,2E,2E,3D,33,3D,3D,00,00,
-1693295643516239,000003BC,false,Rx,0,8,2E,2E,22,87,00,7E,00,00,
-1693295643506341,000003BD,false,Rx,0,8,14,04,0D,00,00,00,00,00,
-1693295643496401,000003BE,false,Rx,0,8,00,00,00,80,00,00,00,00,
-1693295643436330,000003B8,false,Rx,0,8,64,02,01,00,03,36,1C,1E,
-1693295643426517,000003BA,false,Rx,0,8,2E,2E,3D,33,3D,3D,00,00,
-1693295643416534,000003BC,false,Rx,0,8,2E,2E,22,83,00,5F,00,00,
-1693295643406465,000003BD,false,Rx,0,8,14,04,0D,00,00,00,00,00,
-1693295643396098,000003BE,false,Rx,0,8,00,00,00,80,00,00,00,00,
-1693295643336551,000003B8,false,Rx,0,8,64,02,01,00,03,36,1C,1E,
-1693295643326611,000003BA,false,Rx,0,8,2E,2E,3D,33,3D,3D,00,00,
-1693295643316499,000003BC,false,Rx,0,8,2E,2E,22,83,00,5F,00,00,
-1693295643306644,000003BD,false,Rx,0,8,14,04,0D,00,00,00,00,00,
-1693295643296575,000003BE,false,Rx,0,8,00,00,00,80,00,00,00,00,
-1693295643236632,000003B8,false,Rx,0,8,64,02,01,00,03,33,69,1E,
-1693295643226691,000003BA,false,Rx,0,8,2E,2E,3D,33,3D,3D,00,00,
-1693295643216793,000003BC,false,Rx,0,8,2E,2E,22,83,00,5F,00,00,
-1693295643206554,000003BD,false,Rx,0,8,14,04,0D,00,00,00,00,00,
-1693295643196741,000003BE,false,Rx,0,8,00,00,00,80,00,00,00,00,
-1693295643136628,000003B8,false,Rx,0,8,64,02,01,00,03,33,69,1E,
-1693295643126218,000003BA,false,Rx,0,8,2E,2E,3D,33,3D,3D,00,00,
-1693295643116746,000003BC,false,Rx,0,8,2E,2E,22,83,00,5F,00,00,
-1693295643106678,000003BD,false,Rx,0,8,14,04,0D,00,00,00,00,00,
-1693295643096694,000003BE,false,Rx,0,8,00,00,00,80,00,00,00,00,
-1693295643036751,000003B8,false,Rx,0,8,64,02,01,00,03,30,86,1E,
-1693295643026725,000003BA,false,Rx,0,8,2E,2E,3D,33,3D,3D,00,00,
-1693295643016699,000003BC,false,Rx,0,8,2E,2E,22,83,00,5F,00,00,
-1693295643006844,000003BD,false,Rx,0,8,14,04,0D,00,00,00,00,00,
-1693295642996946,000003BE,false,Rx,0,8,00,00,00,80,00,00,00,00,
-1693295642936662,000003B8,false,Rx,0,8,64,02,01,00,03,30,86,1E,
-1693295642926977,000003BA,false,Rx,0,8,2E,2E,3D,33,3D,3D,00,00,
-1693295642916908,000003BC,false,Rx,0,8,2E,2E,22,83,00,5F,00,00,
-1693295642906967,000003BD,false,Rx,0,8,14,04,0D,00,00,00,00,00,
-1693295642897069,000003BE,false,Rx,0,8,00,00,00,80,00,00,00,00,
-1693295642837041,000003B8,false,Rx,0,8,64,02,01,00,03,30,86,1E,
-1693295642827100,000003BA,false,Rx,0,8,2E,2E,3D,33,3D,3D,00,00,
-1693295642817032,000003BC,false,Rx,0,8,2E,2E,22,83,00,5F,00,00,
-1693295642807134,000003BD,false,Rx,0,8,14,04,0D,00,00,00,00,00,
-1693295642797022,000003BE,false,Rx,0,8,00,00,00,80,00,00,00,00,
-1693295642737037,000003B8,false,Rx,0,8,64,02,01,00,03,2D,D3,1E,
-1693295642727011,000003BA,false,Rx,0,8,2E,2E,3D,33,3D,3D,00,00,
-1693295642717070,000003BC,false,Rx,0,8,2E,2E,22,83,00,5F,00,00,
-1693295642706788,000003BD,false,Rx,0,8,14,04,0D,00,00,00,00,00,
-1693295642697146,000003BE,false,Rx,0,8,00,00,00,80,00,00,00,00,
-1693295642637075,000003B8,false,Rx,0,8,64,02,01,00,03,2D,D3,1E,
-1693295642626665,000003BA,false,Rx,0,8,2E,2E,3D,33,3D,3D,00,00,
-1693295642617151,000003BC,false,Rx,0,8,2E,2E,22,83,00,5F,00,00,
-1693295642607082,000003BD,false,Rx,0,8,14,04,0D,00,00,00,00,00,
-1693295642597099,000003BE,false,Rx,0,8,00,00,00,80,00,00,00,00,
-1693295642537028,000003B8,false,Rx,0,8,64,02,01,00,03,2D,D3,1E,
-1693295642527130,000003BA,false,Rx,0,8,2E,2E,3D,33,3D,3D,00,00,
-1693295642517232,000003BC,false,Rx,0,8,2E,2E,22,83,00,5F,00,00,
-1693295642507163,000003BD,false,Rx,0,8,14,04,0D,00,00,00,00,00,
-1693295642497137,000003BE,false,Rx,0,8,00,00,00,80,00,00,00,00,
-1693295642436938,000003B8,false,Rx,0,8,64,02,01,00,03,2B,1B,1E,
-1693295642427083,000003BA,false,Rx,0,8,2E,2E,3D,33,3D,3D,00,00,
-1693295642417142,000003BC,false,Rx,0,8,2E,2E,22,83,00,5F,00,00,
-1693295642407031,000003BD,false,Rx,0,8,14,04,0D,00,00,00,00,00,
-1693295642396706,000003BE,false,Rx,0,8,00,00,00,80,00,00,00,00,
-1693295642337032,000003B8,false,Rx,0,8,64,02,01,00,03,2B,1B,1E,
-1693295642327176,000003BA,false,Rx,0,8,2E,2E,3D,33,3D,3D,00,00,
-1693295642316638,000003BC,false,Rx,0,8,2E,2E,22,82,00,5F,00,00,
-1693295642307124,000003BD,false,Rx,0,8,14,04,0D,00,00,00,00,00,
-1693295642297184,000003BE,false,Rx,0,8,00,00,00,80,00,00,00,00,
-1693295642237113,000003B8,false,Rx,0,8,64,02,01,00,03,2B,1B,1E,
-1693295642227343,000003BA,false,Rx,0,8,2E,2E,3D,33,3D,3D,00,00,
-1693295642217146,000003BC,false,Rx,0,8,2E,2E,22,82,00,5F,00,00,
-1693295642207120,000003BD,false,Rx,0,8,14,04,0D,00,00,00,00,00,
-1693295642197264,000003BE,false,Rx,0,8,00,00,00,80,00,00,00,00,
-1693295642137279,000003B8,false,Rx,0,8,64,02,01,00,03,28,A2,1E,
-1693295642126954,000003BA,false,Rx,0,8,2E,2E,3D,33,3D,3D,00,00,
-1693295642117440,000003BC,false,Rx,0,8,2E,2E,22,70,00,5F,00,00,
-1693295642107457,000003BD,false,Rx,0,8,14,04,0D,00,00,00,00,00,
-1693295642097473,000003BE,false,Rx,0,8,00,00,00,80,00,00,00,00,
-1693295642037488,000003B8,false,Rx,0,8,64,02,01,00,03,28,A2,1E,
-1693295642027590,000003BA,false,Rx,0,8,2E,2E,3D,33,3D,3D,00,00,
-1693295642017521,000003BC,false,Rx,0,8,2E,2E,22,70,00,5F,00,00,
-1693295642007623,000003BD,false,Rx,0,8,14,04,0D,00,00,00,00,00,
-1693295641997512,000003BE,false,Rx,0,8,00,00,00,80,00,00,00,00,
-1693295641937057,000003B8,false,Rx,0,8,64,02,01,00,03,26,3C,1E,
-1693295641927500,000003BA,false,Rx,0,8,2E,2E,3D,33,3D,3D,00,00,
-1693295641917559,000003BC,false,Rx,0,8,2E,2E,22,70,00,5F,00,00,
-1693295641907619,000003BD,false,Rx,0,8,14,04,0D,00,00,00,00,00,
-1693295641897123,000003BE,false,Rx,0,8,00,00,00,80,00,00,00,00,
-1693295641837607,000003B8,false,Rx,0,8,64,02,01,00,03,26,3C,1E,
-1693295641827709,000003BA,false,Rx,0,8,2E,2E,3D,33,3D,3D,00,00,
-1693295641817597,000003BC,false,Rx,0,8,2E,2E,22,6C,00,5F,00,00,
-1693295641807742,000003BD,false,Rx,0,8,14,04,0D,00,00,00,00,00,
-1693295641797588,000003BE,false,Rx,0,8,00,00,00,80,00,00,00,00,
-1693295641737688,000003B8,false,Rx,0,8,64,02,01,00,03,26,3C,1E,
-1693295641727747,000003BA,false,Rx,0,8,2E,2E,3D,33,3D,3D,00,00,
-1693295641717764,000003BC,false,Rx,0,8,2E,2E,22,6C,00,5F,00,00,
-1693295641707524,000003BD,false,Rx,0,8,14,04,0D,00,00,00,00,00,
-1693295641697840,000003BE,false,Rx,0,8,00,00,00,80,00,00,00,00,
-1693295641637811,000003B8,false,Rx,0,8,64,02,01,00,03,24,15,1E,
-1693295641627913,000003BA,false,Rx,0,8,2E,2E,3D,33,3D,3D,00,00,
-1693295641618015,000003BC,false,Rx,0,8,2E,2E,22,6C,00,5F,00,00,
-1693295641607904,000003BD,false,Rx,0,8,14,04,0D,00,00,00,00,00,
-1693295641598049,000003BE,false,Rx,0,8,00,00,00,80,00,00,00,00,
-1693295641538063,000003B8,false,Rx,0,8,64,02,01,00,03,24,15,1E,
-1693295641528122,000003BA,false,Rx,0,8,2E,2E,3D,33,3D,3D,00,00,
-1693295641517840,000003BC,false,Rx,0,8,2E,2E,22,6C,00,5F,00,00,
-1693295641508028,000003BD,false,Rx,0,8,14,04,0D,00,00,00,00,00,
-1693295641498044,000003BE,false,Rx,0,8,00,00,00,80,00,00,00,00,
-1693295641438059,000003B8,false,Rx,0,8,64,02,01,00,03,24,15,1E,
-1693295641428203,000003BA,false,Rx,0,8,2E,2E,3D,33,3D,3D,00,00,
-1693295641418262,000003BC,false,Rx,0,8,2E,2E,22,6C,00,5F,00,00,
-1693295641408236,000003BD,false,Rx,0,8,14,04,0D,00,00,00,00,00,
-1693295641398338,000003BE,false,Rx,0,8,00,00,00,80,00,00,00,00,
-1693295641338195,000003B8,false,Rx,0,8,64,02,01,00,03,21,EE,1E,
-1693295641328169,000003BA,false,Rx,0,8,2E,2E,3D,33,3D,3D,00,00,
-1693295641318271,000003BC,false,Rx,0,8,2E,2E,22,6C,00,5F,00,00,
-1693295641308159,000003BD,false,Rx,0,8,14,04,0D,00,00,00,00,00,
-1693295641298048,000003BE,false,Rx,0,8,00,00,00,80,00,00,00,00,
-1693295641238190,000003B8,false,Rx,0,8,64,02,01,00,03,21,EE,1E,
-1693295641228292,000003BA,false,Rx,0,8,2E,2E,3D,33,3D,3D,00,00,
-1693295641218181,000003BC,false,Rx,0,8,2E,2E,22,6C,00,5F,00,00,
-1693295641207856,000003BD,false,Rx,0,8,14,04,0D,00,00,00,00,00,
-1693295641198300,000003BE,false,Rx,0,8,00,00,00,80,00,00,00,00,
-1693295641138399,000003B8,false,Rx,0,8,64,02,01,00,03,21,EE,1E,
-1693295641128331,000003BA,false,Rx,0,8,2E,2E,3D,33,3D,3D,00,00,
-1693295641118390,000003BC,false,Rx,0,8,2E,2E,22,6C,00,5F,00,00,
-1693295641108534,000003BD,false,Rx,0,8,14,04,0D,00,00,00,00,00,
-1693295641098210,000003BE,false,Rx,0,8,00,00,00,80,00,00,00,00,
-1693295641038480,000003B8,false,Rx,0,8,64,02,01,00,03,20,01,1E,
-1693295641028582,000003BA,false,Rx,0,8,2E,2E,3D,33,3D,3D,00,00,
-1693295641018641,000003BC,false,Rx,0,8,2E,2E,22,6C,00,5F,00,00,
-1693295641008615,000003BD,false,Rx,0,8,14,04,0D,00,00,00,00,00,
-1693295640998504,000003BE,false,Rx,0,8,00,00,00,80,00,00,00,00,
-1693295640938689,000003B8,false,Rx,0,8,64,02,01,00,03,20,01,1E,
-1693295640928748,000003BA,false,Rx,0,8,2E,2E,3D,33,3D,3D,00,00,
-1693295640918722,000003BC,false,Rx,0,8,2E,2E,22,6C,00,5F,00,00,
-1693295640908611,000003BD,false,Rx,0,8,14,04,0D,00,00,00,00,00,
-1693295640898670,000003BE,false,Rx,0,8,00,00,00,80,00,00,00,00,
-1693295640838685,000003B8,false,Rx,0,8,64,02,01,00,03,20,01,1E,
-1693295640828403,000003BA,false,Rx,0,8,2E,2E,3D,33,3D,3D,00,00,
-1693295640818761,000003BC,false,Rx,0,8,2E,2E,22,6C,00,5F,00,00,
-1693295640808820,000003BD,false,Rx,0,8,14,04,0D,00,00,00,00,00,
-1693295640798837,000003BE,false,Rx,0,8,00,00,00,80,00,00,00,00,
-1693295640738723,000003B8,false,Rx,0,8,64,02,01,00,03,1E,1F,1E,
-1693295640728910,000003BA,false,Rx,0,8,2E,2E,3D,33,3D,3D,00,00,
-1693295640718756,000003BC,false,Rx,0,8,2E,2E,22,68,00,5F,00,00,
-1693295640708901,000003BD,false,Rx,0,8,14,04,0D,00,00,00,00,00,
-1693295640698789,000003BE,false,Rx,0,8,00,00,00,80,00,00,00,00,
-1693295640638761,000003B8,false,Rx,0,8,64,02,01,00,03,1E,1F,1E,
-1693295640629034,000003BA,false,Rx,0,8,2E,2E,3D,33,3D,3D,00,00,
-1693295640618922,000003BC,false,Rx,0,8,2E,2E,22,68,00,5F,00,00,
-1693295640609024,000003BD,false,Rx,0,8,14,04,0D,00,00,00,00,00,
-1693295640598742,000003BE,false,Rx,0,8,00,00,00,80,00,00,00,00,
-1693295640538970,000003B8,false,Rx,0,8,64,02,01,00,02,1C,71,1E,
-1693295640529029,000003BA,false,Rx,0,8,2E,2E,3D,33,3D,3D,00,00,
-1693295640518961,000003BC,false,Rx,0,8,2E,2E,22,68,00,5F,00,00,
-1693295640509063,000003BD,false,Rx,0,8,14,04,0D,00,00,00,00,00,
-1693295640499122,000003BE,false,Rx,0,8,00,00,00,80,00,00,00,00,
-1693295640439136,000003B8,false,Rx,0,8,64,02,01,00,02,1C,71,1E,
-1693295640429238,000003BA,false,Rx,0,8,2E,2E,3D,33,3D,3D,00,00,
-1693295640419255,000003BC,false,Rx,0,8,2E,2E,22,57,00,5F,00,00,
-1693295640408802,000003BD,false,Rx,0,8,14,04,0D,00,00,00,00,00,
-1693295640399203,000003BE,false,Rx,0,8,00,00,00,80,00,00,00,00,
-1693295640339059,000003B8,false,Rx,0,8,64,02,01,00,02,1C,71,1E,
-1693295640329375,000003BA,false,Rx,0,8,2E,2E,3D,33,3D,3D,00,00,
-1693295640319263,000003BC,false,Rx,0,8,2E,2E,22,57,00,5F,00,00,
-1693295640309322,000003BD,false,Rx,0,8,14,04,0D,00,00,00,00,00,
-1693295640298998,000003BE,false,Rx,0,8,00,00,00,80,00,00,00,00,
-1693295640239268,000003B8,false,Rx,0,8,64,02,01,00,02,1A,B9,1E,
-1693295640229498,000003BA,false,Rx,0,8,2E,2E,3D,33,3D,3D,00,00,
-1693295640219387,000003BC,false,Rx,0,8,2E,2E,22,57,00,5F,00,00,
-1693295640209446,000003BD,false,Rx,0,8,14,04,0D,00,00,00,00,00,
-1693295640199463,000003BE,false,Rx,0,8,00,00,00,80,00,00,00,00,
-1693295640139520,000003B8,false,Rx,0,8,64,02,01,00,02,1A,B9,1E,
-1693295640129622,000003BA,false,Rx,0,8,2E,2E,3D,33,3D,3D,00,00,
-1693295640119638,000003BC,false,Rx,0,8,2E,2E,22,55,00,5F,00,00,
-1693295640109527,000003BD,false,Rx,0,8,14,04,0D,00,00,00,00,00,
-1693295640099544,000003BE,false,Rx,0,8,00,00,00,80,00,00,00,00,
-1693295640039430,000003B8,false,Rx,0,8,64,02,01,00,02,1A,B9,1E,
-1693295640029660,000003BA,false,Rx,0,8,2E,2E,3D,33,3D,3D,00,00,
-1693295640019677,000003BC,false,Rx,0,8,2E,2E,22,55,00,5F,00,00,
-1693295640009736,000003BD,false,Rx,0,8,14,04,0D,00,00,00,00,00,
-1693295639999710,000003BE,false,Rx,0,8,00,00,00,80,00,00,00,00,
-1693295639939682,000003B8,false,Rx,0,8,64,02,01,00,02,19,34,1E,
-1693295639929698,000003BA,false,Rx,0,8,2E,2E,3D,33,3D,3D,00,00,
-1693295639919757,000003BC,false,Rx,0,8,2E,2E,22,55,00,5F,00,00,
-1693295639909902,000003BD,false,Rx,0,8,14,04,0D,00,00,00,00,00,
-1693295639899919,000003BE,false,Rx,0,8,00,00,00,80,00,00,00,00,
-1693295639839890,000003B8,false,Rx,0,8,64,02,01,00,02,19,34,1E,
-1693295639829950,000003BA,false,Rx,0,8,2E,2E,3D,33,3D,3D,00,00,
-1693295639819881,000003BC,false,Rx,0,8,2E,2E,22,55,00,5F,00,00,
-1693295639809812,000003BD,false,Rx,0,8,14,04,0D,00,00,00,00,00,
-1693295639799872,000003BE,false,Rx,0,8,00,00,00,80,00,00,00,00,
-1693295639739502,000003B8,false,Rx,0,8,64,02,01,00,02,19,34,1E,
-1693295639729988,000003BA,false,Rx,0,8,2E,2E,3D,33,3D,3D,00,00,
-1693295639720133,000003BC,false,Rx,0,8,2E,2E,22,55,00,5F,00,00,
-1693295639710107,000003BD,false,Rx,0,8,14,04,0D,00,00,00,00,00,
-1693295639699995,000003BE,false,Rx,0,8,00,00,00,80,00,00,00,00,
-1693295639640052,000003B8,false,Rx,0,8,64,02,01,00,02,17,B4,1E,
-1693295639629813,000003BA,false,Rx,0,8,2E,2E,3D,33,3D,3D,00,00,
-1693295639620043,000003BC,false,Rx,0,8,2E,2E,22,55,00,5F,00,00,
-1693295639610145,000003BD,false,Rx,0,8,14,04,0D,00,00,00,00,00,
-1693295639600161,000003BE,false,Rx,0,8,00,00,00,80,00,00,00,00,
-1693295639540219,000003B8,false,Rx,0,8,64,02,01,00,02,17,B4,1E,
-1693295639530278,000003BA,false,Rx,0,8,2E,2E,3D,33,3D,3D,00,00,
-1693295639519953,000003BC,false,Rx,0,8,2E,2E,22,55,00,5F,00,00,
-1693295639510226,000003BD,false,Rx,0,8,14,04,0D,00,00,00,00,00,
-1693295639500285,000003BE,false,Rx,0,8,00,00,00,80,00,00,00,00,
-1693295639440385,000003B8,false,Rx,0,8,64,02,01,00,02,16,5F,1E,
-1693295639430444,000003BA,false,Rx,0,8,2E,2E,3D,33,3D,3D,00,00,
-1693295639420333,000003BC,false,Rx,0,8,2E,2E,22,55,00,5F,00,00,
-1693295639410179,000003BD,false,Rx,0,8,14,04,0D,00,00,00,00,00,
-1693295639400409,000003BE,false,Rx,0,8,00,00,00,80,00,00,00,00,
-1693295639340466,000003B8,false,Rx,0,8,64,02,01,00,02,16,5F,1E,
-1693295639330662,000003BA,false,Rx,0,8,2E,2E,3D,33,3D,3D,00,00,
-1693295639320678,000003BC,false,Rx,0,8,2E,2E,22,55,00,5F,00,00,
-1693295639310610,000003BD,false,Rx,0,8,14,04,0D,00,00,00,00,00,
-1693295639300669,000003BE,false,Rx,0,8,00,00,00,80,00,00,00,00,
-1693295639240726,000003B8,false,Rx,0,8,64,02,01,00,02,16,5F,1E,
-1693295639230828,000003BA,false,Rx,0,8,2E,2E,3D,33,3D,3D,00,00,
-1693295639220716,000003BC,false,Rx,0,8,2E,2E,22,55,00,5F,00,00,
-1693295639210818,000003BD,false,Rx,0,8,14,04,0D,00,00,00,00,00,
-1693295639200878,000003BE,false,Rx,0,8,00,00,00,80,00,00,00,00,
-1693295639140807,000003B8,false,Rx,0,8,64,02,01,00,02,15,0C,1E,
-1693295639130866,000003BA,false,Rx,0,8,2E,2E,3D,33,3D,3D,00,00,
-1693295639120797,000003BC,false,Rx,0,8,2E,2E,22,55,00,5F,00,00,
-1693295639110430,000003BD,false,Rx,0,8,14,04,0D,00,00,00,00,00,
-1693295639100873,000003BE,false,Rx,0,8,00,00,00,80,00,00,00,00,
-1693295639040802,000003B8,false,Rx,0,8,64,02,01,00,02,15,0C,1E,
-1693295639030947,000003BA,false,Rx,0,8,2E,2E,3D,33,3D,3D,00,00,
-1693295639021006,000003BC,false,Rx,0,8,2E,2E,22,55,00,5F,00,00,
-1693295639010852,000003BD,false,Rx,0,8,14,04,0D,00,00,00,00,00,
-1693295639000656,000003BE,false,Rx,0,8,00,00,00,80,00,00,00,00,
-1693295638940926,000003B8,false,Rx,0,8,64,02,01,00,02,15,0C,1E,
-1693295638931071,000003BA,false,Rx,0,8,2E,2E,3D,33,3D,3D,00,00,
-1693295638920917,000003BC,false,Rx,0,8,2E,2E,22,55,00,5F,00,00,
-1693295638910891,000003BD,false,Rx,0,8,14,04,0D,00,00,00,00,00,
-1693295638900822,000003BE,false,Rx,0,8,00,00,00,80,00,00,00,00,
-1693295638840964,000003B8,false,Rx,0,8,64,02,01,00,02,13,D6,1E,
-1693295638831024,000003BA,false,Rx,0,8,2E,2E,3D,33,3D,3D,00,00,
-1693295638821040,000003BC,false,Rx,0,8,2E,2E,22,55,00,5F,00,00,
-1693295638810971,000003BD,false,Rx,0,8,14,04,0D,00,00,00,00,00,
-1693295638800903,000003BE,false,Rx,0,8,00,00,00,80,00,00,00,00,
-1693295638741088,000003B8,false,Rx,0,8,64,02,01,00,02,13,D6,1E,
-1693295638731190,000003BA,false,Rx,0,8,2E,2E,3D,33,3D,3D,00,00,
-1693295638721036,000003BC,false,Rx,0,8,2E,2E,22,41,00,5F,00,00,
-1693295638711010,000003BD,false,Rx,0,8,14,04,0D,00,00,00,00,00,
-1693295638700600,000003BE,false,Rx,0,8,00,00,00,80,00,00,00,00,
-1693295638641083,000003B8,false,Rx,0,8,64,02,01,00,02,13,D6,1E,
-1693295638631143,000003BA,false,Rx,0,8,2E,2E,3D,33,3D,3D,00,00,
-1693295638621202,000003BC,false,Rx,0,8,2E,2E,22,41,00,5F,00,00,
-1693295638611048,000003BD,false,Rx,0,8,14,04,0D,00,00,00,00,00,
-1693295638601065,000003BE,false,Rx,0,8,00,00,00,80,00,00,00,00,
-1693295638541122,000003B8,false,Rx,0,8,64,02,01,00,02,12,A8,1E,
-1693295638531266,000003BA,false,Rx,0,8,2E,2E,3D,33,3D,3D,00,00,
-1693295638521368,000003BC,false,Rx,0,8,2E,2E,22,43,00,5F,00,00,
-1693295638511299,000003BD,false,Rx,0,8,14,04,0D,00,00,00,00,00,
-1693295638501316,000003BE,false,Rx,0,8,00,00,00,80,00,00,00,00,
-1693295638440861,000003B8,false,Rx,0,8,64,02,01,00,02,12,A8,1E,
-1693295638431432,000003BA,false,Rx,0,8,2E,2E,3D,33,3D,3D,00,00,
-1693295638421364,000003BC,false,Rx,0,8,2E,2E,22,43,00,5F,00,00,
-1693295638411466,000003BD,false,Rx,0,8,14,04,0D,00,00,00,00,00,
-1693295638401354,000003BE,false,Rx,0,8,00,00,00,80,00,00,00,00,
-1693295638341411,000003B8,false,Rx,0,8,64,02,01,00,02,11,9E,1E,
-1693295638331115,000003BA,false,Rx,0,8,2E,2E,3D,33,3D,3D,00,00,
-1693295638321559,000003BC,false,Rx,0,8,2E,2E,22,43,00,5F,00,00,
-1693295638311618,000003BD,false,Rx,0,8,14,04,0D,00,00,00,00,00,
-1693295638301507,000003BE,false,Rx,0,8,00,00,00,80,00,00,00,00,
-1693295638241606,000003B8,false,Rx,0,8,64,02,01,00,02,11,9E,1E,
-1693295638231623,000003BA,false,Rx,0,8,2E,2E,3D,33,3D,3D,00,00,
-1693295638221469,000003BC,false,Rx,0,8,2E,2E,22,3D,00,5F,00,00,
-1693295638211784,000003BD,false,Rx,0,8,14,04,0D,00,00,00,00,00,
-1693295638201588,000003BE,false,Rx,0,8,00,00,00,80,00,00,00,00,
-1693295638141517,000003B8,false,Rx,0,8,64,02,01,00,02,11,9E,1E,
-1693295638131619,000003BA,false,Rx,0,8,2E,2E,3D,33,3D,3D,00,00,
-1693295638121635,000003BC,false,Rx,0,8,2E,2E,22,3D,00,5F,00,00,
-1693295638111737,000003BD,false,Rx,0,8,14,04,0D,00,00,00,00,00,
-1693295638101626,000003BE,false,Rx,0,8,00,00,00,80,00,00,00,00,
-1693295638041768,000003B8,false,Rx,0,8,64,02,01,00,02,10,91,1E,
-1693295638031913,000003BA,false,Rx,0,8,2E,2E,3D,33,3D,3D,00,00,
-1693295638021801,000003BC,false,Rx,0,8,2E,2E,22,3D,00,5F,00,00,
-1693295638011861,000003BD,false,Rx,0,8,14,04,0D,00,00,00,00,00,
-1693295638001877,000003BE,false,Rx,0,8,00,00,00,80,00,00,00,00,
-1693295637941849,000003B8,false,Rx,0,8,64,02,01,00,02,10,91,1E,
-1693295637931908,000003BA,false,Rx,0,8,2E,2E,3D,33,3D,3D,00,00,
-1693295637921626,000003BC,false,Rx,0,8,2E,2E,22,3D,00,5F,00,00,
-1693295637911899,000003BD,false,Rx,0,8,14,04,0D,00,00,00,00,00,
-1693295637901873,000003BE,false,Rx,0,8,00,00,00,80,00,00,00,00,
-1693295637841930,000003B8,false,Rx,0,8,64,02,01,00,02,10,91,1E,
-1693295637832032,000003BA,false,Rx,0,8,2E,2E,3D,33,3D,3D,00,00,
-1693295637822006,000003BC,false,Rx,0,8,2E,2E,22,3D,00,5F,00,00,
-1693295637811852,000003BD,false,Rx,0,8,14,04,0D,00,00,00,00,00,
-1693295637802082,000003BE,false,Rx,0,8,00,00,00,80,00,00,00,00,
-1693295637742182,000003B8,false,Rx,0,8,64,02,01,00,02,0F,A2,1E,
-1693295637732113,000003BA,false,Rx,0,8,2E,2E,3D,33,3D,3D,00,00,
-1693295637722129,000003BC,false,Rx,0,8,2E,2E,22,3D,00,5F,00,00,
-1693295637712146,000003BD,false,Rx,0,8,14,04,0D,00,00,00,00,00,
-1693295637701907,000003BE,false,Rx,0,8,00,00,00,80,00,00,00,00,
-1693295637642220,000003B8,false,Rx,0,8,64,02,01,00,02,0F,A2,1E,
-1693295637632407,000003BA,false,Rx,0,8,2E,2E,3D,33,3D,3D,00,00,
-1693295637622338,000003BC,false,Rx,0,8,2E,2E,22,3D,00,5F,00,00,
-1693295637612227,000003BD,false,Rx,0,8,14,04,0D,00,00,00,00,00,
-1693295637602286,000003BE,false,Rx,0,8,00,00,00,80,00,00,00,00,
-1693295637542130,000003B8,false,Rx,0,8,64,02,01,00,02,0F,A2,1E,
-1693295637532403,000003BA,false,Rx,0,8,2E,2E,3D,33,3D,3D,00,00,
-1693295637522377,000003BC,false,Rx,0,8,2E,2E,22,3D,00,5F,00,00,
-1693295637512351,000003BD,false,Rx,0,8,14,04,0D,00,00,00,00,00,
-1693295637502367,000003BE,false,Rx,0,8,00,00,00,80,00,00,00,00,
-1693295637442339,000003B8,false,Rx,0,8,64,02,01,00,02,0E,B7,1E,
-1693295637432484,000003BA,false,Rx,0,8,2E,2E,3D,33,3D,3D,00,00,
-1693295637422458,000003BC,false,Rx,0,8,2E,2E,22,3D,00,5F,00,00,
-1693295637412474,000003BD,false,Rx,0,8,14,04,0D,00,00,00,00,00,
-1693295637402533,000003BE,false,Rx,0,8,00,00,00,80,00,00,00,00,
-1693295637342463,000003B8,false,Rx,0,8,64,02,01,00,02,0E,B7,1E,
-1693295637332467,000003BA,false,Rx,0,8,2E,2E,3D,33,3D,3D,00,00,
-1693295637322526,000003BC,false,Rx,0,8,2E,2E,22,3D,00,5F,00,00,
-1693295637312586,000003BD,false,Rx,0,8,14,04,0D,00,00,00,00,00,
-1693295637302602,000003BE,false,Rx,0,8,00,00,00,80,00,00,00,00,
-1693295637242702,000003B8,false,Rx,0,8,64,02,01,00,02,0D,E2,1E,
-1693295637232804,000003BA,false,Rx,0,8,2E,2E,3D,33,3D,3D,00,00,
-1693295637222650,000003BC,false,Rx,0,8,2E,2E,22,3D,00,5F,00,00,
-1693295637212752,000003BD,false,Rx,0,8,14,04,0D,00,00,00,00,00,
-1693295637202811,000003BE,false,Rx,0,8,00,00,00,80,00,00,00,00,
-1693295637142271,000003B8,false,Rx,0,8,64,02,01,00,02,0D,E2,1E,
-1693295637132928,000003BA,false,Rx,0,8,2E,2E,3D,33,3D,3D,00,00,
-1693295637122816,000003BC,false,Rx,0,8,2E,2E,22,3D,00,5F,00,00,
-1693295637112876,000003BD,false,Rx,0,8,14,04,0D,00,00,00,00,00,
-1693295637102935,000003BE,false,Rx,0,8,00,00,00,80,00,00,00,00,
-1693295637042949,000003B8,false,Rx,0,8,64,02,01,00,02,0D,E2,1E,
-1693295637033051,000003BA,false,Rx,0,8,2E,2E,3D,33,3D,3D,00,00,
-1693295637023068,000003BC,false,Rx,0,8,2E,2E,22,3D,00,5F,00,00,
-1693295637012999,000003BD,false,Rx,0,8,14,04,0D,00,00,00,00,00,
-1693295637003016,000003BE,false,Rx,0,8,00,00,00,80,00,00,00,00,
-1693295636943030,000003B8,false,Rx,0,8,64,02,01,00,02,0D,0A,1E,
-1693295636933132,000003BA,false,Rx,0,8,2E,2E,3D,33,3D,3D,00,00,
-1693295636922807,000003BC,false,Rx,0,8,2E,2E,22,3D,00,5F,00,00,
-1693295636913123,000003BD,false,Rx,0,8,14,04,0D,00,00,00,00,00,
-1693295636903139,000003BE,false,Rx,0,8,00,00,00,80,00,00,00,00,
-1693295636843111,000003B8,false,Rx,0,8,64,02,01,00,02,0D,0A,1E,
-1693295636833170,000003BA,false,Rx,0,8,2E,2E,3D,33,3D,3D,00,00,
-1693295636823230,000003BC,false,Rx,0,8,2E,2E,22,31,00,5F,00,00,
-1693295636813118,000003BD,false,Rx,0,8,14,04,0D,00,00,00,00,00,
-1693295636803348,000003BE,false,Rx,0,8,00,00,00,80,00,00,00,00,
-1693295636743149,000003B8,false,Rx,0,8,64,02,01,00,02,0D,0A,1E,
-1693295636733294,000003BA,false,Rx,0,8,2E,2E,3D,33,3D,3D,00,00,
-1693295636723311,000003BC,false,Rx,0,8,2E,2E,22,31,00,5F,00,00,
-1693295636713327,000003BD,false,Rx,0,8,14,04,0D,00,00,00,00,00,
-1693295636703088,000003BE,false,Rx,0,8,00,00,00,80,00,00,00,00,
-1693295636643273,000003B8,false,Rx,0,8,64,02,01,00,02,0C,4F,1E,
-1693295636633418,000003BA,false,Rx,0,8,2E,2E,3D,33,3D,3D,00,00,
-1693295636623434,000003BC,false,Rx,0,8,2E,2E,22,31,00,5F,00,00,
-1693295636613451,000003BD,false,Rx,0,8,14,04,0D,00,00,00,00,00,
-1693295636603339,000003BE,false,Rx,0,8,00,00,00,80,00,00,00,00,
-1693295636543482,000003B8,false,Rx,0,8,64,02,01,00,02,0C,4F,1E,
-1693295636533498,000003BA,false,Rx,0,8,2E,2E,3D,33,3D,3D,00,00,
-1693295636523558,000003BC,false,Rx,0,8,2E,2E,22,27,00,5F,00,00,
-1693295636513020,000003BD,false,Rx,0,8,14,04,0D,00,00,00,00,00,
-1693295636503591,000003BE,false,Rx,0,8,00,00,00,80,00,00,00,00,
-1693295636443648,000003B8,false,Rx,0,8,64,02,01,00,02,0C,4F,1E,
-1693295636433707,000003BA,false,Rx,0,8,2E,2E,3D,33,3D,3D,00,00,
-1693295636423468,000003BC,false,Rx,0,8,2E,2E,22,27,00,5F,00,00,
-1693295636413442,000003BD,false,Rx,0,8,14,04,0D,00,00,00,00,00,
-1693295636403203,000003BE,false,Rx,0,8,00,00,00,80,00,00,00,00,
-1693295636343601,000003B8,false,Rx,0,8,64,02,01,00,02,0B,93,1E,
-1693295636333673,000003BA,false,Rx,0,8,2E,2E,3D,33,3D,3D,00,00,
-1693295636323647,000003BC,false,Rx,0,8,2E,2E,22,26,00,5F,00,00,
-1693295636313706,000003BD,false,Rx,0,8,14,04,0D,00,00,00,00,00,
-1693295636303595,000003BE,false,Rx,0,8,00,00,00,80,00,00,00,00,
-1693295636243609,000003B8,false,Rx,0,8,64,02,01,00,02,0B,93,1E,
-1693295636233669,000003BA,false,Rx,0,8,2E,2E,3D,33,3D,3D,00,00,
-1693295636223813,000003BC,false,Rx,0,8,2E,2E,22,26,00,5F,00,00,
-1693295636213787,000003BD,false,Rx,0,8,14,04,0D,00,00,00,00,00,
-1693295636203846,000003BE,false,Rx,0,8,00,00,00,80,00,00,00,00,
-1693295636143477,000003B8,false,Rx,0,8,64,02,01,00,02,0A,EF,1E,
-1693295636133792,000003BA,false,Rx,0,8,2E,2E,3D,33,3D,3D,00,00,
-1693295636123809,000003BC,false,Rx,0,8,2E,2E,22,26,00,5F,00,00,
-1693295636113911,000003BD,false,Rx,0,8,14,04,0D,00,00,00,00,00,
-1693295636103799,000003BE,false,Rx,0,8,00,00,00,80,00,00,00,00,
-1693295636043856,000003B8,false,Rx,0,8,64,02,01,00,02,0A,EF,1E,
-1693295636033660,000003BA,false,Rx,0,8,2E,2E,3D,33,3D,3D,00,00,
-1693295636023975,000003BC,false,Rx,0,8,2E,2E,22,26,00,5F,00,00,
-1693295636013992,000003BD,false,Rx,0,8,14,04,0D,00,00,00,00,00,
-1693295636003880,000003BE,false,Rx,0,8,00,00,00,80,00,00,00,00,
-1693295635943895,000003B8,false,Rx,0,8,64,02,01,00,02,0A,EF,1E,
-1693295635933997,000003BA,false,Rx,0,8,2E,2E,3D,33,3D,3D,00,00,
-1693295635923843,000003BC,false,Rx,0,8,2E,2E,22,26,00,5F,00,00,
-1693295635913987,000003BD,false,Rx,0,8,14,04,0D,00,00,00,00,00,
-1693295635904004,000003BE,false,Rx,0,8,00,00,00,80,00,00,00,00,
-1693295635844018,000003B8,false,Rx,0,8,64,02,01,00,02,0A,49,1E,
-1693295635834120,000003BA,false,Rx,0,8,2E,2E,3D,33,3D,3D,00,00,
-1693295635824137,000003BC,false,Rx,0,8,2E,2E,22,26,00,5F,00,00,
-1693295635814068,000003BD,false,Rx,0,8,14,04,0D,00,00,00,00,00,
-1693295635804085,000003BE,false,Rx,0,8,00,00,00,80,00,00,00,00,
-1693295635744184,000003B8,false,Rx,0,8,64,02,01,00,02,0A,49,1E,
-1693295635734286,000003BA,false,Rx,0,8,2E,2E,3D,33,3D,3D,00,00,
-1693295635724346,000003BC,false,Rx,0,8,2E,2E,22,26,00,5F,00,00,
-1693295635714234,000003BD,false,Rx,0,8,14,04,0D,00,00,00,00,00,
-1693295635704251,000003BE,false,Rx,0,8,00,00,00,80,00,00,00,00,
-1693295635644265,000003B8,false,Rx,0,8,64,02,01,00,02,0A,49,1E,
-1693295635634367,000003BA,false,Rx,0,8,2E,2E,3D,33,3D,3D,00,00,
-1693295635624043,000003BC,false,Rx,0,8,2E,2E,22,26,00,5F,00,00,
-1693295635614315,000003BD,false,Rx,0,8,14,04,0D,00,00,00,00,00,
-1693295635604076,000003BE,false,Rx,0,8,00,00,00,80,00,00,00,00,
-1693295635544389,000003B8,false,Rx,0,8,64,02,01,00,02,09,B4,1E,
-1693295635534534,000003BA,false,Rx,0,8,2E,2E,3D,33,3D,3D,00,00,
-1693295635524550,000003BC,false,Rx,0,8,2E,2E,22,26,00,5F,00,00,
-1693295635514183,000003BD,false,Rx,0,8,14,04,0D,00,00,00,00,00,
-1693295635504455,000003BE,false,Rx,0,8,00,00,00,80,00,00,00,00,
-1693295635444513,000003B8,false,Rx,0,8,64,02,01,00,02,09,B4,1E,
-1693295635434614,000003BA,false,Rx,0,8,2E,2E,3D,33,3D,3D,00,00,
-1693295635424674,000003BC,false,Rx,0,8,2E,2E,22,26,00,5F,00,00,
-1693295635414690,000003BD,false,Rx,0,8,14,04,0D,00,00,00,00,00,
-1693295635404451,000003BE,false,Rx,0,8,00,00,00,80,00,00,00,00,
-1693295635344551,000003B8,false,Rx,0,8,64,02,01,00,02,09,B4,1E,
-1693295635334708,000003BA,false,Rx,0,8,2E,2E,3D,33,3D,3D,00,00,
-1693295635324554,000003BC,false,Rx,0,8,2E,2E,22,26,00,5F,00,00,
-1693295635314485,000003BD,false,Rx,0,8,14,04,0D,00,00,00,00,00,
-1693295635304502,000003BE,false,Rx,0,8,00,00,00,80,00,00,00,00,
-1693295635244516,000003B8,false,Rx,0,8,64,02,01,00,02,09,25,1E,
-1693295635234618,000003BA,false,Rx,0,8,2E,2E,3D,33,3D,3D,00,00,
-1693295635224720,000003BC,false,Rx,0,8,2E,2E,22,26,00,5F,00,00,
-1693295635214652,000003BD,false,Rx,0,8,14,04,0D,00,00,00,00,00,
-1693295635204711,000003BE,false,Rx,0,8,00,00,00,80,00,00,00,00,
-1693295635144683,000003B8,false,Rx,0,8,64,02,01,00,02,09,25,1E,
-1693295635134742,000003BA,false,Rx,0,8,2E,2E,3D,33,3D,3D,00,00,
-1693295635124716,000003BC,false,Rx,0,8,2E,2E,22,26,00,5F,00,00,
-1693295635114860,000003BD,false,Rx,0,8,14,04,0D,00,00,00,00,00,
-1693295635104365,000003BE,false,Rx,0,8,00,00,00,80,00,00,00,00,
-1693295635044806,000003B8,false,Rx,0,8,64,02,01,00,02,08,A2,1E,
-1693295635034695,000003BA,false,Rx,0,8,2E,2E,3D,33,3D,3D,00,00,
-1693295635024967,000003BC,false,Rx,0,8,2E,2E,22,26,00,5F,00,00,
-1693295635014856,000003BD,false,Rx,0,8,14,04,0D,00,00,00,00,00,
-1693295635004873,000003BE,false,Rx,0,8,00,00,00,80,00,00,00,00,
-1693295634944972,000003B8,false,Rx,0,8,64,02,01,00,02,08,A2,1E,
-1693295634935032,000003BA,false,Rx,0,8,2E,2E,3D,33,3D,3D,00,00,
-1693295634925048,000003BC,false,Rx,0,8,2E,2E,22,26,00,5F,00,00,
-1693295634915150,000003BD,false,Rx,0,8,14,04,0D,00,00,00,00,00,
-1693295634905039,000003BE,false,Rx,0,8,00,00,00,80,00,00,00,00,
-1693295634844584,000003B8,false,Rx,0,8,64,02,01,00,02,08,A2,1E,
-1693295634835283,000003BA,false,Rx,0,8,2E,2E,3D,33,3D,3D,00,00,
-1693295634825172,000003BC,false,Rx,0,8,2E,2E,22,26,00,5F,00,00,
-1693295634815231,000003BD,false,Rx,0,8,14,04,0D,00,00,00,00,00,
-1693295634805120,000003BE,false,Rx,0,8,00,00,00,80,00,00,00,00,
-1693295634745134,000003B8,false,Rx,0,8,64,02,01,00,02,08,1E,1E,
-1693295634735023,000003BA,false,Rx,0,8,2E,2E,3D,33,3D,3D,00,00,
-1693295634725295,000003BC,false,Rx,0,8,2E,2E,22,26,00,5F,00,00,
-1693295634715227,000003BD,false,Rx,0,8,14,04,0D,00,00,00,00,00,
-1693295634705243,000003BE,false,Rx,0,8,00,00,00,80,00,00,00,00,
-1693295634645172,000003B8,false,Rx,0,8,64,02,01,00,02,08,1E,1E,
-1693295634635274,000003BA,false,Rx,0,8,2E,2E,3D,33,3D,3D,00,00,
-1693295634625291,000003BC,false,Rx,0,8,2E,2E,22,1B,00,5F,00,00,
-1693295634615222,000003BD,false,Rx,0,8,14,04,0D,00,00,00,00,00,
-1693295634605239,000003BE,false,Rx,0,8,00,00,00,80,00,00,00,00,
-1693295634544827,000003B8,false,Rx,0,8,64,02,01,00,02,08,1E,1E,
-1693295634535355,000003BA,false,Rx,0,8,2E,2E,3D,33,3D,3D,00,00,
-1693295634525457,000003BC,false,Rx,0,8,2E,2E,22,1B,00,5F,00,00,
-1693295634515474,000003BD,false,Rx,0,8,14,04,0D,00,00,00,00,00,
-1693295634505405,000003BE,false,Rx,0,8,00,00,00,80,00,00,00,00,
-1693295634445420,000003B8,false,Rx,0,8,64,02,01,00,02,07,AC,1E,
-1693295634435095,000003BA,false,Rx,0,8,2E,2E,3D,33,3D,3D,00,00,
-1693295634425538,000003BC,false,Rx,0,8,2E,2E,22,1B,00,5F,00,00,
-1693295634415427,000003BD,false,Rx,0,8,14,04,0D,00,00,00,00,00,
-1693295634405571,000003BE,false,Rx,0,8,00,00,00,80,00,00,00,00,
-1693295634345543,000003B8,false,Rx,0,8,64,02,01,00,02,07,AC,1E,
-1693295634335572,000003BA,false,Rx,0,8,2E,2E,3D,33,3D,3D,00,00,
-1693295634325376,000003BC,false,Rx,0,8,2E,2E,22,10,00,5F,00,00,
-1693295634315648,000003BD,false,Rx,0,8,14,04,0D,00,00,00,00,00,
-1693295634305580,000003BE,false,Rx,0,8,00,00,00,80,00,00,00,00,
-1693295634245679,000003B8,false,Rx,0,8,64,02,01,00,02,07,AC,1E,
-1693295634235696,000003BA,false,Rx,0,8,2E,2E,3D,33,3D,3D,00,00,
-1693295634225755,000003BC,false,Rx,0,8,2E,2E,22,10,00,5F,00,00,
-1693295634215388,000003BD,false,Rx,0,8,14,04,0D,00,00,00,00,00,
-1693295634205746,000003BE,false,Rx,0,8,00,00,00,80,00,00,00,00,
-1693295634145760,000003B8,false,Rx,0,8,64,02,01,00,02,07,39,1E,
-1693295634135649,000003BA,false,Rx,0,8,2E,2E,3D,33,3D,3D,00,00,
-1693295634125751,000003BC,false,Rx,0,8,2E,2E,22,0E,00,5F,00,00,
-1693295634115682,000003BD,false,Rx,0,8,14,04,0D,00,00,00,00,00,
-1693295634105742,000003BE,false,Rx,0,8,00,00,00,80,00,00,00,00,
-1693295634045756,000003B8,false,Rx,0,8,64,02,01,00,02,07,39,1E,
-1693295634035815,000003BA,false,Rx,0,8,2E,2E,3D,33,3D,3D,00,00,
-1693295634025363,000003BC,false,Rx,0,8,2E,2E,22,0E,00,5F,00,00,
-1693295634015976,000003BD,false,Rx,0,8,14,04,0D,00,00,00,00,00,
-1693295634005865,000003BE,false,Rx,0,8,00,00,00,80,00,00,00,00,
-1693295633945922,000003B8,false,Rx,0,8,64,02,01,00,02,06,D0,1E,
-1693295633936024,000003BA,false,Rx,0,8,2E,2E,3D,33,3D,3D,00,00,
-1693295633926041,000003BC,false,Rx,0,8,2E,2E,22,0E,00,5F,00,00,
-1693295633915545,000003BD,false,Rx,0,8,14,04,0D,00,00,00,00,00,
-1693295633906031,000003BE,false,Rx,0,8,00,00,00,80,00,00,00,00,
-1693295633846088,000003B8,false,Rx,0,8,64,02,01,00,02,06,D0,1E,
-1693295633836190,000003BA,false,Rx,0,8,2E,2E,3D,33,3D,3D,00,00,
-1693295633826164,000003BC,false,Rx,0,8,2E,2E,22,0E,00,5F,00,00,
-1693295633816096,000003BD,false,Rx,0,8,14,04,0D,00,00,00,00,00,
-1693295633805942,000003BE,false,Rx,0,8,00,00,00,80,00,00,00,00,
-1693295633746212,000003B8,false,Rx,0,8,64,02,01,00,02,06,D0,1E,
-1693295633736314,000003BA,false,Rx,0,8,2E,2E,3D,33,3D,3D,00,00,
-1693295633726203,000003BC,false,Rx,0,8,2E,2E,22,0E,00,5F,00,00,
-1693295633716262,000003BD,false,Rx,0,8,14,04,0D,00,00,00,00,00,
-1693295633706321,000003BE,false,Rx,0,8,00,00,00,80,00,00,00,00,
-1693295633646293,000003B8,false,Rx,0,8,64,02,01,00,02,06,69,1E,
-1693295633636352,000003BA,false,Rx,0,8,2E,2E,3D,33,3D,3D,00,00,
-1693295633626411,000003BC,false,Rx,0,8,2E,2E,22,0E,00,5F,00,00,
-1693295633616343,000003BD,false,Rx,0,8,14,04,0D,00,00,00,00,00,
-1693295633606359,000003BE,false,Rx,0,8,00,00,00,80,00,00,00,00,
-1693295633546075,000003B8,false,Rx,0,8,64,02,01,00,02,06,69,1E,
-1693295633536561,000003BA,false,Rx,0,8,2E,2E,3D,33,3D,3D,00,00,
-1693295633526620,000003BC,false,Rx,0,8,2E,2E,22,0E,00,5F,00,00,
-1693295633516552,000003BD,false,Rx,0,8,14,04,0D,00,00,00,00,00,
-1693295633506611,000003BE,false,Rx,0,8,00,00,00,80,00,00,00,00,
-1693295633446540,000003B8,false,Rx,0,8,64,02,01,00,02,06,69,1E,
-1693295633436429,000003BA,false,Rx,0,8,2E,2E,3D,33,3D,3D,00,00,
-1693295633426531,000003BC,false,Rx,0,8,2E,2E,22,0E,00,5F,00,00,
-1693295633416590,000003BD,false,Rx,0,8,14,04,0D,00,00,00,00,00,
-1693295633406564,000003BE,false,Rx,0,8,00,00,00,80,00,00,00,00,
-1693295633346706,000003B8,false,Rx,0,8,64,02,01,00,02,06,0F,1E,
-1693295633336736,000003BA,false,Rx,0,8,2E,2E,3D,33,3D,3D,00,00,
-1693295633326667,000003BC,false,Rx,0,8,2E,2E,22,0E,00,5F,00,00,
-1693295633316726,000003BD,false,Rx,0,8,14,04,0D,00,00,00,00,00,
-1693295633306743,000003BE,false,Rx,0,8,00,00,00,80,00,00,00,00,
-1693295633246288,000003B8,false,Rx,0,8,64,02,01,00,02,06,0F,1E,
-1693295633236816,000003BA,false,Rx,0,8,2E,2E,3D,33,3D,3D,00,00,
-1693295633226833,000003BC,false,Rx,0,8,2E,2E,22,0D,00,5F,00,00,
-1693295633216850,000003BD,false,Rx,0,8,14,04,0D,00,00,00,00,00,
-1693295633206781,000003BE,false,Rx,0,8,00,00,00,80,00,00,00,00,
-1693295633146838,000003B8,false,Rx,0,8,64,02,01,00,02,06,0F,1E,
-1693295633136599,000003BA,false,Rx,0,8,2E,2E,3D,33,3D,3D,00,00,
-1693295633127042,000003BC,false,Rx,0,8,2E,2E,22,0D,00,5F,00,00,
-1693295633116845,000003BD,false,Rx,0,8,14,04,0D,00,00,00,00,00,
-1693295633106947,000003BE,false,Rx,0,8,00,00,00,80,00,00,00,00,
-1693295633046919,000003B8,false,Rx,0,8,64,02,01,00,02,05,B6,1E,
-1693295633036936,000003BA,false,Rx,0,8,2E,2E,3D,33,3D,3D,00,00,
-1693295633026696,000003BC,false,Rx,0,8,2E,2E,22,08,00,5F,00,00,
-1693295633017054,000003BD,false,Rx,0,8,14,04,0D,00,00,00,00,00,
-1693295633007071,000003BE,false,Rx,0,8,00,00,00,80,00,00,00,00,
-1693295632947128,000003B8,false,Rx,0,8,64,02,01,00,02,05,B6,1E,
-1693295632937187,000003BA,false,Rx,0,8,2E,2E,3D,33,3D,3D,00,00,
-1693295632927033,000003BC,false,Rx,0,8,2E,2E,22,08,00,5F,00,00,
-1693295632916922,000003BD,false,Rx,0,8,14,04,0D,00,00,00,00,00,
-1693295632906981,000003BE,false,Rx,0,8,00,00,00,80,00,00,00,00,
-1693295632846996,000003B8,false,Rx,0,8,64,02,01,00,02,05,60,1E,
-1693295632837183,000003BA,false,Rx,0,8,2E,2E,3D,33,3D,3D,00,00,
-1693295632827071,000003BC,false,Rx,0,8,2E,2E,22,08,00,5F,00,00,
-1693295632817131,000003BD,false,Rx,0,8,14,04,0D,00,00,00,00,00,
-1693295632807190,000003BE,false,Rx,0,8,00,00,00,80,00,00,00,00,
-1693295632747119,000003B8,false,Rx,0,8,64,02,01,00,02,05,60,1E,
-1693295632737264,000003BA,false,Rx,0,8,2E,2E,3D,33,3D,3D,00,00,
-1693295632726811,000003BC,false,Rx,0,8,2E,2E,22,0A,00,5F,00,00,
-1693295632717340,000003BD,false,Rx,0,8,14,04,0D,00,00,00,00,00,
-1693295632707186,000003BE,false,Rx,0,8,00,00,00,80,00,00,00,00,
-1693295632647029,000003B8,false,Rx,0,8,64,02,01,00,02,05,60,1E,
-1693295632637131,000003BA,false,Rx,0,8,2E,2E,3D,33,3D,3D,00,00,
-1693295632627148,000003BC,false,Rx,0,8,2E,2E,22,0A,00,5F,00,00,
-1693295632617037,000003BD,false,Rx,0,8,14,04,0D,00,00,00,00,00,
-1693295632607309,000003BE,false,Rx,0,8,00,00,00,80,00,00,00,00,
-1693295632547281,000003B8,false,Rx,0,8,64,02,01,00,02,05,0D,1E,
-1693295632537170,000003BA,false,Rx,0,8,2E,2E,3D,33,3D,3D,00,00,
-1693295632527229,000003BC,false,Rx,0,8,2E,2E,22,0A,00,5F,00,00,
-1693295632517288,000003BD,false,Rx,0,8,14,04,0D,00,00,00,00,00,
-1693295632507219,000003BE,false,Rx,0,8,00,00,00,80,00,00,00,00,
-1693295632447106,000003B8,false,Rx,0,8,64,02,01,00,02,05,0D,1E,
-1693295632437378,000003BA,false,Rx,0,8,2E,2E,3D,33,3D,3D,00,00,
-1693295632426883,000003BC,false,Rx,0,8,2E,2E,21,FA,00,5F,00,00,
-1693295632417369,000003BD,false,Rx,0,8,14,04,0D,00,00,00,00,00,
-1693295632407215,000003BE,false,Rx,0,8,00,00,00,80,00,00,00,00,
-1693295632347357,000003B8,false,Rx,0,8,64,02,01,00,02,05,0D,1E,
-1693295632337508,000003BA,false,Rx,0,8,2E,2E,3D,33,3D,3D,00,00,
-1693295632327568,000003BC,false,Rx,0,8,2E,2E,21,FA,00,5F,00,00,
-1693295632317243,000003BD,false,Rx,0,8,14,04,0D,00,00,00,00,00,
-1693295632307430,000003BE,false,Rx,0,8,00,00,00,80,00,00,00,00,
-1693295632247530,000003B8,false,Rx,0,8,64,02,01,00,02,04,C2,1E,
-1693295632237632,000003BA,false,Rx,0,8,2E,2E,3D,33,3D,3D,00,00,
-1693295632227563,000003BC,false,Rx,0,8,2E,2E,21,FA,00,5F,00,00,
-1693295632217580,000003BD,false,Rx,0,8,14,04,0D,00,00,00,00,00,
-1693295632207383,000003BE,false,Rx,0,8,00,00,00,80,00,00,00,00,
-1693295632147739,000003B8,false,Rx,0,8,64,02,01,00,02,04,C2,1E,
-1693295632137841,000003BA,false,Rx,0,8,2E,2E,3D,33,3D,3D,00,00,
-1693295632127857,000003BC,false,Rx,0,8,2E,2E,21,F7,00,5F,00,00,
-1693295632117703,000003BD,false,Rx,0,8,14,04,0D,00,00,00,00,00,
-1693295632107720,000003BE,false,Rx,0,8,00,00,00,80,00,00,00,00,
-1693295632047862,000003B8,false,Rx,0,8,64,02,01,00,02,04,C2,1E,
-1693295632037964,000003BA,false,Rx,0,8,2E,2E,3D,33,3D,3D,00,00,
-1693295632027938,000003BC,false,Rx,0,8,2E,2E,21,F7,00,5F,00,00,
-1693295632017955,000003BD,false,Rx,0,8,14,04,0D,00,00,00,00,00,
-1693295632007929,000003BE,false,Rx,0,8,00,00,00,80,00,00,00,00,
-1693295631947687,000003B8,false,Rx,0,8,64,02,01,00,02,04,7C,1E,
-1693295631937960,000003BA,false,Rx,0,8,2E,2E,3D,33,3D,3D,00,00,
-1693295631928062,000003BC,false,Rx,0,8,2E,2E,21,F7,00,5F,00,00,
-1693295631918036,000003BD,false,Rx,0,8,14,04,0D,00,00,00,00,00,
-1693295631908053,000003BE,false,Rx,0,8,00,00,00,80,00,00,00,00,
-1693295631848152,000003B8,false,Rx,0,8,64,02,01,00,02,04,7C,1E,
-1693295631837956,000003BA,false,Rx,0,8,2E,2E,3D,33,3D,3D,00,00,
-1693295631828228,000003BC,false,Rx,0,8,2E,2E,21,F7,00,5F,00,00,
-1693295631818287,000003BD,false,Rx,0,8,14,04,0D,00,00,00,00,00,
-1693295631808133,000003BE,false,Rx,0,8,00,00,00,80,00,00,00,00,
-1693295631748105,000003B8,false,Rx,0,8,64,02,01,00,02,04,3D,1E,
-1693295631738292,000003BA,false,Rx,0,8,2E,2E,3D,33,3D,3D,00,00,
-1693295631727968,000003BC,false,Rx,0,8,2E,2E,21,F7,00,5F,00,00,
-1693295631718240,000003BD,false,Rx,0,8,14,04,0D,00,00,00,00,00,
-1693295631708300,000003BE,false,Rx,0,8,00,00,00,80,00,00,00,00,
-1693295631648357,000003B8,false,Rx,0,8,64,02,01,00,02,04,3D,1E,
-1693295631638288,000003BA,false,Rx,0,8,2E,2E,3D,33,3D,3D,00,00,
-1693295631628305,000003BC,false,Rx,0,8,2E,2E,21,F7,00,5F,00,00,
-1693295631618364,000003BD,false,Rx,0,8,14,04,0D,00,00,00,00,00,
-1693295631608423,000003BE,false,Rx,0,8,00,00,00,80,00,00,00,00,
-1693295631548395,000003B8,false,Rx,0,8,64,02,01,00,02,04,3D,1E,
-1693295631538454,000003BA,false,Rx,0,8,2E,2E,3D,33,3D,3D,00,00,
-1693295631528514,000003BC,false,Rx,0,8,2E,2E,21,F7,00,5F,00,00,
-1693295631518573,000003BD,false,Rx,0,8,14,04,0D,00,00,00,00,00,
-1693295631508590,000003BE,false,Rx,0,8,00,00,00,80,00,00,00,00,
-1693295631448561,000003B8,false,Rx,0,8,64,02,01,00,02,04,00,1E,
-1693295631438663,000003BA,false,Rx,0,8,2E,2E,3D,33,3D,3D,00,00,
-1693295631428125,000003BC,false,Rx,0,8,2E,2E,21,F7,00,5F,00,00,
-1693295631418611,000003BD,false,Rx,0,8,14,04,0D,00,00,00,00,00,
-1693295631408542,000003BE,false,Rx,0,8,00,00,00,80,00,00,00,00,
-1693295631348472,000003B8,false,Rx,0,8,64,02,01,00,02,04,00,1E,
-1693295631338592,000003BA,false,Rx,0,8,2E,2E,3D,33,3D,3D,00,00,
-1693295631328652,000003BC,false,Rx,0,8,2E,2E,21,F7,00,5F,00,00,
-1693295631318540,000003BD,false,Rx,0,8,14,04,0D,00,00,00,00,00,
-1693295631308642,000003BE,false,Rx,0,8,00,00,00,80,00,00,00,00,
-1693295631248614,000003B8,false,Rx,0,8,64,02,01,00,02,04,00,1E,
-1693295631238759,000003BA,false,Rx,0,8,2E,2E,3D,33,3D,3D,00,00,
-1693295631228775,000003BC,false,Rx,0,8,2E,2E,21,F7,00,5F,00,00,
-1693295631218749,000003BD,false,Rx,0,8,14,04,0D,00,00,00,00,00,
-1693295631208681,000003BE,false,Rx,0,8,00,00,00,80,00,00,00,00,
-1693295631148738,000003B8,false,Rx,0,8,64,02,01,00,02,03,C6,1E,
-1693295631138840,000003BA,false,Rx,0,8,2E,2E,3D,33,3D,3D,00,00,
-1693295631128984,000003BC,false,Rx,0,8,2E,2E,21,F7,00,5F,00,00,
-1693295631118830,000003BD,false,Rx,0,8,14,04,0D,00,00,00,00,00,
-1693295631108804,000003BE,false,Rx,0,8,00,00,00,80,00,00,00,00,
-1693295631048947,000003B8,false,Rx,0,8,64,02,01,00,02,03,C6,1E,
-1693295631039049,000003BA,false,Rx,0,8,2E,2E,3D,33,3D,3D,00,00,
-1693295631029108,000003BC,false,Rx,0,8,2E,2E,21,EF,00,5F,00,00,
-1693295631018698,000003BD,false,Rx,0,8,14,04,0D,00,00,00,00,00,
-1693295631008970,000003BE,false,Rx,0,8,00,00,00,80,00,00,00,00,
-1693295630949070,000003B8,false,Rx,0,8,64,02,01,00,02,03,C6,1E,
-1693295630939215,000003BA,false,Rx,0,8,2E,2E,3D,33,3D,3D,00,00,
-1693295630929231,000003BC,false,Rx,0,8,2E,2E,21,EF,00,5F,00,00,
-1693295630919077,000003BD,false,Rx,0,8,14,04,0D,00,00,00,00,00,
-1693295630908710,000003BE,false,Rx,0,8,00,00,00,80,00,00,00,00,
-1693295630849151,000003B8,false,Rx,0,8,64,02,01,00,02,03,8E,1E,
-1693295630839168,000003BA,false,Rx,0,8,2E,2E,3D,33,3D,3D,00,00,
-1693295630829270,000003BC,false,Rx,0,8,2E,2E,21,E0,00,5F,00,00,
-1693295630819201,000003BD,false,Rx,0,8,14,04,0D,00,00,00,00,00,
-1693295630809303,000003BE,false,Rx,0,8,00,00,00,80,00,00,00,00,
-1693295630749232,000003B8,false,Rx,0,8,64,02,01,00,02,03,8E,1E,
-1693295630739462,000003BA,false,Rx,0,8,2E,2E,3D,33,3D,3D,00,00,
-1693295630729479,000003BC,false,Rx,0,8,2E,2E,21,E0,00,5F,00,00,
-1693295630719453,000003BD,false,Rx,0,8,14,04,0D,00,00,00,00,00,
-1693295630709426,000003BE,false,Rx,0,8,00,00,00,80,00,00,00,00,
-1693295630649228,000003B8,false,Rx,0,8,64,02,01,00,02,03,8E,1E,
-1693295630639543,000003BA,false,Rx,0,8,2E,2E,3D,33,3D,3D,00,00,
-1693295630629602,000003BC,false,Rx,0,8,2E,2E,21,E0,00,5F,00,00,
-1693295630619533,000003BD,false,Rx,0,8,14,04,0D,00,00,00,00,00,
-1693295630609593,000003BE,false,Rx,0,8,00,00,00,80,00,00,00,00,
-1693295630549564,000003B8,false,Rx,0,8,64,02,01,00,02,03,5A,1E,
-1693295630539368,000003BA,false,Rx,0,8,2E,2E,3D,33,3D,3D,00,00,
-1693295630529598,000003BC,false,Rx,0,8,2E,2E,21,DF,00,5F,00,00,
-1693295630519657,000003BD,false,Rx,0,8,14,04,0D,00,00,00,00,00,
-1693295630509503,000003BE,false,Rx,0,8,00,00,00,80,00,00,00,00,
-1693295630449603,000003B8,false,Rx,0,8,64,02,01,00,02,03,5A,1E,
-1693295630439619,000003BA,false,Rx,0,8,2E,2E,3D,33,3D,3D,00,00,
-1693295630429508,000003BC,false,Rx,0,8,2E,2E,21,DF,00,5F,00,00,
-1693295630419823,000003BD,false,Rx,0,8,14,04,0D,00,00,00,00,00,
-1693295630409669,000003BE,false,Rx,0,8,00,00,00,80,00,00,00,00,
-1693295630349684,000003B8,false,Rx,0,8,64,02,01,00,02,03,27,1E,
-1693295630339756,000003BA,false,Rx,0,8,2E,2E,3D,33,3D,3D,00,00,
-1693295630329772,000003BC,false,Rx,0,8,2E,2E,21,DF,00,5F,00,00,
-1693295630319874,000003BD,false,Rx,0,8,14,04,0D,00,00,00,00,00,
-1693295630309805,000003BE,false,Rx,0,8,00,00,00,80,00,00,00,00,
-1693295630249820,000003B8,false,Rx,0,8,64,02,01,00,02,03,27,1E,
-1693295630239964,000003BA,false,Rx,0,8,2E,2E,3D,33,3D,3D,00,00,
-1693295630230024,000003BC,false,Rx,0,8,2E,2E,21,DF,00,5F,00,00,
-1693295630219912,000003BD,false,Rx,0,8,14,04,0D,00,00,00,00,00,
-1693295630209972,000003BE,false,Rx,0,8,00,00,00,80,00,00,00,00,
-1693295630150071,000003B8,false,Rx,0,8,64,02,01,00,02,03,27,1E,
-1693295630140131,000003BA,false,Rx,0,8,2E,2E,3D,33,3D,3D,00,00,
-1693295630129678,000003BC,false,Rx,0,8,2E,2E,21,DF,00,5F,00,00,
-1693295630120164,000003BD,false,Rx,0,8,14,04,0D,00,00,00,00,00,
-1693295630110138,000003BE,false,Rx,0,8,00,00,00,80,00,00,00,00,
-1693295630050195,000003B8,false,Rx,0,8,64,02,01,00,02,02,FA,1E,
-1693295630040340,000003BA,false,Rx,0,8,2E,2E,3D,33,3D,3D,00,00,
-1693295630030186,000003BC,false,Rx,0,8,2E,2E,21,DF,00,5F,00,00,
-1693295630019861,000003BD,false,Rx,0,8,14,04,0D,00,00,00,00,00,
-1693295630010261,000003BE,false,Rx,0,8,00,00,00,80,00,00,00,00,
-1693295629950276,000003B8,false,Rx,0,8,64,02,01,00,02,02,FA,1E,
-1693295629940421,000003BA,false,Rx,0,8,2E,2E,3D,33,3D,3D,00,00,
-1693295629930266,000003BC,false,Rx,0,8,2E,2E,21,DF,00,5F,00,00,
-1693295629920454,000003BD,false,Rx,0,8,14,04,0D,00,00,00,00,00,
-1693295629909958,000003BE,false,Rx,0,8,00,00,00,80,00,00,00,00,
-1693295629850314,000003B8,false,Rx,0,8,64,02,01,00,02,02,FA,1E,
-1693295629840416,000003BA,false,Rx,0,8,2E,2E,3D,33,3D,3D,00,00,
-1693295629830433,000003BC,false,Rx,0,8,2E,2E,21,DF,00,5F,00,00,
-1693295629820492,000003BD,false,Rx,0,8,14,04,0D,00,00,00,00,00,
-1693295629810509,000003BE,false,Rx,0,8,00,00,00,80,00,00,00,00,
-1693295629750566,000003B8,false,Rx,0,8,64,02,01,00,02,02,CF,1E,
-1693295629740668,000003BA,false,Rx,0,8,2E,2E,3D,33,3D,3D,00,00,
-1693295629730684,000003BC,false,Rx,0,8,2E,2E,21,DF,00,5F,00,00,
-1693295629720701,000003BD,false,Rx,0,8,14,04,0D,00,00,00,00,00,
-1693295629710760,000003BE,false,Rx,0,8,00,00,00,80,00,00,00,00,
-1693295629650433,000003B8,false,Rx,0,8,64,02,01,00,02,02,CF,1E,
-1693295629640706,000003BA,false,Rx,0,8,2E,2E,3D,33,3D,3D,00,00,
-1693295629630723,000003BC,false,Rx,0,8,2E,2E,21,DF,00,5F,00,00,
-1693295629620867,000003BD,false,Rx,0,8,14,04,0D,00,00,00,00,00,
-1693295629610841,000003BE,false,Rx,0,8,00,00,00,80,00,00,00,00,
-1693295629550856,000003B8,false,Rx,0,8,64,02,01,00,02,02,CF,1E,
-1693295629540531,000003BA,false,Rx,0,8,2E,2E,3D,33,3D,3D,00,00,
-1693295629530889,000003BC,false,Rx,0,8,2E,2E,21,DF,00,5F,00,00,
-1693295629520948,000003BD,false,Rx,0,8,14,04,0D,00,00,00,00,00,
-1693295629510794,000003BE,false,Rx,0,8,00,00,00,80,00,00,00,00,
-1693295629450851,000003B8,false,Rx,0,8,64,02,01,00,02,02,A9,1E,
-1693295629440996,000003BA,false,Rx,0,8,2E,2E,3D,33,3D,3D,00,00,
-1693295629430799,000003BC,false,Rx,0,8,2E,2E,21,DF,00,5F,00,00,
-1693295629420901,000003BD,false,Rx,0,8,14,04,0D,00,00,00,00,00,
-1693295629410960,000003BE,false,Rx,0,8,00,00,00,80,00,00,00,00,
-1693295629351017,000003B8,false,Rx,0,8,64,02,01,00,02,02,A9,1E,
-1693295629341077,000003BA,false,Rx,0,8,2E,2E,3D,33,3D,3D,00,00,
-1693295629331106,000003BC,false,Rx,0,8,2E,2E,21,DF,00,5F,00,00,
-1693295629320995,000003BD,false,Rx,0,8,14,04,0D,00,00,00,00,00,
-1693295629311054,000003BE,false,Rx,0,8,00,00,00,80,00,00,00,00,
-1693295629251111,000003B8,false,Rx,0,8,64,02,01,00,02,02,82,1E,
-1693295629241128,000003BA,false,Rx,0,8,2E,2E,3D,33,3D,3D,00,00,
-1693295629231187,000003BC,false,Rx,0,8,2E,2E,21,DF,00,5F,00,00,
-1693295629221075,000003BD,false,Rx,0,8,14,04,0D,00,00,00,00,00,
-1693295629211092,000003BE,false,Rx,0,8,00,00,00,80,00,00,00,00,
-1693295629151235,000003B8,false,Rx,0,8,64,02,01,00,02,02,82,1E,
-1693295629141336,000003BA,false,Rx,0,8,2E,2E,3D,33,3D,3D,00,00,
-1693295629130798,000003BC,false,Rx,0,8,2E,2E,21,DE,00,5F,00,00,
-1693295629121284,000003BD,false,Rx,0,8,14,04,0D,00,00,00,00,00,
-1693295629111344,000003BE,false,Rx,0,8,00,00,00,80,00,00,00,00,
-1693295629051273,000003B8,false,Rx,0,8,64,02,01,00,02,02,82,1E,
-1693295629041375,000003BA,false,Rx,0,8,2E,2E,3D,33,3D,3D,00,00,
-1693295629031434,000003BC,false,Rx,0,8,2E,2E,21,DE,00,5F,00,00,
-1693295629021152,000003BD,false,Rx,0,8,14,04,0D,00,00,00,00,00,
-1693295629011339,000003BE,false,Rx,0,8,00,00,00,80,00,00,00,00,
-1693295628951482,000003B8,false,Rx,0,8,64,02,01,00,02,02,62,1E,
-1693295628941626,000003BA,false,Rx,0,8,2E,2E,3D,33,3D,3D,00,00,
-1693295628931643,000003BC,false,Rx,0,8,2E,2E,21,DE,00,5F,00,00,
-1693295628921574,000003BD,false,Rx,0,8,14,04,0D,00,00,00,00,00,
-1693295628911378,000003BE,false,Rx,0,8,00,00,00,80,00,00,00,00,
-1693295628851648,000003B8,false,Rx,0,8,64,02,01,00,02,02,62,1E,
-1693295628841750,000003BA,false,Rx,0,8,2E,2E,3D,33,3D,3D,00,00,
-1693295628831638,000003BC,false,Rx,0,8,2E,2E,21,D6,00,5F,00,00,
-1693295628821655,000003BD,false,Rx,0,8,14,04,0D,00,00,00,00,00,
-1693295628811586,000003BE,false,Rx,0,8,00,00,00,80,00,00,00,00,
-1693295628751558,000003B8,false,Rx,0,8,64,02,01,00,02,02,62,1E,
-1693295628741703,000003BA,false,Rx,0,8,2E,2E,3D,33,3D,3D,00,00,
-1693295628731762,000003BC,false,Rx,0,8,2E,2E,21,D6,00,5F,00,00,
-1693295628721181,000003BD,false,Rx,0,8,14,04,0D,00,00,00,00,00,
-1693295628711625,000003BE,false,Rx,0,8,00,00,00,80,00,00,00,00,
-1693295628651554,000003B8,false,Rx,0,8,64,02,01,00,02,02,3E,1E,
-1693295628641613,000003BA,false,Rx,0,8,2E,2E,3D,33,3D,3D,00,00,
-1693295628631630,000003BC,false,Rx,0,8,2E,2E,21,D6,00,5F,00,00,
-1693295628621561,000003BD,false,Rx,0,8,14,04,0D,00,00,00,00,00,
-1693295628611492,000003BE,false,Rx,0,8,00,00,00,80,00,00,00,00,
-1693295628551549,000003B8,false,Rx,0,8,64,02,01,00,02,02,3E,1E,
-1693295628541822,000003BA,false,Rx,0,8,2E,2E,3D,33,3D,3D,00,00,
-1693295628531796,000003BC,false,Rx,0,8,2E,2E,21,C8,00,5F,00,00,
-1693295628521770,000003BD,false,Rx,0,8,14,04,0D,00,00,00,00,00,
-1693295628511829,000003BE,false,Rx,0,8,00,00,00,80,00,00,00,00,
-1693295628451844,000003B8,false,Rx,0,8,64,02,01,00,02,02,3E,1E,
-1693295628441860,000003BA,false,Rx,0,8,2E,2E,3D,33,3D,3D,00,00,
-1693295628431791,000003BC,false,Rx,0,8,2E,2E,21,C8,00,5F,00,00,
-1693295628421765,000003BD,false,Rx,0,8,14,04,0D,00,00,00,00,00,
-1693295628411739,000003BE,false,Rx,0,8,00,00,00,80,00,00,00,00,
-1693295628351711,000003B8,false,Rx,0,8,64,02,01,00,02,03,16,1E,
-1693295628341856,000003BA,false,Rx,0,8,2E,2E,3D,33,3D,3D,00,00,
-1693295628331757,000003BC,false,Rx,0,8,2E,2E,21,C8,00,5F,00,00,
-1693295628321731,000003BD,false,Rx,0,8,14,04,0D,00,00,00,00,00,
-1693295628311364,000003BE,false,Rx,0,8,00,00,00,80,00,00,00,00,
-1693295628251677,000003B8,false,Rx,0,8,64,02,01,00,02,03,16,1E,
-1693295628241779,000003BA,false,Rx,0,8,2E,2E,3D,33,3D,3D,00,00,
-1693295628231667,000003BC,false,Rx,0,8,2E,2E,21,C8,00,5F,00,00,
-1693295628221727,000003BD,false,Rx,0,8,14,04,0D,00,00,00,00,00,
-1693295628211786,000003BE,false,Rx,0,8,00,00,00,80,00,00,00,00,
-1693295628151886,000003B8,false,Rx,0,8,64,02,01,00,02,06,87,1E,
-1693295628141860,000003BA,false,Rx,0,8,2E,2E,3D,33,3D,3D,00,00,
-1693295628131919,000003BC,false,Rx,0,8,2E,2E,21,C8,00,5F,00,00,
-1693295628121850,000003BD,false,Rx,0,8,14,04,0D,00,00,00,00,00,
-1693295628111867,000003BE,false,Rx,0,8,00,00,00,80,00,00,00,00,
-1693295628051625,000003B8,false,Rx,0,8,64,02,01,00,02,06,87,1E,
-1693295628041941,000003BA,false,Rx,0,8,2E,2E,3D,33,3D,3D,00,00,
-1693295628032000,000003BC,false,Rx,0,8,2E,2E,21,C8,00,5F,00,00,
-1693295628022102,000003BD,false,Rx,0,8,14,04,0D,00,00,00,00,00,
-1693295628011564,000003BE,false,Rx,0,8,00,00,00,80,00,00,00,00,
-1693295627952090,000003B8,false,Rx,0,8,64,02,01,00,02,06,87,1E,
-1693295627942021,000003BA,false,Rx,0,8,2E,2E,3D,33,3D,3D,00,00,
-1693295627932294,000003BC,false,Rx,0,8,2E,2E,21,C8,00,5F,00,00,
-1693295627922183,000003BD,false,Rx,0,8,14,04,0D,00,00,00,00,00,
-1693295627912199,000003BE,false,Rx,0,8,00,00,00,80,00,00,00,00,
-1693295627852128,000003B8,false,Rx,0,8,64,02,01,00,02,09,E2,1E,
-1693295627842188,000003BA,false,Rx,0,8,2E,2E,3D,33,3D,3D,00,00,
-1693295627832247,000003BC,false,Rx,0,8,2E,2E,21,C8,00,5F,00,00,
-1693295627822178,000003BD,false,Rx,0,8,14,04,0D,00,00,00,00,00,
-1693295627812152,000003BE,false,Rx,0,8,00,00,00,80,00,00,00,00,
-1693295627751825,000003B8,false,Rx,0,8,64,02,01,00,02,09,E2,1E,
-1693295627742141,000003BA,false,Rx,0,8,2E,2E,3D,33,3D,3D,00,00,
-1693295627732200,000003BC,false,Rx,0,8,2E,2E,21,C8,00,5F,00,00,
-1693295627722217,000003BD,false,Rx,0,8,14,04,0D,00,00,00,00,00,
-1693295627712020,000003BE,false,Rx,0,8,00,00,00,80,00,00,00,00,
-1693295627652290,000003B8,false,Rx,0,8,64,02,01,00,02,09,E2,1E,
-1693295627642051,000003BA,false,Rx,0,8,2E,2E,3D,33,3D,3D,00,00,
-1693295627632323,000003BC,false,Rx,0,8,2E,2E,21,C8,00,5F,00,00,
-1693295627622340,000003BD,false,Rx,0,8,14,04,0D,00,00,00,00,00,
-1693295627612101,000003BE,false,Rx,0,8,00,00,00,80,00,00,00,00,
-1693295627552243,000003B8,false,Rx,0,8,64,02,01,00,02,0D,03,1E,
-1693295627542260,000003BA,false,Rx,0,8,2E,2E,3D,33,3D,3D,00,00,
-1693295627532276,000003BC,false,Rx,0,8,2E,2E,21,C8,00,5F,00,00,
-1693295627522208,000003BD,false,Rx,0,8,14,04,0D,00,00,00,00,00,
-1693295627512310,000003BE,false,Rx,0,8,00,00,00,80,00,00,00,00,
-1693295627451855,000003B8,false,Rx,0,8,64,02,01,00,02,0D,03,1E,
-1693295627442511,000003BA,false,Rx,0,8,2E,2E,3D,33,3D,3D,00,00,
-1693295627432485,000003BC,false,Rx,0,8,2E,2E,21,C4,00,5F,00,00,
-1693295627422331,000003BD,false,Rx,0,8,14,04,0D,00,00,00,00,00,
-1693295627412476,000003BE,false,Rx,0,8,00,00,00,80,00,00,00,00,
-1693295627352362,000003B8,false,Rx,0,8,64,02,01,00,02,0D,03,1E,
-1693295627342464,000003BA,false,Rx,0,8,2E,2E,3D,33,3D,3D,00,00,
-1693295627332408,000003BC,false,Rx,0,8,2E,2E,21,C4,00,5F,00,00,
-1693295627322467,000003BD,false,Rx,0,8,14,04,0D,00,00,00,00,00,
-1693295627312313,000003BE,false,Rx,0,8,00,00,00,80,00,00,00,00,
-1693295627252371,000003B8,false,Rx,0,8,64,02,01,00,02,0F,F4,1E,
-1693295627242472,000003BA,false,Rx,0,8,2E,2E,3D,33,3D,3D,00,00,
-1693295627232233,000003BC,false,Rx,0,8,2E,2E,21,C6,00,5F,00,00,
-1693295627222420,000003BD,false,Rx,0,8,14,04,0D,00,00,00,00,00,
-1693295627212480,000003BE,false,Rx,0,8,00,00,00,80,00,00,00,00,
-1693295627152494,000003B8,false,Rx,0,8,64,02,01,00,02,0F,F4,1E,
-1693295627142639,000003BA,false,Rx,0,8,2E,2E,3D,33,3D,3D,00,00,
-1693295627132655,000003BC,false,Rx,0,8,2E,2E,21,C6,00,5F,00,00,
-1693295627122373,000003BD,false,Rx,0,8,14,04,0D,00,00,00,00,00,
-1693295627112603,000003BE,false,Rx,0,8,00,00,00,80,00,00,00,00,
-1693295627052788,000003B8,false,Rx,0,8,64,02,01,00,02,13,6B,1E,
-1693295627042848,000003BA,false,Rx,0,8,2E,2E,3D,33,3D,3D,00,00,
-1693295627032694,000003BC,false,Rx,0,8,2E,2E,21,C6,00,5F,00,00,
-1693295627022753,000003BD,false,Rx,0,8,14,04,0D,00,00,00,00,00,
-1693295627012599,000003BE,false,Rx,0,8,00,00,00,80,00,00,00,00,
-1693295626952699,000003B8,false,Rx,0,8,64,02,01,00,02,13,6B,1E,
-1693295626942758,000003BA,false,Rx,0,8,2E,2E,3D,33,3D,3D,00,00,
-1693295626932860,000003BC,false,Rx,0,8,2E,2E,21,B5,00,5F,00,00,
-1693295626922919,000003BD,false,Rx,0,8,14,04,0D,00,00,00,00,00,
-1693295626912936,000003BE,false,Rx,0,8,00,00,00,80,00,00,00,00,
-1693295626852865,000003B8,false,Rx,0,8,64,02,01,00,02,13,6B,1E,
-1693295626843009,000003BA,false,Rx,0,8,2E,2E,3D,33,3D,3D,00,00,
-1693295626833026,000003BC,false,Rx,0,8,2E,2E,21,B5,00,5F,00,00,
-1693295626822957,000003BD,false,Rx,0,8,14,04,0D,00,00,00,00,00,
-1693295626813017,000003BE,false,Rx,0,8,00,00,00,80,00,00,00,00,
-1693295626752647,000003B8,false,Rx,0,8,64,02,01,00,02,16,1F,1E,
-1693295626743176,000003BA,false,Rx,0,8,2E,2E,3D,33,3D,3D,00,00,
-1693295626733235,000003BC,false,Rx,0,8,2E,2E,21,B5,00,5F,00,00,
-1693295626723124,000003BD,false,Rx,0,8,14,04,0D,00,00,00,00,00,
-1693295626713183,000003BE,false,Rx,0,8,00,00,00,80,00,00,00,00,
-1693295626653197,000003B8,false,Rx,0,8,64,02,01,00,02,16,1F,1E,
-1693295626643043,000003BA,false,Rx,0,8,2E,2E,3D,33,3D,3D,00,00,
-1693295626633359,000003BC,false,Rx,0,8,2E,2E,21,B1,00,5F,00,00,
-1693295626623205,000003BD,false,Rx,0,8,14,04,0D,00,00,00,00,00,
-1693295626613392,000003BE,false,Rx,0,8,00,00,00,80,00,00,00,00,
-1693295626553278,000003B8,false,Rx,0,8,64,02,01,00,02,16,1F,1E,
-1693295626543380,000003BA,false,Rx,0,8,2E,2E,3D,33,3D,3D,00,00,
-1693295626533183,000003BC,false,Rx,0,8,2E,2E,21,B1,00,5F,00,00,
-1693295626523413,000003BD,false,Rx,0,8,14,04,0D,00,00,00,00,00,
-1693295626513430,000003BE,false,Rx,0,8,00,00,00,80,00,00,00,00,
-1693295626453572,000003B8,false,Rx,0,8,64,02,01,00,02,19,8A,1E,
-1693295626443589,000003BA,false,Rx,0,8,2E,2E,3D,33,3D,3D,00,00,
-1693295626433648,000003BC,false,Rx,0,8,2E,2E,21,B1,00,5F,00,00,
-1693295626423324,000003BD,false,Rx,0,8,14,04,0D,00,00,00,00,00,
-1693295626413639,000003BE,false,Rx,0,8,00,00,00,80,00,00,00,00,
-1693295626353568,000003B8,false,Rx,0,8,64,02,01,00,02,19,8A,1E,
-1693295626343627,000003BA,false,Rx,0,8,2E,2E,3D,33,3D,3D,00,00,
-1693295626333571,000003BC,false,Rx,0,8,2E,2E,21,B1,00,5F,00,00,
-1693295626323673,000003BD,false,Rx,0,8,14,04,0D,00,00,00,00,00,
-1693295626313562,000003BE,false,Rx,0,8,00,00,00,80,00,00,00,00,
-1693295626253704,000003B8,false,Rx,0,8,64,02,01,00,02,19,8A,1E,
-1693295626243764,000003BA,false,Rx,0,8,2E,2E,3D,33,3D,3D,00,00,
-1693295626233738,000003BC,false,Rx,0,8,2E,2E,21,B1,00,5F,00,00,
-1693295626223626,000003BD,false,Rx,0,8,14,04,0D,00,00,00,00,00,
-1693295626213685,000003BE,false,Rx,0,8,00,00,00,80,00,00,00,00,
-1693295626153743,000003B8,false,Rx,0,8,64,02,01,00,02,1D,F9,1E,
-1693295626143844,000003BA,false,Rx,0,8,2E,2E,3D,33,3D,3D,00,00,
-1693295626133776,000003BC,false,Rx,0,8,2E,2E,21,B1,00,5F,00,00,
-1693295626123408,000003BD,false,Rx,0,8,14,04,0D,00,00,00,00,00,
-1693295626113852,000003BE,false,Rx,0,8,00,00,00,80,00,00,00,00,
-1693295626053823,000003B8,false,Rx,0,8,64,02,01,00,02,1D,F9,1E,
-1693295626043968,000003BA,false,Rx,0,8,2E,2E,3D,33,3D,3D,00,00,
-1693295626033814,000003BC,false,Rx,0,8,2E,2E,21,B1,00,5F,00,00,
-1693295626023916,000003BD,false,Rx,0,8,14,04,0D,00,00,00,00,00,
-1693295626013506,000003BE,false,Rx,0,8,00,00,00,80,00,00,00,00,
-1693295625953947,000003B8,false,Rx,0,8,64,02,01,00,02,22,47,1E,
-1693295625944006,000003BA,false,Rx,0,8,2E,2E,3D,33,3D,3D,00,00,
-1693295625934066,000003BC,false,Rx,0,8,2E,2E,21,B1,00,5F,00,00,
-1693295625924125,000003BD,false,Rx,0,8,14,04,0D,00,00,00,00,00,
-1693295625913971,000003BE,false,Rx,0,8,00,00,00,80,00,00,00,00,
-1693295625854113,000003B8,false,Rx,0,8,64,02,01,00,02,22,47,1E,
-1693295625844173,000003BA,false,Rx,0,8,2E,2E,3D,33,3D,3D,00,00,
-1693295625834232,000003BC,false,Rx,0,8,2E,2E,21,AF,00,7E,00,00,
-1693295625824163,000003BD,false,Rx,0,8,14,04,0D,00,00,00,00,00,
-1693295625814137,000003BE,false,Rx,0,8,00,00,00,80,00,00,00,00,
-1693295625753725,000003B8,false,Rx,0,8,64,02,01,00,02,22,47,1E,
-1693295625744253,000003BA,false,Rx,0,8,2E,2E,3D,33,3D,3D,00,00,
-1693295625734270,000003BC,false,Rx,0,8,2E,2E,21,AF,00,7E,00,00,
-1693295625724159,000003BD,false,Rx,0,8,14,04,0D,00,00,00,00,00,
-1693295625714261,000003BE,false,Rx,0,8,00,00,00,80,00,00,00,00,
-1693295625654104,000003B8,false,Rx,0,8,64,02,01,00,02,26,79,1E,
-1693295625643993,000003BA,false,Rx,0,8,2E,2E,3D,33,3D,3D,00,00,
-1693295625634266,000003BC,false,Rx,0,8,2E,2E,21,AF,00,7E,00,00,
-1693295625624325,000003BD,false,Rx,0,8,14,04,0D,00,00,00,00,00,
-1693295625614384,000003BE,false,Rx,0,8,00,00,00,80,00,00,00,00,
-1693295625554185,000003B8,false,Rx,0,8,64,02,01,00,02,26,79,1E,
-1693295625544287,000003BA,false,Rx,0,8,2E,2E,3D,33,3D,3D,00,00,
-1693295625534347,000003BC,false,Rx,0,8,2E,2E,21,A6,00,7E,00,00,
-1693295625524235,000003BD,false,Rx,0,8,14,04,0D,00,00,00,00,00,
-1693295625514209,000003BE,false,Rx,0,8,00,00,00,80,00,00,00,00,
-1693295625454309,000003B8,false,Rx,0,8,64,02,01,00,02,26,79,1E,
-1693295625444454,000003BA,false,Rx,0,8,2E,2E,3D,33,3D,3D,00,00,
-1693295625434470,000003BC,false,Rx,0,8,2E,2E,21,A6,00,7E,00,00,
-1693295625424401,000003BD,false,Rx,0,8,14,04,0D,00,00,00,00,00,
-1693295625414418,000003BE,false,Rx,0,8,00,00,00,80,00,00,00,00,
-1693295625354432,000003B8,false,Rx,0,8,64,02,01,00,03,2C,75,1E,
-1693295625344108,000003BA,false,Rx,0,8,2E,2E,3D,33,3D,3D,00,00,
-1693295625334521,000003BC,false,Rx,0,8,2E,2E,21,A6,00,7E,00,00,
-1693295625324410,000003BD,false,Rx,0,8,14,04,0D,00,00,00,00,00,
-1693295625314341,000003BE,false,Rx,0,8,00,00,00,80,00,00,00,00,
-1693295625254483,000003B8,false,Rx,0,8,64,02,01,00,03,2C,75,1E,
-1693295625244500,000003BA,false,Rx,0,8,2E,2E,3D,33,3D,3D,00,00,
-1693295625234346,000003BC,false,Rx,0,8,2E,2E,21,99,00,7E,00,00,
-1693295625224320,000003BD,false,Rx,0,8,14,04,0D,00,00,00,00,00,
-1693295625214507,000003BE,false,Rx,0,8,00,00,00,80,00,00,00,00,
-1693295625154479,000003B8,false,Rx,0,8,64,02,01,00,03,2C,75,1E,
-1693295625144453,000003BA,false,Rx,0,8,2E,2E,3D,33,3D,3D,00,00,
-1693295625134598,000003BC,false,Rx,0,8,2E,2E,21,99,00,7E,00,00,
-1693295625124102,000003BD,false,Rx,0,8,14,04,0D,00,00,00,00,00,
